Timestamp,Elapsed_Time_s,CAN_Message
2026-02-20T17:48:22.872319,1.095,can0  204  [16]  A9 1D 50 46 50 46 50 46 4C 1D 30 75 30 75 00 00
2026-02-20T17:48:22.874261,1.097,can0  041  [04]  9F 00 00 00
2026-02-20T17:48:22.974264,1.197,can0  204  [16]  A9 1D 50 46 50 46 50 46 4C 1D 30 75 30 75 00 00
2026-02-20T17:48:22.974358,1.197,can0  204  [16]  A9 1D 50 46 50 46 50 46 4C 1D 30 75 30 75 00 00
2026-02-20T17:48:23.071586,1.294,can0  204  [16]  A9 1D 50 46 50 46 50 46 4C 1D 30 75 30 75 00 00
2026-02-20T17:48:23.073142,1.296,can0  204  [16]  A9 1D 50 46 50 46 50 46 4C 1D 30 75 30 75 00 00
2026-02-20T17:48:23.171887,1.394,can0  204  [16]  A9 1D 50 46 50 46 50 46 4C 1D 30 75 30 75 00 00
2026-02-20T17:48:23.172002,1.394,can0  041  [04]  83 00 02 00
2026-02-20T17:48:23.172121,1.395,can0  204  [16]  A9 1D 50 46 50 46 50 46 4C 1D 30 75 30 75 00 00
2026-02-20T17:48:23.275005,1.498,can0  204  [16]  A9 1D 50 46 50 46 50 46 4C 1D 30 75 30 75 00 00
2026-02-20T17:48:23.275154,1.498,can0  204  [16]  A9 1D 50 46 50 46 50 46 4C 1D 30 75 30 75 00 00
2026-02-20T17:48:23.372356,1.595,can0  204  [16]  A9 1D 50 46 50 46 50 46 4C 1D 30 75 30 75 00 00
2026-02-20T17:48:23.372469,1.595,can0  204  [16]  A9 1D 50 46 50 46 50 46 4C 1D 30 75 30 75 00 00
2026-02-20T17:48:23.472215,1.695,can0  041  [04]  E4 00 00 00
2026-02-20T17:48:23.472514,1.695,can0  204  [16]  A9 1D 50 46 50 46 50 46 4C 1D 30 75 30 75 00 00
2026-02-20T17:48:23.472554,1.695,can0  206  [24]  7F 0C DE 06 77 0C DA DC 0E 07 83 0C 6F 0C 00 00 00 00 00 00 00 00 00 00
2026-02-20T17:48:23.473046,1.696,can0  100  [03]  6F 59 04
2026-02-20T17:48:23.473192,1.696,can0  204  [16]  A9 1D 50 46 50 46 50 46 4C 1D 30 75 30 75 00 00
2026-02-20T17:48:23.572419,1.795,can0  204  [16]  A9 1D 50 46 50 46 50 46 4C 1D 30 75 30 75 00 00
2026-02-20T17:48:23.572600,1.795,can0  204  [16]  A9 1D 50 46 50 46 50 46 4C 1D 30 75 30 75 00 00
2026-02-20T17:48:23.673979,1.896,can0  204  [16]  A9 1D 50 46 50 46 50 46 4C 1D 30 75 30 75 00 00
2026-02-20T17:48:23.674231,1.897,can0  041  [04]  5E 00 02 00
2026-02-20T17:48:23.674255,1.897,can0  204  [16]  A9 1D 50 46 50 46 50 46 4C 1D 30 75 30 75 00 00
2026-02-20T17:48:23.771438,1.994,can0  204  [16]  A9 1D 50 46 50 46 50 46 4C 1D 30 75 30 75 00 00
2026-02-20T17:48:23.773839,1.996,can0  204  [16]  A9 1D 50 46 50 46 50 46 4C 1D 30 75 30 75 00 00
2026-02-20T17:48:23.872046,2.095,can0  204  [16]  A9 1D 50 46 50 46 50 46 4C 1D 30 75 30 75 00 00
2026-02-20T17:48:23.872200,2.095,can0  204  [16]  A9 1D 50 46 50 46 50 46 4C 1D 30 75 30 75 00 00
2026-02-20T17:48:23.872546,2.095,can0  110  [02]  1E 1D
2026-02-20T17:48:23.971726,2.194,can0  204  [16]  A9 1D 50 46 50 46 50 46 4C 1D 30 75 30 75 00 00
2026-02-20T17:48:23.971886,2.194,can0  041  [04]  81 00 04 00
2026-02-20T17:48:23.972040,2.195,can0  204  [16]  A9 1D 50 46 50 46 50 46 4C 1D 30 75 30 75 00 00
2026-02-20T17:48:24.072006,2.295,can0  204  [16]  A9 1D 50 46 50 46 50 46 4C 1D 30 75 30 75 00 00
2026-02-20T17:48:24.072178,2.295,can0  206  [24]  6F 0C E0 06 77 0C 99 C6 10 07 8F 0C 7B 0C 00 00 00 00 00 00 00 00 00 00
2026-02-20T17:48:24.074203,2.297,can0  204  [16]  A9 1D 50 46 50 46 50 46 4C 1D 30 75 30 75 00 00
2026-02-20T17:48:24.172308,2.395,can0  204  [16]  A9 1D 50 46 50 46 50 46 4C 1D 30 75 30 75 00 00
2026-02-20T17:48:24.175627,2.398,can0  204  [16]  A9 1D 50 46 50 46 50 46 4C 1D 30 75 30 75 00 00
2026-02-20T17:48:24.274331,2.497,can0  041  [04]  B5 00 02 00
2026-02-20T17:48:24.274481,2.497,can0  204  [16]  A9 1D 50 46 50 46 50 46 4C 1D 30 75 30 75 00 00
2026-02-20T17:48:24.274614,2.497,can0  204  [16]  A9 1D 50 46 50 46 50 46 4C 1D 30 75 30 75 00 00
2026-02-20T17:48:24.371675,2.594,can0  204  [16]  A9 1D 50 46 50 46 50 46 4C 1D 30 75 30 75 00 00
2026-02-20T17:48:24.374128,2.597,can0  204  [16]  A9 1D 50 46 50 46 50 46 4C 1D 30 75 30 75 00 00
2026-02-20T17:48:24.472274,2.695,can0  204  [16]  A9 1D 50 46 50 46 50 46 4C 1D 30 75 30 75 00 00
2026-02-20T17:48:24.472401,2.695,can0  041  [04]  9F 00 05 00
2026-02-20T17:48:24.572266,2.795,can0  204  [16]  A9 1D 50 46 50 46 50 46 4C 1D 30 75 30 75 00 00
2026-02-20T17:48:24.572410,2.795,can0  204  [16]  A9 1D 50 46 50 46 50 46 4C 1D 30 75 30 75 00 00
2026-02-20T17:48:24.671439,2.894,can0  204  [16]  A9 1D 50 46 50 46 50 46 4C 1D 30 75 30 75 00 00
2026-02-20T17:48:24.671590,2.894,can0  204  [16]  A9 1D 50 46 50 46 50 46 4C 1D 30 75 30 75 00 00
2026-02-20T17:48:24.771802,2.994,can0  204  [16]  A9 1D 50 46 50 46 50 46 4C 1D 30 75 30 75 00 00
2026-02-20T17:48:24.772207,2.995,can0  100  [03]  74 59 04
2026-02-20T17:48:24.772391,2.995,can0  206  [24]  6F 0C DC 06 7B 0C DA DC 1B 07 77 0C 7F 0C 00 00 00 00 00 00 00 00 00 00
2026-02-20T17:48:24.774772,2.997,can0  041  [04]  8B 00 04 00
2026-02-20T17:48:24.774797,2.997,can0  204  [16]  A9 1D 50 46 50 46 50 46 4C 1D 30 75 30 75 00 00
2026-02-20T17:48:24.871770,3.094,can0  204  [16]  A9 1D 50 46 50 46 50 46 4C 1D 30 75 30 75 00 00
2026-02-20T17:48:24.871876,3.094,can0  204  [16]  A9 1D 50 46 50 46 50 46 4C 1D 30 75 30 75 00 00
2026-02-20T17:48:24.971814,3.194,can0  204  [16]  A9 1D 50 46 50 46 50 46 4C 1D 30 75 30 75 00 00
2026-02-20T17:48:24.972451,3.195,can0  204  [16]  A9 1D 50 46 50 46 50 46 4C 1D 30 75 30 75 00 00
2026-02-20T17:48:25.072137,3.295,can0  204  [16]  A9 1D 50 46 50 46 50 46 4C 1D 30 75 30 75 00 00
2026-02-20T17:48:25.072299,3.295,can0  041  [04]  E4 00 00 00
2026-02-20T17:48:25.074713,3.297,can0  204  [16]  A9 1D 50 46 50 46 50 46 4C 1D 30 75 30 75 00 00
2026-02-20T17:48:25.176566,3.399,can0  204  [16]  A9 1D 50 46 50 46 50 46 4C 1D 30 75 30 75 00 00
2026-02-20T17:48:25.176722,3.399,can0  204  [16]  A9 1D 50 46 50 46 50 46 4C 1D 30 75 30 75 00 00
2026-02-20T17:48:25.270967,3.493,can0  204  [16]  A9 1D 50 46 50 46 50 46 4C 1D 30 75 30 75 00 00
2026-02-20T17:48:25.271124,3.494,can0  204  [16]  A9 1D 50 46 50 46 50 46 4C 1D 30 75 30 75 00 00
2026-02-20T17:48:25.271255,3.494,can0  041  [04]  3F 01 00 00
2026-02-20T17:48:25.374498,3.597,can0  204  [16]  A9 1D 50 46 50 46 50 46 4C 1D 30 75 30 75 00 00
2026-02-20T17:48:25.374592,3.597,can0  204  [16]  A9 1D 50 46 50 46 50 46 4C 1D 30 75 30 75 00 00
2026-02-20T17:48:25.374716,3.597,can0  206  [24]  77 0C E0 06 77 0C C5 E1 14 07 7B 0C 77 0C 00 00 00 00 00 00 00 00 00 00
2026-02-20T17:48:25.471558,3.694,can0  204  [16]  A9 1D 50 46 50 46 50 46 4C 1D 30 75 30 75 00 00
2026-02-20T17:48:25.471710,3.694,can0  204  [16]  A9 1D 50 46 50 46 50 46 4C 1D 30 75 30 75 00 00
2026-02-20T17:48:25.572259,3.795,can0  204  [16]  A9 1D 50 46 50 46 50 46 4C 1D 30 75 30 75 00 00
2026-02-20T17:48:25.572408,3.795,can0  041  [04]  E4 00 02 00
2026-02-20T17:48:25.572692,3.795,can0  110  [02]  1D 1D
2026-02-20T17:48:25.572838,3.795,can0  204  [16]  A9 1D 50 46 50 46 50 46 4C 1D 30 75 30 75 00 00
2026-02-20T17:48:25.672300,3.895,can0  204  [16]  A9 1D 50 46 50 46 50 46 4C 1D 30 75 30 75 00 00
2026-02-20T17:48:25.672445,3.895,can0  204  [16]  A9 1D 50 46 50 46 50 46 4C 1D 30 75 30 75 00 00
2026-02-20T17:48:25.771574,3.994,can0  204  [16]  A9 1D 50 46 50 46 50 46 4C 1D 30 75 30 75 00 00
2026-02-20T17:48:25.773851,3.996,can0  204  [16]  A9 1D 50 46 50 46 50 46 4C 1D 30 75 30 75 00 00
2026-02-20T17:48:25.871605,4.094,can0  041  [04]  B5 00 05 00
2026-02-20T17:48:25.871759,4.094,can0  204  [16]  A9 1D 50 46 50 46 50 46 4C 1D 30 75 30 75 00 00
2026-02-20T17:48:25.873963,4.096,can0  204  [16]  A9 1D 50 46 50 46 50 46 4C 1D 30 75 30 75 00 00
2026-02-20T17:48:25.971441,4.194,can0  204  [16]  A9 1D 50 46 50 46 50 46 4C 1D 30 75 30 75 00 00
2026-02-20T17:48:25.971607,4.194,can0  204  [16]  A9 1D 50 46 50 46 50 46 4C 1D 30 75 30 75 00 00
2026-02-20T17:48:25.971907,4.194,can0  100  [03]  77 59 04
2026-02-20T17:48:26.071662,4.294,can0  206  [24]  77 0C E3 06 6F 0C C5 E1 14 07 83 0C 7B 0C 00 00 00 00 00 00 00 00 00 00
2026-02-20T17:48:26.071831,4.294,can0  204  [16]  A9 1D 50 46 50 46 50 46 4C 1D 30 75 30 75 00 00
2026-02-20T17:48:26.071946,4.294,can0  041  [04]  6A 00 08 00
2026-02-20T17:48:26.072062,4.295,can0  204  [16]  A9 1D 50 46 50 46 50 46 4C 1D 30 75 30 75 00 00
2026-02-20T17:48:26.172189,4.395,can0  204  [16]  A9 1D 50 46 50 46 50 46 4C 1D 30 75 30 75 00 00
2026-02-20T17:48:26.172367,4.395,can0  204  [16]  A9 1D 50 46 50 46 50 46 4C 1D 30 75 30 75 00 00
2026-02-20T17:48:26.271501,4.494,can0  204  [16]  A9 1D 50 46 50 46 50 46 4C 1D 30 75 30 75 00 00
2026-02-20T17:48:26.271609,4.494,can0  204  [16]  A9 1D 50 46 50 46 50 46 4C 1D 30 75 30 75 00 00
2026-02-20T17:48:26.372249,4.595,can0  204  [16]  A9 1D 50 46 50 46 50 46 4C 1D 30 75 30 75 00 00
2026-02-20T17:48:26.372360,4.595,can0  041  [04]  83 00 04 00
2026-02-20T17:48:26.372459,4.595,can0  204  [16]  A9 1D 50 46 50 46 50 46 4C 1D 30 75 30 75 00 00
2026-02-20T17:48:26.471698,4.694,can0  204  [16]  A9 1D 50 46 50 46 50 46 4C 1D 30 75 30 75 00 00
2026-02-20T17:48:26.471801,4.694,can0  204  [16]  A9 1D 50 46 50 46 50 46 4C 1D 30 75 30 75 00 00
2026-02-20T17:48:26.571736,4.794,can0  204  [16]  A9 1D 50 46 50 46 50 46 4C 1D 30 75 30 75 00 00
2026-02-20T17:48:26.571827,4.794,can0  204  [16]  A9 1D 50 46 50 46 50 46 4C 1D 30 75 30 75 00 00
2026-02-20T17:48:26.671707,4.894,can0  041  [04]  7A 00 04 00
2026-02-20T17:48:26.671854,4.894,can0  204  [16]  A9 1D 50 46 50 46 50 46 4C 1D 30 75 30 75 00 00
2026-02-20T17:48:26.672020,4.895,can0  206  [24]  73 0C DE 06 73 0C 99 C6 0E 07 87 0C 77 0C 00 00 00 00 00 00 00 00 00 00
2026-02-20T17:48:26.772048,4.995,can0  204  [16]  A9 1D 50 46 50 46 50 46 4C 1D 30 75 30 75 00 00
2026-02-20T17:48:26.772184,4.995,can0  204  [16]  A9 1D 50 46 50 46 50 46 4C 1D 30 75 30 75 00 00
2026-02-20T17:48:26.871432,5.094,can0  204  [16]  A9 1D 50 46 50 46 50 46 4C 1D 30 75 30 75 00 00
2026-02-20T17:48:26.871562,5.094,can0  204  [16]  A9 1D 50 46 50 46 50 46 4C 1D 30 75 30 75 00 00
2026-02-20T17:48:26.871684,5.094,can0  041  [04]  5E 00 06 00
2026-02-20T17:48:26.971775,5.194,can0  204  [16]  A9 1D 50 46 50 46 50 46 4C 1D 30 75 30 75 00 00
2026-02-20T17:48:26.972541,5.195,can0  204  [16]  A9 1D 50 46 50 46 50 46 4C 1D 30 75 30 75 00 00
2026-02-20T17:48:27.071891,5.294,can0  204  [16]  A9 1D 50 46 50 46 50 46 4C 1D 30 75 30 75 00 00
2026-02-20T17:48:27.071991,5.294,can0  204  [16]  A9 1D 50 46 50 46 50 46 4C 1D 30 75 30 75 00 00
2026-02-20T17:48:27.172315,5.395,can0  204  [16]  A9 1D 50 46 50 46 50 46 4C 1D 30 75 30 75 00 00
2026-02-20T17:48:27.172469,5.395,can0  041  [04]  6C 00 06 00
2026-02-20T17:48:27.172624,5.395,can0  204  [16]  A9 1D 50 46 50 46 50 46 4C 1D 30 75 30 75 00 00
2026-02-20T17:48:27.271525,5.494,can0  204  [16]  A9 1D 50 46 50 46 50 46 4C 1D 30 75 30 75 00 00
2026-02-20T17:48:27.271879,5.494,can0  100  [03]  7A 59 04
2026-02-20T17:48:27.272006,5.494,can0  204  [16]  A9 1D 50 46 50 46 50 46 4C 1D 30 75 30 75 00 00
2026-02-20T17:48:27.272260,5.495,can0  110  [02]  1E 1D
2026-02-20T17:48:27.371488,5.594,can0  204  [16]  A9 1D 50 46 50 46 50 46 4C 1D 30 75 30 75 00 00
2026-02-20T17:48:27.371632,5.594,can0  206  [24]  87 0C E0 06 56 0C DA DC 16 07 83 0C 7F 0C 00 00 00 00 00 00 00 00 00 00
2026-02-20T17:48:27.371744,5.594,can0  204  [16]  A9 1D 50 46 50 46 50 46 4C 1D 30 75 30 75 00 00
2026-02-20T17:48:27.471769,5.694,can0  041  [04]  6A 00 07 00
2026-02-20T17:48:27.471938,5.694,can0  204  [16]  A9 1D 50 46 50 46 50 46 4C 1D 30 75 30 75 00 00
2026-02-20T17:48:27.472096,5.695,can0  204  [16]  A9 1D 50 46 50 46 50 46 4C 1D 30 75 30 75 00 00
2026-02-20T17:48:27.571832,5.794,can0  204  [16]  A9 1D 50 46 50 46 50 46 4C 1D 30 75 30 75 00 00
2026-02-20T17:48:27.571975,5.794,can0  204  [16]  A9 1D 50 46 50 46 50 46 4C 1D 30 75 30 75 00 00
2026-02-20T17:48:27.671989,5.894,can0  204  [16]  A9 1D 50 46 50 46 50 46 4C 1D 30 75 30 75 00 00
2026-02-20T17:48:27.672129,5.895,can0  204  [16]  A9 1D 50 46 50 46 50 46 4C 1D 30 75 30 75 00 00
2026-02-20T17:48:27.672221,5.895,can0  041  [04]  5E 00 00 00
2026-02-20T17:48:27.772293,5.995,can0  204  [16]  A9 1D 50 46 50 46 50 46 4C 1D 30 75 30 75 00 00
2026-02-20T17:48:27.772458,5.995,can0  204  [16]  A9 1D 50 46 50 46 50 46 4C 1D 30 75 30 75 00 00
2026-02-20T17:48:27.897145,6.120,can0  204  [16]  A9 1D 50 46 50 46 50 46 4C 1D 30 75 30 75 00 00
2026-02-20T17:48:27.897293,6.120,can0  204  [16]  A9 1D 50 46 50 46 50 46 4C 1D 30 75 30 75 00 00
2026-02-20T17:48:27.972227,6.195,can0  204  [16]  A9 1D 50 46 50 46 50 46 4C 1D 30 75 30 75 00 00
2026-02-20T17:48:27.972388,6.195,can0  041  [04]  2B 01 04 00
2026-02-20T17:48:27.975112,6.198,can0  204  [16]  A9 1D 50 46 50 46 50 46 4C 1D 30 75 30 75 00 00
2026-02-20T17:48:27.975140,6.198,can0  206  [24]  6B 0C DE 06 73 0C 99 C6 12 07 83 0C 83 0C 00 00 00 00 00 00 00 00 00 00
2026-02-20T17:48:28.096482,6.319,can0  204  [16]  A9 1D 50 46 50 46 50 46 4C 1D 30 75 30 75 00 00
2026-02-20T17:48:28.098860,6.321,can0  204  [16]  A9 1D 50 46 50 46 50 46 4C 1D 30 75 30 75 00 00
2026-02-20T17:48:28.197082,6.420,can0  204  [16]  A9 1D 50 46 50 46 50 46 4C 1D 30 75 30 75 00 00
2026-02-20T17:48:28.197237,6.420,can0  204  [16]  A9 1D 50 46 50 46 50 46 4C 1D 30 75 30 75 00 00
2026-02-20T17:48:28.297389,6.520,can0  041  [04]  2B 01 0A 00
2026-02-20T17:48:28.297574,6.520,can0  204  [16]  A9 1D 50 46 50 46 50 46 4C 1D 30 75 30 75 00 00
2026-02-20T17:48:28.297679,6.520,can0  204  [16]  A9 1D 50 46 50 46 50 46 4C 1D 30 75 30 75 00 00
2026-02-20T17:48:28.397317,6.620,can0  204  [16]  A9 1D 50 46 50 46 50 46 4C 1D 30 75 30 75 00 00
2026-02-20T17:48:28.397433,6.620,can0  204  [16]  A9 1D 50 46 50 46 50 46 4C 1D 30 75 30 75 00 00
2026-02-20T17:48:28.496443,6.719,can0  204  [16]  A9 1D 50 46 50 46 50 46 4C 1D 30 75 30 75 00 00
2026-02-20T17:48:28.496561,6.719,can0  041  [04]  10 01 0D 00
2026-02-20T17:48:28.496670,6.719,can0  204  [16]  A9 1D 50 46 50 46 50 46 4C 1D 30 75 30 75 00 00
2026-02-20T17:48:28.596750,6.819,can0  100  [03]  7E 59 04
2026-02-20T17:48:28.596872,6.819,can0  204  [16]  A9 1D 50 46 50 46 50 46 4C 1D 30 75 30 75 00 00
2026-02-20T17:48:28.596981,6.819,can0  204  [16]  A9 1D 50 46 50 46 50 46 4C 1D 30 75 30 75 00 00
2026-02-20T17:48:28.696576,6.919,can0  206  [24]  83 0C DA 06 73 0C 99 C6 14 07 7F 0C 6F 0C 00 00 00 00 00 00 00 00 00 00
2026-02-20T17:48:28.696698,6.919,can0  204  [16]  A9 1D 50 46 50 46 50 46 4C 1D 30 75 30 75 00 00
2026-02-20T17:48:28.696802,6.919,can0  204  [16]  A9 1D 50 46 50 46 50 46 4C 1D 30 75 30 75 00 00
2026-02-20T17:48:28.797336,7.020,can0  041  [04]  10 01 0A 00
2026-02-20T17:48:28.797463,7.020,can0  204  [16]  A9 1D 50 46 50 46 50 46 4C 1D 30 75 30 75 00 00
2026-02-20T17:48:28.797558,7.020,can0  204  [16]  A9 1D 50 46 50 46 50 46 4C 1D 30 75 30 75 00 00
2026-02-20T17:48:28.896932,7.119,can0  204  [16]  A9 1D 50 46 50 46 50 46 4C 1D 30 75 30 75 00 00
2026-02-20T17:48:28.904419,7.127,can0  204  [16]  A9 1D 50 46 50 46 50 46 4C 1D 30 75 30 75 00 00
2026-02-20T17:48:28.997310,7.220,can0  204  [16]  A9 1D 50 46 50 46 50 46 4C 1D 30 75 30 75 00 00
2026-02-20T17:48:28.997626,7.220,can0  110  [02]  1F 1D
2026-02-20T17:48:28.997751,7.220,can0  204  [16]  A9 1D 50 46 50 46 50 46 4C 1D 30 75 30 75 00 00
2026-02-20T17:48:28.997849,7.220,can0  041  [04]  27 01 06 00
2026-02-20T17:48:29.097252,7.320,can0  204  [16]  A9 1D 50 46 50 46 50 46 4C 1D 30 75 30 75 00 00
2026-02-20T17:48:29.097373,7.320,can0  204  [16]  A9 1D 50 46 50 46 50 46 4C 1D 30 75 30 75 00 00
2026-02-20T17:48:29.201379,7.424,can0  204  [16]  A9 1D 50 46 50 46 50 46 4C 1D 30 75 30 75 00 00
2026-02-20T17:48:29.203735,7.426,can0  204  [16]  A9 1D 50 46 50 46 50 46 4C 1D 30 75 30 75 00 00
2026-02-20T17:48:29.296506,7.519,can0  204  [16]  A9 1D 50 46 50 46 50 46 4C 1D 30 75 30 75 00 00
2026-02-20T17:48:29.296640,7.519,can0  041  [04]  25 01 09 00
2026-02-20T17:48:29.296804,7.519,can0  206  [24]  73 0C E3 06 6F 0C 99 C6 14 07 93 0C 7B 0C 00 00 00 00 00 00 00 00 00 00
2026-02-20T17:48:29.298960,7.521,can0  204  [16]  A9 1D 50 46 50 46 50 46 4C 1D 30 75 30 75 00 00
2026-02-20T17:48:29.396786,7.619,can0  204  [16]  A9 1D 50 46 50 46 50 46 4C 1D 30 75 30 75 00 00
2026-02-20T17:48:29.396935,7.619,can0  204  [16]  A9 1D 50 46 50 46 50 46 4C 1D 30 75 30 75 00 00
2026-02-20T17:48:29.496627,7.719,can0  204  [16]  A9 1D 50 46 50 46 50 46 4C 1D 30 75 30 75 00 00
2026-02-20T17:48:29.596893,7.819,can0  204  [16]  A9 1D 50 46 50 46 50 46 4C 1D 30 75 30 75 00 00
2026-02-20T17:48:29.597049,7.820,can0  041  [04]  16 01 0D 00
2026-02-20T17:48:29.599519,7.822,can0  204  [16]  A9 1D 50 46 50 46 50 46 4C 1D 30 75 30 75 00 00
2026-02-20T17:48:29.696787,7.919,can0  204  [16]  A9 1D 50 46 50 46 50 46 4C 1D 30 75 30 75 00 00
2026-02-20T17:48:29.696951,7.919,can0  204  [16]  A9 1D 50 46 50 46 50 46 4C 1D 30 75 30 75 00 00
2026-02-20T17:48:29.797073,8.020,can0  204  [16]  A9 1D 50 46 50 46 50 46 4C 1D 30 75 30 75 00 00
2026-02-20T17:48:29.797236,8.020,can0  204  [16]  A9 1D 50 46 50 46 50 46 4C 1D 30 75 30 75 00 00
2026-02-20T17:48:29.797577,8.020,can0  100  [03]  82 59 04
2026-02-20T17:48:29.896772,8.119,can0  041  [04]  06 01 0B 00
2026-02-20T17:48:29.896942,8.119,can0  204  [16]  A9 1D 50 46 50 46 50 46 4C 1D 30 75 30 75 00 00
2026-02-20T17:48:29.898565,8.121,can0  204  [16]  A9 1D 50 46 50 46 50 46 4C 1D 30 75 30 75 00 00
2026-02-20T17:48:29.996831,8.219,can0  204  [16]  A9 1D 50 46 50 46 50 46 4C 1D 30 75 30 75 00 00
2026-02-20T17:48:29.996989,8.219,can0  206  [24]  6F 0C DA 06 73 0C 99 C6 12 07 83 0C 83 0C 00 00 00 00 00 00 00 00 00 00
2026-02-20T17:48:29.997114,8.220,can0  204  [16]  A9 1D 50 46 50 46 50 46 4C 1D 30 75 30 75 00 00
2026-02-20T17:48:30.096842,8.319,can0  204  [16]  A9 1D 50 46 50 46 50 46 4C 1D 30 75 30 75 00 00
2026-02-20T17:48:30.096962,8.319,can0  204  [16]  A9 1D 50 46 50 46 50 46 4C 1D 30 75 30 75 00 00
2026-02-20T17:48:30.097070,8.320,can0  041  [04]  10 01 07 00
2026-02-20T17:48:30.196680,8.419,can0  204  [16]  A9 1D 50 46 50 46 50 46 4C 1D 30 75 30 75 00 00
2026-02-20T17:48:30.196798,8.419,can0  204  [16]  A9 1D 50 46 50 46 50 46 4C 1D 30 75 30 75 00 00
2026-02-20T17:48:30.297405,8.520,can0  204  [16]  A9 1D 50 46 50 46 50 46 4C 1D 30 75 30 75 00 00
2026-02-20T17:48:30.297527,8.520,can0  204  [16]  A9 1D 50 46 50 46 50 46 4C 1D 30 75 30 75 00 00
2026-02-20T17:48:30.396858,8.619,can0  204  [16]  A9 1D 50 46 50 46 50 46 4C 1D 30 75 30 75 00 00
2026-02-20T17:48:30.396983,8.619,can0  041  [04]  24 01 04 00
2026-02-20T17:48:30.397105,8.620,can0  204  [16]  A9 1D 50 46 50 46 50 46 4C 1D 30 75 30 75 00 00
2026-02-20T17:48:30.496448,8.719,can0  204  [16]  A9 1D 50 46 50 46 50 46 4C 1D 30 75 30 75 00 00
2026-02-20T17:48:30.496566,8.719,can0  204  [16]  A9 1D 50 46 50 46 50 46 4C 1D 30 75 30 75 00 00
2026-02-20T17:48:30.604850,8.827,can0  204  [16]  A9 1D 50 46 50 46 50 46 4C 1D 30 75 30 75 00 00
2026-02-20T17:48:30.605205,8.828,can0  206  [24]  7B 0C DA 06 77 0C 99 C6 12 07 7B 0C 7B 0C 00 00 00 00 00 00 00 00 00 00
2026-02-20T17:48:30.605439,8.828,can0  204  [16]  A9 1D 50 46 50 46 50 46 4C 1D 30 75 30 75 00 00
2026-02-20T17:48:30.612658,8.835,can0   00  [05]  04 86 b0 10 08 0
2026-02-20T17:48:30.690137,8.913,can0  041  [04]  27 01 06 00
2026-02-20T17:48:30.690837,8.913,can0  204  [16]  A9 1D 50 46 50 46 50 46 4C 1D 30 75 30 75 00 00
2026-02-20T17:48:30.690894,8.913,can0  110  [02]  1D 1D
2026-02-20T17:48:30.691131,8.914,can0  001  [05]  48 6B 01 00 80
2026-02-20T17:48:30.691175,8.914,can0  204  [16]  A9 1D 50 46 50 46 50 46 54 24 30 75 30 75 00 00
2026-02-20T17:48:30.791184,9.014,can0  204  [16]  A9 1D 50 46 50 46 50 46 54 24 30 75 30 75 00 00
2026-02-20T17:48:30.795553,9.018,can0  204  [16]  A9 1D 50 46 50 46 50 46 54 24 30 75 30 75 00 00
2026-02-20T17:48:30.905746,9.128,can0  204  [16]  A9 1D 50 46 50 46 50 46 54 24 30 75 30 75 00 00
2026-02-20T17:48:30.905907,9.128,can0  041  [04]  E4 00 02 00
2026-02-20T17:48:30.906085,9.129,can0  204  [16]  CC 1D 50 46 50 46 50 46 54 24 30 75 30 75 00 00
2026-02-20T17:48:30.990061,9.213,can0  204  [16]  CC 1D 50 46 50 46 50 46 54 24 30 75 30 75 00 00
2026-02-20T17:48:30.992985,9.215,can0  204  [16]  CC 1D 50 46 50 46 50 46 54 24 30 75 30 75 00 00
2026-02-20T17:48:31.085616,9.308,can0  204  [16]  F0 1D 50 46 50 46 50 46 54 24 30 75 30 75 00 00
2026-02-20T17:48:31.086002,9.308,can0  100  [03]  88 59 04
2026-02-20T17:48:31.086212,9.309,can0  204  [16]  F0 1D 50 46 50 46 50 46 54 24 30 75 30 75 00 00
2026-02-20T17:48:31.183812,9.406,can0  041  [04]  10 01 07 00
2026-02-20T17:48:31.184003,9.406,can0  204  [16]  13 1E 50 46 50 46 50 46 54 24 30 75 30 75 00 00
2026-02-20T17:48:31.184197,9.407,can0  204  [16]  7C 1E 50 46 50 46 50 46 54 24 30 75 30 75 00 00
2026-02-20T17:48:31.280547,9.503,can0  206  [24]  5F 0C D8 06 6F 0C C5 E1 14 07 5F 0C 5F 0C 00 00 00 00 00 00 00 00 00 00
2026-02-20T17:48:31.280746,9.503,can0  204  [16]  C3 1E 50 46 50 46 50 46 54 24 30 75 30 75 00 00
2026-02-20T17:48:31.283855,9.506,can0  204  [16]  2C 1F 50 46 50 46 50 46 54 24 30 75 30 75 00 00
2026-02-20T17:48:31.379159,9.602,can0  204  [16]  95 1F 50 46 50 46 50 46 54 24 30 75 30 75 00 00
2026-02-20T17:48:31.379355,9.602,can0  204  [16]  DC 1F 50 46 50 46 50 46 54 24 30 75 30 75 00 00
2026-02-20T17:48:31.382244,9.605,can0  041  [04]  FF 00 06 00
2026-02-20T17:48:31.477212,9.700,can0  204  [16]  45 20 50 46 50 46 50 46 54 24 30 75 30 75 00 00
2026-02-20T17:48:31.477405,9.700,can0  204  [16]  AF 20 50 46 50 46 50 46 54 24 30 75 30 75 00 00
2026-02-20T17:48:31.607352,9.830,can0  204  [16]  D2 20 50 46 50 46 50 46 54 24 30 75 30 75 00 00
2026-02-20T17:48:31.607433,9.830,can0  204  [16]  18 21 50 46 50 46 50 46 54 24 30 75 30 75 00 00
2026-02-20T17:48:31.680996,9.903,can0  204  [16]  3B 21 50 46 50 46 50 46 54 24 30 75 30 75 00 00
2026-02-20T17:48:31.681165,9.904,can0  041  [04]  E4 00 05 00
2026-02-20T17:48:31.799626,10.022,can0  204  [16]  82 21 50 46 50 46 50 46 54 24 30 75 30 75 00 00
2026-02-20T17:48:31.803036,10.026,can0  204  [16]  A5 21 50 46 50 46 50 46 54 24 30 75 30 75 00 00
2026-02-20T17:48:31.897340,10.120,can0  204  [16]  EB 21 50 46 50 46 50 46 54 24 30 75 30 75 00 00
2026-02-20T17:48:31.897480,10.120,can0  204  [16]  0E 22 50 46 50 46 50 46 54 24 30 75 30 75 00 00
2026-02-20T17:48:31.897634,10.120,can0  206  [24]  7B 0C D8 06 6B 0C 99 C6 10 07 7B 0C 67 0C 00 00 00 00 00 00 00 00 00 00
2026-02-20T17:48:31.996808,10.219,can0  204  [16]  31 22 50 46 50 46 50 46 54 24 30 75 30 75 00 00
2026-02-20T17:48:31.996958,10.219,can0  041  [04]  5E 00 00 00
2026-02-20T17:48:32.000064,10.223,can0  204  [16]  55 22 50 46 50 46 50 46 54 24 30 75 30 75 00 00
2026-02-20T17:48:32.096853,10.319,can0  204  [16]  78 22 50 46 50 46 50 46 54 24 30 75 30 75 00 00
2026-02-20T17:48:32.097035,10.320,can0  204  [16]  9B 22 50 46 50 46 50 46 54 24 30 75 30 75 00 00
2026-02-20T17:48:32.197028,10.420,can0  204  [16]  BE 22 50 46 50 46 50 46 54 24 30 75 30 75 00 00
2026-02-20T17:48:32.197215,10.420,can0  204  [16]  E1 22 50 46 50 46 50 46 54 24 30 75 30 75 00 00
2026-02-20T17:48:32.200041,10.423,can0  041  [04]  5E 00 02 00
2026-02-20T17:48:32.296427,10.519,can0  204  [16]  04 23 50 46 50 46 50 46 54 24 30 75 30 75 00 00
2026-02-20T17:48:32.296617,10.519,can0  204  [16]  28 23 50 46 50 46 50 46 54 24 30 75 30 75 00 00
2026-02-20T17:48:32.397131,10.620,can0  204  [16]  28 23 50 46 50 46 50 46 54 24 30 75 30 75 00 00
2026-02-20T17:48:32.397519,10.620,can0  100  [03]  8C 59 04
2026-02-20T17:48:32.397797,10.620,can0  110  [02]  1C 1D
2026-02-20T17:48:32.397970,10.620,can0  204  [16]  4B 23 50 46 50 46 50 46 54 24 30 75 30 75 00 00
2026-02-20T17:48:32.496387,10.719,can0  204  [16]  6E 23 50 46 50 46 50 46 54 24 30 75 30 75 00 00
2026-02-20T17:48:32.496541,10.719,can0  041  [04]  7A 00 04 00
2026-02-20T17:48:32.498120,10.721,can0  204  [16]  6E 23 50 46 50 46 50 46 54 24 30 75 30 75 00 00
2026-02-20T17:48:32.599954,10.822,can0  204  [16]  91 23 50 46 50 46 50 46 54 24 30 75 30 75 00 00
2026-02-20T17:48:32.600007,10.822,can0  206  [24]  77 0C DC 06 6B 0C 3A DF 09 07 7F 0C 6F 0C 00 00 00 00 00 00 00 00 00 00
2026-02-20T17:48:32.600043,10.823,can0  204  [16]  91 23 50 46 50 46 50 46 54 24 30 75 30 75 00 00
2026-02-20T17:48:32.700319,10.923,can0  204  [16]  B4 23 50 46 50 46 50 46 54 24 30 75 30 75 00 00
2026-02-20T17:48:32.703689,10.926,can0  204  [16]  B4 23 50 46 50 46 50 46 54 24 30 75 30 75 00 00
2026-02-20T17:48:32.798230,11.021,can0  204  [16]  D7 23 50 46 50 46 50 46 54 24 30 75 30 75 00 00
2026-02-20T17:48:32.798356,11.021,can0  041  [04]  52 01 05 00
2026-02-20T17:48:32.798482,11.021,can0  204  [16]  D7 23 50 46 50 46 50 46 54 24 30 75 30 75 00 00
2026-02-20T17:48:32.896357,11.119,can0  204  [16]  D7 23 50 46 50 46 50 46 54 24 30 75 30 75 00 00
2026-02-20T17:48:32.896484,11.119,can0  204  [16]  D7 23 50 46 50 46 50 46 54 24 30 75 30 75 00 00
2026-02-20T17:48:32.996994,11.219,can0  204  [16]  FA 23 50 46 50 46 50 46 54 24 30 75 30 75 00 00
2026-02-20T17:48:32.997126,11.220,can0  204  [16]  FA 23 50 46 50 46 50 46 54 24 30 75 30 75 00 00
2026-02-20T17:48:32.997241,11.220,can0  041  [04]  30 01 08 00
2026-02-20T17:48:33.096595,11.319,can0  204  [16]  FA 23 50 46 50 46 50 46 54 24 30 75 30 75 00 00
2026-02-20T17:48:33.096715,11.319,can0  204  [16]  FA 23 50 46 50 46 50 46 54 24 30 75 30 75 00 00
2026-02-20T17:48:33.203453,11.426,can0  204  [16]  FA 23 50 46 50 46 50 46 54 24 30 75 30 75 00 00
2026-02-20T17:48:33.203758,11.426,can0  206  [24]  87 0C DC 06 73 0C A2 E8 16 07 8B 0C 67 0C 00 00 00 00 00 00 00 00 00 00
2026-02-20T17:48:33.203890,11.426,can0  204  [16]  FA 23 50 46 50 46 50 46 54 24 30 75 30 75 00 00
2026-02-20T17:48:33.293693,11.516,can0  204  [16]  FA 23 50 46 50 46 50 46 54 24 30 75 30 75 00 00
2026-02-20T17:48:33.293812,11.516,can0  041  [04]  28 01 09 00
2026-02-20T17:48:33.293942,11.516,can0  204  [16]  FA 23 50 46 50 46 50 46 54 24 30 75 30 75 00 00
2026-02-20T17:48:33.381780,11.604,can0  204  [16]  FA 23 50 46 50 46 50 46 54 24 30 75 30 75 00 00
2026-02-20T17:48:33.381905,11.604,can0  204  [16]  FA 23 50 46 50 46 50 46 54 24 30 75 30 75 00 00
2026-02-20T17:48:33.486707,11.709,can0  204  [16]  FA 23 50 46 50 46 50 46 54 24 30 75 30 75 00 00
2026-02-20T17:48:33.486835,11.709,can0  204  [16]  FA 23 50 46 50 46 50 46 54 24 30 75 30 75 00 00
2026-02-20T17:48:33.648236,11.871,can0  041  [04]  1F 01 02 00
2026-02-20T17:48:33.648298,11.871,can0  204  [16]  FA 23 50 46 50 46 50 46 54 24 30 75 30 75 00 00
2026-02-20T17:48:33.648332,11.871,can0  100  [03]  92 59 04
2026-02-20T17:48:33.648366,11.871,can0  204  [16]  FA 23 50 46 50 46 50 46 54 24 30 75 30 75 00 00
2026-02-20T17:48:33.686481,11.909,can0  204  [16]  FA 23 50 46 50 46 50 46 54 24 30 75 30 75 00 00
2026-02-20T17:48:33.686602,11.909,can0  204  [16]  FA 23 50 46 50 46 50 46 54 24 30 75 30 75 00 00
2026-02-20T17:48:33.807054,12.030,can0  204  [16]  FA 23 50 46 50 46 50 46 54 24 30 75 30 75 00 00
2026-02-20T17:48:33.807390,12.030,can0  041  [04]  10 01 05 00
2026-02-20T17:48:33.807443,12.030,can0  204  [16]  FA 23 50 46 50 46 50 46 54 24 30 75 30 75 00 00
2026-02-20T17:48:33.887722,12.110,can0  206  [24]  83 0C DC 06 6F 0C 99 C6 0E 07 93 0C 6B 0C 00 00 00 00 00 00 00 00 00 00
2026-02-20T17:48:33.887896,12.110,can0  204  [16]  FA 23 50 46 50 46 50 46 54 24 30 75 30 75 00 00
2026-02-20T17:48:33.888065,12.111,can0  204  [16]  FA 23 50 46 50 46 50 46 54 24 30 75 30 75 00 00
2026-02-20T17:48:33.995053,12.218,can0  204  [16]  FA 23 50 46 50 46 50 46 54 24 30 75 30 75 00 00
2026-02-20T17:48:34.002520,12.225,can0  204  [16]  FA 23 50 46 50 46 50 46 54 24 30 75 30 75 00 00
2026-02-20T17:48:34.083034,12.306,can0  110  [02]  1E 1D
2026-02-20T17:48:34.083190,12.306,can0  204  [16]  FA 23 50 46 50 46 50 46 54 24 30 75 30 75 00 00
2026-02-20T17:48:34.083319,12.306,can0  041  [04]  10 01 07 00
2026-02-20T17:48:34.083439,12.306,can0  204  [16]  FA 23 50 46 50 46 50 46 54 24 30 75 30 75 00 00
2026-02-20T17:48:34.189448,12.412,can0  204  [16]  FA 23 50 46 50 46 50 46 54 24 30 75 30 75 00 00
2026-02-20T17:48:34.189573,12.412,can0  204  [16]  FA 23 50 46 50 46 50 46 54 24 30 75 30 75 00 00
2026-02-20T17:48:34.292419,12.515,can0  204  [16]  FA 23 50 46 50 46 50 46 54 24 30 75 30 75 00 00
2026-02-20T17:48:34.292552,12.515,can0  204  [16]  FA 23 50 46 50 46 50 46 54 24 30 75 30 75 00 00
2026-02-20T17:48:34.395494,12.618,can0  041  [04]  10 01 0A 00
2026-02-20T17:48:34.398795,12.621,can0  204  [16]  FA 23 50 46 50 46 50 46 54 24 30 75 30 75 00 00
2026-02-20T17:48:34.398846,12.621,can0  204  [16]  FA 23 50 46 50 46 50 46 54 24 30 75 30 75 00 00
2026-02-20T17:48:34.497495,12.720,can0  204  [16]  FA 23 50 46 50 46 50 46 54 24 30 75 30 75 00 00
2026-02-20T17:48:34.497658,12.720,can0  206  [24]  5F 0C DC 06 7F 0C B1 E0 12 07 7F 0C 83 0C 00 00 00 00 00 00 00 00 00 00
2026-02-20T17:48:34.607219,12.830,can0  204  [16]  FA 23 50 46 50 46 50 46 54 24 30 75 30 75 00 00
2026-02-20T17:48:34.607348,12.830,can0  204  [16]  FA 23 50 46 50 46 50 46 54 24 30 75 30 75 00 00
2026-02-20T17:48:34.607465,12.830,can0  041  [04]  10 01 12 00
2026-02-20T17:48:34.689146,12.912,can0  204  [16]  FA 23 50 46 50 46 50 46 54 24 30 75 30 75 00 00
2026-02-20T17:48:34.689277,12.912,can0  204  [16]  FA 23 50 46 50 46 50 46 54 24 30 75 30 75 00 00
2026-02-20T17:48:34.796394,13.019,can0  204  [16]  FA 23 50 46 50 46 50 46 54 24 30 75 30 75 00 00
2026-02-20T17:48:34.796462,13.019,can0  204  [16]  FA 23 50 46 50 46 50 46 54 24 30 75 30 75 00 00
2026-02-20T17:48:34.887347,13.110,can0  204  [16]  FA 23 50 46 50 46 50 46 54 24 30 75 30 75 00 00
2026-02-20T17:48:34.887718,13.110,can0  100  [03]  97 59 04
2026-02-20T17:48:34.887842,13.110,can0  041  [04]  1A 01 0E 00
2026-02-20T17:48:34.887956,13.110,can0  204  [16]  FA 23 50 46 50 46 50 46 54 24 30 75 30 75 00 00
2026-02-20T17:48:34.991406,13.214,can0  204  [16]  FA 23 50 46 50 46 50 46 54 24 30 75 30 75 00 00
2026-02-20T17:48:34.991524,13.214,can0  204  [16]  FA 23 50 46 50 46 50 46 54 24 30 75 30 75 00 00
2026-02-20T17:48:35.094601,13.317,can0  204  [16]  FA 23 50 46 50 46 50 46 54 24 30 75 30 75 00 00
2026-02-20T17:48:35.094720,13.317,can0  204  [16]  FA 23 50 46 50 46 50 46 54 24 30 75 30 75 00 00
2026-02-20T17:48:35.197162,13.420,can0  204  [16]  FA 23 50 46 50 46 50 46 54 24 30 75 30 75 00 00
2026-02-20T17:48:35.197293,13.420,can0  041  [04]  18 01 0A 00
2026-02-20T17:48:35.197447,13.420,can0  206  [24]  7B 0C DE 06 77 0C DA DC 0E 07 7F 0C 6F 0C 00 00 00 00 00 00 00 00 00 00
2026-02-20T17:48:35.197573,13.420,can0  204  [16]  FA 23 50 46 50 46 50 46 54 24 30 75 30 75 00 00
2026-02-20T17:48:35.298762,13.521,can0  204  [16]  FA 23 50 46 50 46 50 46 54 24 30 75 30 75 00 00
2026-02-20T17:48:35.298880,13.521,can0  204  [16]  FA 23 50 46 50 46 50 46 54 24 30 75 30 75 00 00
2026-02-20T17:48:35.400246,13.623,can0  204  [16]  FA 23 50 46 50 46 50 46 54 24 30 75 30 75 00 00
2026-02-20T17:48:35.400367,13.623,can0  204  [16]  FA 23 50 46 50 46 50 46 54 24 30 75 30 75 00 00
2026-02-20T17:48:35.400494,13.623,can0  041  [04]  10 01 09 00
2026-02-20T17:48:35.501429,13.724,can0  204  [16]  FA 23 50 46 50 46 50 46 54 24 30 75 30 75 00 00
2026-02-20T17:48:35.501548,13.724,can0  204  [16]  FA 23 50 46 50 46 50 46 54 24 30 75 30 75 00 00
2026-02-20T17:48:35.622344,13.845,can0  204  [16]  FA 23 50 46 50 46 50 46 54 24 30 75 30 75 00 00
2026-02-20T17:48:35.622827,13.845,can0  204  [16]  FA 23 50 46 50 46 50 46 54 24 30 75 30 75 00 00
2026-02-20T17:48:35.719174,13.942,can0  204  [16]  FA 23 50 46 50 46 50 46 54 24 30 75 30 75 00 00
2026-02-20T17:48:35.719478,13.942,can0  041  [04]  3F 01 08 00
2026-02-20T17:48:35.719845,13.942,can0  204  [16]  FA 23 50 46 50 46 50 46 54 24 30 75 30 75 00 00
2026-02-20T17:48:35.720626,13.943,can0  110  [02]  1D 1D
2026-02-20T17:48:35.805785,14.028,can0  204  [16]  FA 23 50 46 50 46 50 46 54 24 30 75 30 75 00 00
2026-02-20T17:48:35.808407,14.031,can0  206  [24]  77 0C DC 06 77 0C 99 C6 14 07 83 0C 77 0C 00 00 00 00 00 00 00 00 00 00
2026-02-20T17:48:35.808599,14.031,can0  204  [16]  FA 23 50 46 50 46 50 46 54 24 30 75 30 75 00 00
2026-02-20T17:48:35.914497,14.137,can0  204  [16]  FA 23 50 46 50 46 50 46 54 24 30 75 30 75 00 00
2026-02-20T17:48:35.914699,14.137,can0  204  [16]  FA 23 50 46 50 46 50 46 54 24 30 75 30 75 00 00
2026-02-20T17:48:35.996251,14.219,can0  041  [04]  3F 01 00 00
2026-02-20T17:48:35.997161,14.220,can0  204  [16]  FA 23 50 46 50 46 50 46 54 24 30 75 30 75 00 00
2026-02-20T17:48:35.997210,14.220,can0  204  [16]  FA 23 50 46 50 46 50 46 54 24 30 75 30 75 00 00
2026-02-20T17:48:36.105611,14.328,can0  204  [16]  FA 23 50 46 50 46 50 46 54 24 30 75 30 75 00 00
2026-02-20T17:48:36.106278,14.329,can0  204  [16]  FA 23 50 46 50 46 50 46 54 24 30 75 30 75 00 00
2026-02-20T17:48:36.106312,14.329,can0  100  [03]  99 59 04
2026-02-20T17:48:36.190574,14.413,can0  204  [16]  FA 23 50 46 50 46 50 46 54 24 30 75 30 75 00 00
2026-02-20T17:48:36.190740,14.413,can0  041  [04]  5D 00 06 00
2026-02-20T17:48:36.196402,14.419,can0  204  [16]  FA 23 50 46 50 46 50 46 54 24 30 75 30 75 00 00
2026-02-20T17:48:36.290033,14.513,can0  204  [16]  FA 23 50 46 50 46 50 46 54 24 30 75 30 75 00 00
2026-02-20T17:48:36.290225,14.513,can0  204  [16]  FA 23 50 46 50 46 50 46 54 24 30 75 30 75 00 00
2026-02-20T17:48:36.403486,14.626,can0  204  [16]  FA 23 50 46 50 46 50 46 54 24 30 75 30 75 00 00
2026-02-20T17:48:36.403702,14.626,can0  204  [16]  FA 23 50 46 50 46 50 46 54 24 30 75 30 75 00 00
2026-02-20T17:48:36.508000,14.731,can0  206  [24]  7F 0C DC 06 6B 0C 99 C6 10 07 7F 0C 73 0C 00 00 00 00 00 00 00 00 00 00
2026-02-20T17:48:36.508349,14.731,can0  204  [16]  FA 23 50 46 50 46 50 46 54 24 30 75 30 75 00 00
2026-02-20T17:48:36.508534,14.731,can0  041  [04]  47 00 0A 00
2026-02-20T17:48:36.513749,14.736,can0  204  [16]  FA 23 50 46 50 46 50 46 54 24 30 75 30 75 00 00
2026-02-20T17:48:36.605497,14.828,can0  204  [16]  FA 23 50 46 50 46 50 46 54 24 30 75 30 75 00 00
2026-02-20T17:48:36.700915,14.923,can0  204  [16]  FA 23 50 46 50 46 50 46 54 24 30 75 30 75 00 00
2026-02-20T17:48:36.701002,14.923,can0  204  [16]  FA 23 50 46 50 46 50 46 54 24 30 75 30 75 00 00
2026-02-20T17:48:36.789415,15.012,can0  204  [16]  FA 23 50 46 50 46 50 46 54 24 30 75 30 75 00 00
2026-02-20T17:48:36.794194,15.017,can0  041  [04]  5E 00 0A 00
2026-02-20T17:48:36.794264,15.017,can0  204  [16]  FA 23 50 46 50 46 50 46 54 24 30 75 30 75 00 00
2026-02-20T17:48:36.898850,15.121,can0  204  [16]  FA 23 50 46 50 46 50 46 54 24 30 75 30 75 00 00
2026-02-20T17:48:36.899051,15.122,can0  204  [16]  FA 23 50 46 50 46 50 46 54 24 30 75 30 75 00 00
2026-02-20T17:48:37.017329,15.240,can0  204  [16]  FA 23 50 46 50 46 50 46 54 24 30 75 30 75 00 00
2026-02-20T17:48:37.017418,15.240,can0  204  [16]  FA 23 50 46 50 46 50 46 54 24 30 75 30 75 00 00
2026-02-20T17:48:37.017626,15.240,can0  041  [04]  56 00 0B 00
2026-02-20T17:48:37.118746,15.341,can0  204  [16]  FA 23 50 46 50 46 50 46 54 24 30 75 30 75 00 00
2026-02-20T17:48:37.118886,15.341,can0  204  [16]  FA 23 50 46 50 46 50 46 54 24 30 75 30 75 00 00
2026-02-20T17:48:37.122962,15.346,can0  206  [24]  73 0C D4 06 77 0C 99 C6 10 07 83 0C 7B 0C 00 00 00 00 00 00 00 00 00 00
2026-02-20T17:48:37.233523,15.456,can0  204  [16]  FA 23 50 46 50 46 50 46 54 24 30 75 30 75 00 00
2026-02-20T17:48:37.233633,15.456,can0  204  [16]  FA 23 50 46 50 46 50 46 54 24 30 75 30 75 00 00
2026-02-20T17:48:37.300223,15.523,can0  204  [16]  FA 23 50 46 50 46 50 46 54 24 30 75 30 75 00 00
2026-02-20T17:48:37.300548,15.523,can0  041  [04]  5E 00 0A 00
2026-02-20T17:48:37.300589,15.523,can0  204  [16]  FA 23 50 46 50 46 50 46 54 24 30 75 30 75 00 00
2026-02-20T17:48:37.404598,15.627,can0  204  [16]  FA 23 50 46 50 46 50 46 54 24 30 75 30 75 00 00
2026-02-20T17:48:37.404816,15.627,can0  204  [16]  FA 23 50 46 50 46 50 46 54 24 30 75 30 75 00 00
2026-02-20T17:48:37.405222,15.628,can0  100  [03]  9E 59 04
2026-02-20T17:48:37.405529,15.628,can0  110  [02]  1E 1D
2026-02-20T17:48:37.502531,15.725,can0  204  [16]  FA 23 50 46 50 46 50 46 54 24 30 75 30 75 00 00
2026-02-20T17:48:37.502734,15.725,can0  204  [16]  FA 23 50 46 50 46 50 46 54 24 30 75 30 75 00 00
2026-02-20T17:48:37.597052,15.820,can0  041  [04]  6A 00 07 00
2026-02-20T17:48:37.597191,15.820,can0  204  [16]  FA 23 50 46 50 46 50 46 54 24 30 75 30 75 00 00
2026-02-20T17:48:37.597319,15.820,can0  204  [16]  FA 23 50 46 50 46 50 46 54 24 30 75 30 75 00 00
2026-02-20T17:48:37.721042,15.944,can0  204  [16]  FA 23 50 46 50 46 50 46 54 24 30 75 30 75 00 00
2026-02-20T17:48:37.721105,15.944,can0  204  [16]  FA 23 50 46 50 46 50 46 54 24 30 75 30 75 00 00
2026-02-20T17:48:37.814996,16.037,can0  206  [24]  7B 0C D8 06 73 0C DA DC 12 07 7F 0C 77 0C 00 00 00 00 00 00 00 00 00 00
2026-02-20T17:48:37.815155,16.038,can0  204  [16]  FA 23 50 46 50 46 50 46 54 24 30 75 30 75 00 00
2026-02-20T17:48:37.815284,16.038,can0  204  [16]  FA 23 50 46 50 46 50 46 54 24 30 75 30 75 00 00
2026-02-20T17:48:37.815396,16.038,can0  041  [04]  6A 00 07 00
2026-02-20T17:48:37.901399,16.124,can0  204  [16]  FA 23 50 46 50 46 50 46 54 24 30 75 30 75 00 00
2026-02-20T17:48:37.901526,16.124,can0  204  [16]  FA 23 50 46 50 46 50 46 54 24 30 75 30 75 00 00
2026-02-20T17:48:38.015517,16.238,can0  204  [16]  FA 23 50 46 50 46 50 46 54 24 30 75 30 75 00 00
2026-02-20T17:48:38.015662,16.238,can0  204  [16]  FA 23 50 46 50 46 50 46 54 24 30 75 30 75 00 00
2026-02-20T17:48:38.101534,16.324,can0  204  [16]  FA 23 50 46 50 46 50 46 54 24 30 75 30 75 00 00
2026-02-20T17:48:38.101673,16.324,can0  041  [04]  5E 00 06 00
2026-02-20T17:48:38.101810,16.324,can0  204  [16]  FA 23 50 46 50 46 50 46 54 24 30 75 30 75 00 00
2026-02-20T17:48:38.215673,16.438,can0  204  [16]  FA 23 50 46 50 46 50 46 54 24 30 75 30 75 00 00
2026-02-20T17:48:38.218988,16.441,can0  204  [16]  FA 23 50 46 50 46 50 46 54 24 30 75 30 75 00 00
2026-02-20T17:48:38.303244,16.526,can0  204  [16]  FA 23 50 46 50 46 50 46 54 24 30 75 30 75 00 00
2026-02-20T17:48:38.303440,16.526,can0  204  [16]  FA 23 50 46 50 46 50 46 54 24 30 75 30 75 00 00
2026-02-20T17:48:38.415394,16.638,can0  041  [04]  5E 00 02 00
2026-02-20T17:48:38.415597,16.638,can0  204  [16]  FA 23 50 46 50 46 50 46 54 24 30 75 30 75 00 00
2026-02-20T17:48:38.415839,16.638,can0  206  [24]  7F 0C DA 06 73 0C B1 E0 12 07 87 0C 6F 0C 00 00 00 00 00 00 00 00 00 00
2026-02-20T17:48:38.416002,16.638,can0  204  [16]  FA 23 50 46 50 46 50 46 54 24 30 75 30 75 00 00
2026-02-20T17:48:38.498157,16.721,can0  204  [16]  FA 23 50 46 50 46 50 46 54 24 30 75 30 75 00 00
2026-02-20T17:48:38.498358,16.721,can0  204  [16]  FA 23 50 46 50 46 50 46 54 24 30 75 30 75 00 00
2026-02-20T17:48:38.596883,16.819,can0  204  [16]  FA 23 50 46 50 46 50 46 54 24 30 75 30 75 00 00
2026-02-20T17:48:38.597289,16.820,can0  041  [04]  5D 00 02 00
2026-02-20T17:48:38.597335,16.820,can0  204  [16]  FA 23 50 46 50 46 50 46 54 24 30 75 30 75 00 00
2026-02-20T17:48:38.697406,16.920,can0  100  [03]  A5 59 04
2026-02-20T17:48:38.697556,16.920,can0  204  [16]  FA 23 50 46 50 46 50 46 54 24 30 75 30 75 00 00
2026-02-20T17:48:38.697677,16.920,can0  204  [16]  FA 23 50 46 50 46 50 46 54 24 30 75 30 75 00 00
2026-02-20T17:48:38.822152,17.045,can0  204  [16]  FA 23 50 46 50 46 50 46 54 24 30 75 30 75 00 00
2026-02-20T17:48:38.822392,17.045,can0  204  [16]  FA 23 50 46 50 46 50 46 54 24 30 75 30 75 00 00
2026-02-20T17:48:38.930149,17.153,can0  041  [04]  5E 00 05 00
2026-02-20T17:48:38.930242,17.153,can0  204  [16]  FA 23 50 46 50 46 50 46 54 24 30 75 30 75 00 00
2026-02-20T17:48:38.930278,17.153,can0  204  [16]  FA 23 50 46 50 46 50 46 54 24 30 75 30 75 00 00
2026-02-20T17:48:39.015677,17.238,can0  204  [16]  FA 23 50 46 50 46 50 46 54 24 30 75 30 75 00 00
2026-02-20T17:48:39.015868,17.238,can0  204  [16]  FA 23 50 46 50 46 50 46 54 24 30 75 30 75 00 00
2026-02-20T17:48:39.115246,17.338,can0  206  [24]  73 0C DE 06 6F 0C 99 C6 12 07 87 0C 7B 0C 00 00 00 00 00 00 00 00 00 00
2026-02-20T17:48:39.115490,17.338,can0  204  [16]  FA 23 50 46 50 46 50 46 54 24 30 75 30 75 00 00
2026-02-20T17:48:39.115962,17.338,can0  110  [02]  1E 1D
2026-02-20T17:48:39.116153,17.339,can0  204  [16]  FA 23 50 46 50 46 50 46 54 24 30 75 30 75 00 00
2026-02-20T17:48:39.116308,17.339,can0  041  [04]  5D 00 0D 00
2026-02-20T17:48:39.210339,17.433,can0  204  [16]  FA 23 50 46 50 46 50 46 54 24 30 75 30 75 00 00
2026-02-20T17:48:39.210523,17.433,can0  204  [16]  FA 23 50 46 50 46 50 46 54 24 30 75 30 75 00 00
2026-02-20T17:48:39.309762,17.532,can0  204  [16]  FA 23 50 46 50 46 50 46 54 24 30 75 30 75 00 00
2026-02-20T17:48:39.309940,17.532,can0  204  [16]  FA 23 50 46 50 46 50 46 54 24 30 75 30 75 00 00
2026-02-20T17:48:39.420998,17.644,can0  204  [16]  FA 23 50 46 50 46 50 46 54 24 30 75 30 75 00 00
2026-02-20T17:48:39.422435,17.645,can0  041  [04]  8B 00 07 00
2026-02-20T17:48:39.422507,17.645,can0  204  [16]  FA 23 50 46 50 46 50 46 54 24 30 75 30 75 00 00
2026-02-20T17:48:39.500939,17.723,can0  204  [16]  FA 23 50 46 50 46 50 46 54 24 30 75 30 75 00 00
2026-02-20T17:48:39.597169,17.820,can0  204  [16]  FA 23 50 46 50 46 50 46 54 24 30 75 30 75 00 00
2026-02-20T17:48:39.597297,17.820,can0  204  [16]  FA 23 50 46 50 46 50 46 54 24 30 75 30 75 00 00
2026-02-20T17:48:39.696785,17.919,can0  204  [16]  FA 23 50 46 50 46 50 46 54 24 30 75 30 75 00 00
2026-02-20T17:48:39.696905,17.919,can0  041  [04]  9A 00 07 00
2026-02-20T17:48:39.697023,17.920,can0  204  [16]  FA 23 50 46 50 46 50 46 54 24 30 75 30 75 00 00
2026-02-20T17:48:39.697158,17.920,can0  206  [24]  77 0C DC 06 73 0C 99 C6 12 07 8B 0C 77 0C 00 00 00 00 00 00 00 00 00 00
2026-02-20T17:48:39.797319,18.020,can0  204  [16]  FA 23 50 46 50 46 50 46 54 24 30 75 30 75 00 00
2026-02-20T17:48:39.797450,18.020,can0  204  [16]  FA 23 50 46 50 46 50 46 54 24 30 75 30 75 00 00
2026-02-20T17:48:39.896696,18.119,can0  204  [16]  FA 23 50 46 50 46 50 46 54 24 30 75 30 75 00 00
2026-02-20T17:48:39.896821,18.119,can0  204  [16]  FA 23 50 46 50 46 50 46 54 24 30 75 30 75 00 00
2026-02-20T17:48:39.897233,18.120,can0  100  [03]  AD 59 04
2026-02-20T17:48:39.897366,18.120,can0  041  [04]  A5 00 0A 00
2026-02-20T17:48:40.007521,18.230,can0  204  [16]  FA 23 50 46 50 46 50 46 54 24 30 75 30 75 00 00
2026-02-20T17:48:40.007646,18.230,can0  204  [16]  FA 23 50 46 50 46 50 46 54 24 30 75 30 75 00 00
2026-02-20T17:48:40.101347,18.324,can0  204  [16]  FA 23 50 46 50 46 50 46 54 24 30 75 30 75 00 00
2026-02-20T17:48:40.101472,18.324,can0  204  [16]  FA 23 50 46 50 46 50 46 54 24 30 75 30 75 00 00
2026-02-20T17:48:40.200316,18.423,can0  204  [16]  FA 23 50 46 50 46 50 46 54 24 30 75 30 75 00 00
2026-02-20T17:48:40.200467,18.423,can0  204  [16]  FA 23 50 46 50 46 50 46 54 24 30 75 30 75 00 00
2026-02-20T17:48:40.200614,18.423,can0  041  [04]  93 00 0A 00
2026-02-20T17:48:40.323903,18.546,can0  204  [16]  FA 23 50 46 50 46 50 46 54 24 30 75 30 75 00 00
2026-02-20T17:48:40.324036,18.547,can0  204  [16]  FA 23 50 46 50 46 50 46 54 24 30 75 30 75 00 00
2026-02-20T17:48:40.418138,18.641,can0  206  [24]  7B 0C DA 06 77 0C 99 C6 12 07 87 0C 73 0C 00 00 00 00 00 00 00 00 00 00
2026-02-20T17:48:40.424800,18.647,can0  204  [16]  FA 23 50 46 50 46 50 46 54 24 30 75 30 75 00 00
2026-02-20T17:48:40.425068,18.648,can0  204  [16]  FA 23 50 46 50 46 50 46 54 24 30 75 30 75 00 00
2026-02-20T17:48:40.499325,18.722,can0  204  [16]  FA 23 50 46 50 46 50 46 54 24 30 75 30 75 00 00
2026-02-20T17:48:40.499485,18.722,can0  041  [04]  8B 00 09 00
2026-02-20T17:48:40.499620,18.722,can0  204  [16]  FA 23 50 46 50 46 50 46 54 24 30 75 30 75 00 00
2026-02-20T17:48:40.612672,18.835,can0  204  [16]  FA 23 50 46 50 46 50 46 54 24 30 75 30 75 00 00
2026-02-20T17:48:40.616933,18.839,can0  204  [16]  FA 23 50 46 50 46 50 46 54 24 30 75 30 75 00 00
2026-02-20T17:48:40.711424,18.934,can0  204  [16]  FA 23 50 46 50 46 50 46 54 24 30 75 30 75 00 00
2026-02-20T17:48:40.711814,18.934,can0  204  [16]  FA 23 50 46 50 46 50 46 54 24 30 75 30 75 00 00
2026-02-20T17:48:40.711866,18.934,can0  041  [04]  9F 00 05 00
2026-02-20T17:48:40.870954,19.093,can0  204  [16]  FA 23 50 46 50 46 50 46 54 24 30 75 30 75 00 00
2026-02-20T17:48:40.871873,19.094,can0  110  [02]  1D 1D
2026-02-20T17:48:40.872157,19.095,can0  204  [16]  FA 23 50 46 50 46 50 46 54 24 30 75 30 75 00 00
2026-02-20T17:48:40.908326,19.131,can0  204  [16]  FA 23 50 46 50 46 50 46 54 24 30 75 30 75 00 00
2026-02-20T17:48:40.908512,19.131,can0  204  [16]  FA 23 50 46 50 46 50 46 54 24 30 75 30 75 00 00
2026-02-20T17:48:41.013466,19.236,can0  204  [16]  FA 23 50 46 50 46 50 46 54 24 30 75 30 75 00 00
2026-02-20T17:48:41.013545,19.236,can0  041  [04]  97 00 05 00
2026-02-20T17:48:41.013721,19.236,can0  206  [24]  7F 0C DC 06 73 0C 99 C6 12 07 8B 0C 6B 0C 00 00 00 00 00 00 00 00 00 00
2026-02-20T17:48:41.013957,19.236,can0  204  [16]  FA 23 50 46 50 46 50 46 54 24 30 75 30 75 00 00
2026-02-20T17:48:41.127291,19.350,can0  204  [16]  FA 23 50 46 50 46 50 46 54 24 30 75 30 75 00 00
2026-02-20T17:48:41.134809,19.357,can0  204  [16]  FA 23 50 46 50 46 50 46 54 24 30 75 30 75 00 00
2026-02-20T17:48:41.208564,19.431,can0  204  [16]  FA 23 50 46 50 46 50 46 54 24 30 75 30 75 00 00
2026-02-20T17:48:41.208978,19.431,can0  100  [03]  B6 59 04
2026-02-20T17:48:41.209186,19.432,can0  204  [16]  FA 23 50 46 50 46 50 46 54 24 30 75 30 75 00 00
2026-02-20T17:48:41.318390,19.541,can0  041  [04]  3F 01 04 00
2026-02-20T17:48:41.319531,19.542,can0  204  [16]  FA 23 50 46 50 46 50 46 54 24 30 75 30 75 00 00
2026-02-20T17:48:41.319713,19.542,can0  204  [16]  FA 23 50 46 50 46 50 46 54 24 30 75 30 75 00 00
2026-02-20T17:48:41.436980,19.659,can0  204  [16]  FA 23 50 46 50 46 50 46 54 24 30 75 30 75 00 00
2026-02-20T17:48:41.437063,19.660,can0  204  [16]  FA 23 50 46 50 46 50 46 54 24 30 75 30 75 00 00
2026-02-20T17:48:41.507214,19.730,can0  204  [16]  FA 23 50 46 50 46 50 46 54 24 30 75 30 75 00 00
2026-02-20T17:48:41.507405,19.730,can0  041  [04]  E4 00 00 00
2026-02-20T17:48:41.507773,19.730,can0  204  [16]  FA 23 50 46 50 46 50 46 54 24 30 75 30 75 00 00
2026-02-20T17:48:41.618261,19.841,can0  204  [16]  FA 23 50 46 50 46 50 46 54 24 30 75 30 75 00 00
2026-02-20T17:48:41.621718,19.844,can0  204  [16]  FA 23 50 46 50 46 50 46 54 24 30 75 30 75 00 00
2026-02-20T17:48:41.715497,19.938,can0  206  [24]  73 0C DE 06 73 0C B1 E0 14 07 8F 0C 7B 0C 00 00 00 00 00 00 00 00 00 00
2026-02-20T17:48:41.715678,19.938,can0  204  [16]  FA 23 50 46 50 46 50 46 54 24 30 75 30 75 00 00
2026-02-20T17:48:41.715812,19.938,can0  204  [16]  FA 23 50 46 50 46 50 46 54 24 30 75 30 75 00 00
2026-02-20T17:48:41.804211,20.027,can0  204  [16]  FA 23 50 46 50 46 50 46 54 24 30 75 30 75 00 00
2026-02-20T17:48:41.804395,20.027,can0  041  [04]  5D 00 02 00
2026-02-20T17:48:41.804560,20.027,can0  204  [16]  FA 23 50 46 50 46 50 46 54 24 30 75 30 75 00 00
2026-02-20T17:48:41.923574,20.146,can0  204  [16]  FA 23 50 46 50 46 50 46 54 24 30 75 30 75 00 00
2026-02-20T17:48:41.923762,20.146,can0  204  [16]  FA 23 50 46 50 46 50 46 54 24 30 75 30 75 00 00
2026-02-20T17:48:42.012382,20.235,can0  204  [16]  FA 23 50 46 50 46 50 46 54 24 30 75 30 75 00 00
2026-02-20T17:48:42.016545,20.239,can0  204  [16]  FA 23 50 46 50 46 50 46 54 24 30 75 30 75 00 00
2026-02-20T17:48:42.127789,20.350,can0  041  [04]  10 01 05 00
2026-02-20T17:48:42.132544,20.355,can0  204  [16]  FA 23 50 46 50 46 50 46 54 24 30 75 30 75 00 00
2026-02-20T17:48:42.214271,20.437,can0  204  [16]  FA 23 50 46 50 46 50 46 54 24 30 75 30 75 00 00
2026-02-20T17:48:42.214388,20.437,can0  204  [16]  FA 23 50 46 50 46 50 46 54 24 30 75 30 75 00 00
2026-02-20T17:48:42.326424,20.549,can0  204  [16]  FA 23 50 46 50 46 50 46 54 24 30 75 30 75 00 00
2026-02-20T17:48:42.326545,20.549,can0  204  [16]  FA 23 50 46 50 46 50 46 54 24 30 75 30 75 00 00
2026-02-20T17:48:42.326709,20.549,can0  206  [24]  6F 0C DC 06 73 0C 99 C6 14 07 8F 0C 7B 0C 00 00 00 00 00 00 00 00 00 00
2026-02-20T17:48:42.326817,20.549,can0  041  [04]  10 01 02 00
2026-02-20T17:48:42.414866,20.637,can0  204  [16]  FA 23 50 46 50 46 50 46 54 24 30 75 30 75 00 00
2026-02-20T17:48:42.414992,20.637,can0  204  [16]  FA 23 50 46 50 46 50 46 54 24 30 75 30 75 00 00
2026-02-20T17:48:42.506526,20.729,can0  204  [16]  FA 23 50 46 50 46 50 46 54 24 30 75 30 75 00 00
2026-02-20T17:48:42.506911,20.729,can0  100  [03]  BD 59 04
2026-02-20T17:48:42.507201,20.730,can0  110  [02]  1F 1D
2026-02-20T17:48:42.507338,20.730,can0  204  [16]  FA 23 50 46 50 46 50 46 54 24 30 75 30 75 00 00
2026-02-20T17:48:42.607305,20.830,can0  204  [16]  FA 23 50 46 50 46 50 46 54 24 30 75 30 75 00 00
2026-02-20T17:48:42.607426,20.830,can0  041  [04]  8B 00 08 00
2026-02-20T17:48:42.607561,20.830,can0  204  [16]  FA 23 50 46 50 46 50 46 54 24 30 75 30 75 00 00
2026-02-20T17:48:42.729850,20.952,can0  204  [16]  FA 23 50 46 50 46 50 46 54 24 30 75 30 75 00 00
2026-02-20T17:48:42.734841,20.957,can0  204  [16]  FA 23 50 46 50 46 50 46 54 24 30 75 30 75 00 00
2026-02-20T17:48:42.818009,21.041,can0  204  [16]  FA 23 50 46 50 46 50 46 54 24 30 75 30 75 00 00
2026-02-20T17:48:42.818143,21.041,can0  204  [16]  FA 23 50 46 50 46 50 46 54 24 30 75 30 75 00 00
2026-02-20T17:48:42.903713,21.126,can0  204  [16]  FA 23 50 46 50 46 50 46 54 24 30 75 30 75 00 00
2026-02-20T17:48:42.903824,21.126,can0  041  [04]  71 00 08 00
2026-02-20T17:48:42.903952,21.126,can0  204  [16]  FA 23 50 46 50 46 50 46 54 24 30 75 30 75 00 00
2026-02-20T17:48:43.017990,21.240,can0  206  [24]  77 0C DC 06 73 0C DA DC 10 07 93 0C 73 0C 00 00 00 00 00 00 00 00 00 00
2026-02-20T17:48:43.018127,21.241,can0  204  [16]  FA 23 50 46 50 46 50 46 54 24 30 75 30 75 00 00
2026-02-20T17:48:43.018252,21.241,can0  204  [16]  FA 23 50 46 50 46 50 46 54 24 30 75 30 75 00 00
2026-02-20T17:48:43.104607,21.327,can0  204  [16]  FA 23 50 46 50 46 50 46 54 24 30 75 30 75 00 00
2026-02-20T17:48:43.104721,21.327,can0  204  [16]  FA 23 50 46 50 46 50 46 54 24 30 75 30 75 00 00
2026-02-20T17:48:43.104847,21.327,can0  041  [04]  76 00 0A 00
2026-02-20T17:48:43.218566,21.441,can0  204  [16]  FA 23 50 46 50 46 50 46 54 24 30 75 30 75 00 00
2026-02-20T17:48:43.218678,21.441,can0  204  [16]  FA 23 50 46 50 46 50 46 54 24 30 75 30 75 00 00
2026-02-20T17:48:43.305039,21.528,can0  204  [16]  FA 23 50 46 50 46 50 46 54 24 30 75 30 75 00 00
2026-02-20T17:48:43.305162,21.528,can0  204  [16]  FA 23 50 46 50 46 50 46 54 24 30 75 30 75 00 00
2026-02-20T17:48:43.418934,21.641,can0  204  [16]  FA 23 50 46 50 46 50 46 54 24 30 75 30 75 00 00
2026-02-20T17:48:43.419056,21.642,can0  041  [04]  7A 00 02 00
2026-02-20T17:48:43.419180,21.642,can0  204  [16]  FA 23 50 46 50 46 50 46 54 24 30 75 30 75 00 00
2026-02-20T17:48:43.509086,21.732,can0  204  [16]  FA 23 50 46 50 46 50 46 54 24 30 75 30 75 00 00
2026-02-20T17:48:43.509210,21.732,can0  204  [16]  FA 23 50 46 50 46 50 46 54 24 30 75 30 75 00 00
2026-02-20T17:48:43.625354,21.848,can0  204  [16]  FA 23 50 46 50 46 50 46 54 24 30 75 30 75 00 00
2026-02-20T17:48:43.625546,21.848,can0  206  [24]  6F 0C DE 06 6F 0C 99 C6 12 07 8F 0C 7B 0C 00 00 00 00 00 00 00 00 00 00
2026-02-20T17:48:43.625815,21.848,can0  204  [16]  FA 23 50 46 50 46 50 46 54 24 30 75 30 75 00 00
2026-02-20T17:48:43.712437,21.935,can0  041  [04]  AA 00 05 00
2026-02-20T17:48:43.712582,21.935,can0  204  [16]  FA 23 50 46 50 46 50 46 54 24 30 75 30 75 00 00
2026-02-20T17:48:43.713098,21.936,can0  100  [03]  C4 59 04
2026-02-20T17:48:43.713241,21.936,can0  204  [16]  FA 23 50 46 50 46 50 46 54 24 30 75 30 75 00 00
2026-02-20T17:48:43.829191,22.052,can0  204  [16]  FA 23 50 46 50 46 50 46 54 24 30 75 30 75 00 00
2026-02-20T17:48:43.829311,22.052,can0  204  [16]  FA 23 50 46 50 46 50 46 54 24 30 75 30 75 00 00
2026-02-20T17:48:43.916357,22.139,can0  204  [16]  FA 23 50 46 50 46 50 46 54 24 30 75 30 75 00 00
2026-02-20T17:48:43.916667,22.139,can0  041  [04]  5E 00 00 00
2026-02-20T17:48:43.916713,22.139,can0  204  [16]  FA 23 50 46 50 46 50 46 54 24 30 75 30 75 00 00
2026-02-20T17:48:44.014007,22.237,can0  204  [16]  FA 23 50 46 50 46 50 46 54 24 30 75 30 75 00 00
2026-02-20T17:48:44.014207,22.237,can0  204  [16]  FA 23 50 46 50 46 50 46 54 24 30 75 30 75 00 00
2026-02-20T17:48:44.105051,22.328,can0  204  [16]  FA 23 50 46 50 46 50 46 54 24 30 75 30 75 00 00
2026-02-20T17:48:44.226477,22.449,can0  204  [16]  FA 23 50 46 50 46 50 46 54 24 30 75 30 75 00 00
2026-02-20T17:48:44.226847,22.449,can0  110  [02]  1F 1D
2026-02-20T17:48:44.227021,22.450,can0  041  [04]  5D 00 05 00
2026-02-20T17:48:44.227193,22.450,can0  204  [16]  FA 23 50 46 50 46 50 46 54 24 30 75 30 75 00 00
2026-02-20T17:48:44.232474,22.455,can0  204  [16]  FA 23 50 46 50 46 50 46 54 24 30 75 30 75 00 00
2026-02-20T17:48:44.317588,22.540,can0  206  [24]  73 0C DC 06 6F 0C 99 C6 12 07 7B 0C 7F 0C 00 00 00 00 00 00 00 00 00 00
2026-02-20T17:48:44.317776,22.540,can0  204  [16]  FA 23 50 46 50 46 50 46 54 24 30 75 30 75 00 00
2026-02-20T17:48:44.320944,22.543,can0  204  [16]  FA 23 50 46 50 46 50 46 54 24 30 75 30 75 00 00
2026-02-20T17:48:44.406427,22.629,can0  204  [16]  FA 23 50 46 50 46 50 46 54 24 30 75 30 75 00 00
2026-02-20T17:48:44.406605,22.629,can0  204  [16]  FA 23 50 46 50 46 50 46 54 24 30 75 30 75 00 00
2026-02-20T17:48:44.524185,22.747,can0  041  [04]  7A 00 04 00
2026-02-20T17:48:44.524371,22.747,can0  204  [16]  FA 23 50 46 50 46 50 46 54 24 30 75 30 75 00 00
2026-02-20T17:48:44.611269,22.834,can0  204  [16]  FA 23 50 46 50 46 50 46 54 24 30 75 30 75 00 00
2026-02-20T17:48:44.611393,22.834,can0  204  [16]  FA 23 50 46 50 46 50 46 54 24 30 75 30 75 00 00
2026-02-20T17:48:44.707320,22.930,can0  204  [16]  FA 23 50 46 50 46 50 46 54 24 30 75 30 75 00 00
2026-02-20T17:48:44.707440,22.930,can0  204  [16]  FA 23 50 46 50 46 50 46 54 24 30 75 30 75 00 00
2026-02-20T17:48:44.707560,22.930,can0  041  [04]  5D 00 02 00
2026-02-20T17:48:44.806299,23.029,can0  204  [16]  FA 23 50 46 50 46 50 46 54 24 30 75 30 75 00 00
2026-02-20T17:48:44.806421,23.029,can0  204  [16]  FA 23 50 46 50 46 50 46 54 24 30 75 30 75 00 00
2026-02-20T17:48:44.929176,23.152,can0  204  [16]  FA 23 50 46 50 46 50 46 54 24 30 75 30 75 00 00
2026-02-20T17:48:44.932487,23.155,can0  206  [24]  6B 0C DC 06 77 0C DA DC 10 07 8B 0C 7F 0C 00 00 00 00 00 00 00 00 00 00
2026-02-20T17:48:44.932561,23.155,can0  204  [16]  FA 23 50 46 50 46 50 46 54 24 30 75 30 75 00 00
2026-02-20T17:48:45.022948,23.245,can0  204  [16]  FA 23 50 46 50 46 50 46 54 24 30 75 30 75 00 00
2026-02-20T17:48:45.023322,23.246,can0  100  [03]  CD 59 04
2026-02-20T17:48:45.023446,23.246,can0  041  [04]  02 00 02 00
2026-02-20T17:48:45.023578,23.246,can0  204  [16]  FA 23 50 46 50 46 50 46 54 24 30 75 30 75 00 00
2026-02-20T17:48:45.117782,23.340,can0  204  [16]  FA 23 50 46 50 46 50 46 54 24 30 75 30 75 00 00
2026-02-20T17:48:45.117895,23.340,can0  204  [16]  FA 23 50 46 50 46 50 46 54 24 30 75 30 75 00 00
2026-02-20T17:48:45.208908,23.431,can0  204  [16]  FA 23 50 46 50 46 50 46 54 24 30 75 30 75 00 00
2026-02-20T17:48:45.209038,23.432,can0  204  [16]  FA 23 50 46 50 46 50 46 54 24 30 75 30 75 00 00
2026-02-20T17:48:45.307449,23.530,can0  041  [04]  02 00 02 00
2026-02-20T17:48:45.307613,23.530,can0  204  [16]  FA 23 50 46 50 46 50 46 54 24 30 75 30 75 00 00
2026-02-20T17:48:45.310878,23.533,can0  204  [16]  FA 23 50 46 50 46 50 46 54 24 30 75 30 75 00 00
2026-02-20T17:48:45.424358,23.647,can0  204  [16]  FA 23 50 46 50 46 50 46 54 24 30 75 30 75 00 00
2026-02-20T17:48:45.427837,23.650,can0  204  [16]  FA 23 50 46 50 46 50 46 54 24 30 75 30 75 00 00
2026-02-20T17:48:45.526706,23.749,can0  204  [16]  FA 23 50 46 50 46 50 46 54 24 30 75 30 75 00 00
2026-02-20T17:48:45.526829,23.749,can0  204  [16]  FA 23 50 46 50 46 50 46 54 24 30 75 30 75 00 00
2026-02-20T17:48:45.526955,23.749,can0  041  [04]  04 01 07 00
2026-02-20T17:48:45.626954,23.849,can0  206  [24]  6F 0C DC 06 73 0C 99 C6 12 07 7B 0C 83 0C 00 00 00 00 00 00 00 00 00 00
2026-02-20T17:48:45.627122,23.850,can0  204  [16]  FA 23 50 46 50 46 50 46 54 24 30 75 30 75 00 00
2026-02-20T17:48:45.627229,23.850,can0  204  [16]  FA 23 50 46 50 46 50 46 54 24 30 75 30 75 00 00
2026-02-20T17:48:45.712677,23.935,can0  204  [16]  FA 23 50 46 50 46 50 46 54 24 30 75 30 75 00 00
2026-02-20T17:48:45.712799,23.935,can0  204  [16]  FA 23 50 46 50 46 50 46 54 24 30 75 30 75 00 00
2026-02-20T17:48:45.811771,24.034,can0  204  [16]  FA 23 50 46 50 46 50 46 54 24 30 75 30 75 00 00
2026-02-20T17:48:45.811885,24.034,can0  041  [04]  E4 00 02 00
2026-02-20T17:48:45.812009,24.035,can0  204  [16]  FA 23 50 46 50 46 50 46 54 24 30 75 30 75 00 00
2026-02-20T17:48:45.812367,24.035,can0  110  [02]  1D 1D
2026-02-20T17:48:45.918562,24.141,can0  204  [16]  FA 23 50 46 50 46 50 46 54 24 30 75 30 75 00 00
2026-02-20T17:48:45.918778,24.141,can0  204  [16]  FA 23 50 46 50 46 50 46 54 24 30 75 30 75 00 00
2026-02-20T17:48:46.022826,24.245,can0  204  [16]  FA 23 50 46 50 46 50 46 54 24 30 75 30 75 00 00
2026-02-20T17:48:46.022950,24.245,can0  204  [16]  FA 23 50 46 50 46 50 46 54 24 30 75 30 75 00 00
2026-02-20T17:48:46.122369,24.345,can0  041  [04]  10 01 02 00
2026-02-20T17:48:46.122514,24.345,can0  204  [16]  FA 23 50 46 50 46 50 46 54 24 30 75 30 75 00 00
2026-02-20T17:48:46.122634,24.345,can0  204  [16]  FA 23 50 46 50 46 50 46 54 24 30 75 30 75 00 00
2026-02-20T17:48:46.223704,24.446,can0  204  [16]  FA 23 50 46 50 46 50 46 54 24 30 75 30 75 00 00
2026-02-20T17:48:46.231273,24.454,can0  206  [24]  73 0C DC 06 7B 0C C5 E1 0E 07 83 0C 77 0C 00 00 00 00 00 00 00 00 00 00
2026-02-20T17:48:46.232529,24.455,can0  204  [16]  FA 23 50 46 50 46 50 46 54 24 30 75 30 75 00 00
2026-02-20T17:48:46.326538,24.549,can0  100  [03]  D5 59 04
2026-02-20T17:48:46.326868,24.549,can0  204  [16]  FA 23 50 46 50 46 50 46 54 24 30 75 30 75 00 00
2026-02-20T17:48:46.326986,24.549,can0  041  [04]  10 01 06 00
2026-02-20T17:48:46.330362,24.553,can0  204  [16]  FA 23 50 46 50 46 50 46 54 24 30 75 30 75 00 00
2026-02-20T17:48:46.414587,24.637,can0  204  [16]  FA 23 50 46 50 46 50 46 54 24 30 75 30 75 00 00
2026-02-20T17:48:46.414651,24.637,can0  204  [16]  FA 23 50 46 50 46 50 46 54 24 30 75 30 75 00 00
2026-02-20T17:48:46.525026,24.748,can0  204  [16]  FA 23 50 46 50 46 50 46 54 24 30 75 30 75 00 00
2026-02-20T17:48:46.525152,24.748,can0  204  [16]  FA 23 50 46 50 46 50 46 54 24 30 75 30 75 00 00
2026-02-20T17:48:46.610200,24.833,can0  041  [04]  10 01 07 00
2026-02-20T17:48:46.610335,24.833,can0  204  [16]  FA 23 50 46 50 46 50 46 54 24 30 75 30 75 00 00
2026-02-20T17:48:46.610462,24.833,can0  204  [16]  FA 23 50 46 50 46 50 46 54 24 30 75 30 75 00 00
2026-02-20T17:48:46.721854,24.944,can0  204  [16]  FA 23 50 46 50 46 50 46 54 24 30 75 30 75 00 00
2026-02-20T17:48:46.722288,24.945,can0  204  [16]  FA 23 50 46 50 46 50 46 54 24 30 75 30 75 00 00
2026-02-20T17:48:46.836856,25.059,can0  204  [16]  FA 23 50 46 50 46 50 46 54 24 30 75 30 75 00 00
2026-02-20T17:48:46.836918,25.059,can0  204  [16]  FA 23 50 46 50 46 50 46 54 24 30 75 30 75 00 00
2026-02-20T17:48:46.930315,25.153,can0  206  [24]  6F 0C DC 06 77 0C 99 C6 10 07 83 0C 7F 0C 00 00 00 00 00 00 00 00 00 00
2026-02-20T17:48:46.930470,25.153,can0  041  [04]  10 01 02 00
2026-02-20T17:48:46.934229,25.157,can0  204  [16]  FA 23 50 46 50 46 50 46 54 24 30 75 30 75 00 00
2026-02-20T17:48:47.025339,25.248,can0  204  [16]  FA 23 50 46 50 46 50 46 54 24 30 75 30 75 00 00
2026-02-20T17:48:47.025468,25.248,can0  204  [16]  FA 23 50 46 50 46 50 46 54 24 30 75 30 75 00 00
2026-02-20T17:48:47.121656,25.344,can0  204  [16]  FA 23 50 46 50 46 50 46 54 24 30 75 30 75 00 00
2026-02-20T17:48:47.121777,25.344,can0  204  [16]  FA 23 50 46 50 46 50 46 54 24 30 75 30 75 00 00
2026-02-20T17:48:47.121911,25.344,can0  041  [04]  02 00 02 00
2026-02-20T17:48:47.222131,25.445,can0  204  [16]  FA 23 50 46 50 46 50 46 54 24 30 75 30 75 00 00
2026-02-20T17:48:47.222263,25.445,can0  204  [16]  FA 23 50 46 50 46 50 46 54 24 30 75 30 75 00 00
2026-02-20T17:48:47.321900,25.544,can0  204  [16]  FA 23 50 46 50 46 50 46 54 24 30 75 30 75 00 00
2026-02-20T17:48:47.322025,25.545,can0  204  [16]  FA 23 50 46 50 46 50 46 54 24 30 75 30 75 00 00
2026-02-20T17:48:47.422414,25.645,can0  204  [16]  FA 23 50 46 50 46 50 46 54 24 30 75 30 75 00 00
2026-02-20T17:48:47.422543,25.645,can0  041  [04]  5A 01 04 00
2026-02-20T17:48:47.422669,25.645,can0  204  [16]  FA 23 50 46 50 46 50 46 54 24 30 75 30 75 00 00
2026-02-20T17:48:47.522888,25.745,can0  204  [16]  FA 23 50 46 50 46 50 46 54 24 30 75 30 75 00 00
2026-02-20T17:48:47.523051,25.746,can0  206  [24]  73 0C DE 06 67 0C DA DC 12 07 93 0C 7B 0C 00 00 00 00 00 00 00 00 00 00
2026-02-20T17:48:47.523413,25.746,can0  100  [03]  DC 59 04
2026-02-20T17:48:47.523554,25.746,can0  204  [16]  FA 23 50 46 50 46 50 46 54 24 30 75 30 75 00 00
2026-02-20T17:48:47.523820,25.746,can0  110  [02]  1E 1D
2026-02-20T17:48:47.636582,25.859,can0  204  [16]  FA 23 50 46 50 46 50 46 54 24 30 75 30 75 00 00
2026-02-20T17:48:47.641299,25.864,can0  204  [16]  FA 23 50 46 50 46 50 46 54 24 30 75 30 75 00 00
2026-02-20T17:48:47.721396,25.944,can0  041  [04]  02 00 02 00
2026-02-20T17:48:47.721541,25.944,can0  204  [16]  FA 23 50 46 50 46 50 46 54 24 30 75 30 75 00 00
2026-02-20T17:48:47.721660,25.944,can0  204  [16]  FA 23 50 46 50 46 50 46 54 24 30 75 30 75 00 00
2026-02-20T17:48:47.824907,26.047,can0  204  [16]  FA 23 50 46 50 46 50 46 54 24 30 75 30 75 00 00
2026-02-20T17:48:47.825033,26.048,can0  204  [16]  FA 23 50 46 50 46 50 46 54 24 30 75 30 75 00 00
2026-02-20T17:48:47.926282,26.149,can0  204  [16]  FA 23 50 46 50 46 50 46 54 24 30 75 30 75 00 00
2026-02-20T17:48:47.926407,26.149,can0  204  [16]  FA 23 50 46 50 46 50 46 54 24 30 75 30 75 00 00
2026-02-20T17:48:47.926540,26.149,can0  041  [04]  3F 01 04 00
2026-02-20T17:48:48.025551,26.248,can0  204  [16]  FA 23 50 46 50 46 50 46 54 24 30 75 30 75 00 00
2026-02-20T17:48:48.025680,26.248,can0  204  [16]  FA 23 50 46 50 46 50 46 54 24 30 75 30 75 00 00
2026-02-20T17:48:48.121471,26.344,can0  204  [16]  FA 23 50 46 50 46 50 46 54 24 30 75 30 75 00 00
2026-02-20T17:48:48.125235,26.348,can0  204  [16]  FA 23 50 46 50 46 50 46 54 24 30 75 30 75 00 00
2026-02-20T17:48:48.221524,26.444,can0  206  [24]  7B 0C DE 06 6F 0C 99 C6 14 07 83 0C 77 0C 00 00 00 00 00 00 00 00 00 00
2026-02-20T17:48:48.221674,26.444,can0  204  [16]  FA 23 50 46 50 46 50 46 54 24 30 75 30 75 00 00
2026-02-20T17:48:48.225196,26.448,can0  041  [04]  C4 00 07 00
2026-02-20T17:48:48.225245,26.448,can0  204  [16]  FA 23 50 46 50 46 50 46 54 24 30 75 30 75 00 00
2026-02-20T17:48:48.328425,26.551,can0  204  [16]  FA 23 50 46 50 46 50 46 54 24 30 75 30 75 00 00
2026-02-20T17:48:48.331570,26.554,can0  204  [16]  FA 23 50 46 50 46 50 46 54 24 30 75 30 75 00 00
2026-02-20T17:48:48.421652,26.644,can0  204  [16]  FA 23 50 46 50 46 50 46 54 24 30 75 30 75 00 00
2026-02-20T17:48:48.425572,26.648,can0  204  [16]  FA 23 50 46 50 46 50 46 54 24 30 75 30 75 00 00
2026-02-20T17:48:48.522306,26.745,can0  041  [04]  D8 00 05 00
2026-02-20T17:48:48.522654,26.745,can0  204  [16]  FA 23 50 46 50 46 50 46 54 24 30 75 30 75 00 00
2026-02-20T17:48:48.522699,26.745,can0  204  [16]  FA 23 50 46 50 46 50 46 54 24 30 75 30 75 00 00
2026-02-20T17:48:48.621970,26.844,can0  204  [16]  FA 23 50 46 50 46 50 46 54 24 30 75 30 75 00 00
2026-02-20T17:48:48.622151,26.845,can0  204  [16]  FA 23 50 46 50 46 50 46 54 24 30 75 30 75 00 00
2026-02-20T17:48:48.721731,26.944,can0  204  [16]  FA 23 50 46 50 46 50 46 54 24 30 75 30 75 00 00
2026-02-20T17:48:48.721851,26.944,can0  041  [04]  10 01 05 00
2026-02-20T17:48:48.721972,26.944,can0  204  [16]  FA 23 50 46 50 46 50 46 54 24 30 75 30 75 00 00
2026-02-20T17:48:48.822499,27.045,can0  100  [03]  E5 59 04
2026-02-20T17:48:48.822707,27.045,can0  204  [16]  FA 23 50 46 50 46 50 46 54 24 30 75 30 75 00 00
2026-02-20T17:48:48.823044,27.046,can0  206  [24]  7B 0C DC 06 73 0C 99 C6 0E 07 83 0C 6F 0C 00 00 00 00 00 00 00 00 00 00
2026-02-20T17:48:48.823411,27.046,can0  204  [16]  FA 23 50 46 50 46 50 46 54 24 30 75 30 75 00 00
2026-02-20T17:48:48.929679,27.152,can0  204  [16]  FA 23 50 46 50 46 50 46 54 24 30 75 30 75 00 00
2026-02-20T17:48:48.929806,27.152,can0  204  [16]  FA 23 50 46 50 46 50 46 54 24 30 75 30 75 00 00
2026-02-20T17:48:49.023263,27.246,can0  041  [04]  2F 00 07 00
2026-02-20T17:48:49.023642,27.246,can0  204  [16]  FA 23 50 46 50 46 50 46 54 24 30 75 30 75 00 00
2026-02-20T17:48:49.023703,27.246,can0  204  [16]  FA 23 50 46 50 46 50 46 54 24 30 75 30 75 00 00
2026-02-20T17:48:49.121727,27.344,can0  204  [16]  FA 23 50 46 50 46 50 46 54 24 30 75 30 75 00 00
2026-02-20T17:48:49.121905,27.344,can0  204  [16]  FA 23 50 46 50 46 50 46 54 24 30 75 30 75 00 00
2026-02-20T17:48:49.222135,27.445,can0  204  [16]  FA 23 50 46 50 46 50 46 54 24 30 75 30 75 00 00
2026-02-20T17:48:49.222545,27.445,can0  110  [02]  1F 1D
2026-02-20T17:48:49.321461,27.544,can0  041  [04]  8B 00 02 00
2026-02-20T17:48:49.321642,27.544,can0  204  [16]  FA 23 50 46 50 46 50 46 54 24 30 75 30 75 00 00
2026-02-20T17:48:49.321831,27.544,can0  204  [16]  FA 23 50 46 50 46 50 46 54 24 30 75 30 75 00 00
2026-02-20T17:48:49.325354,27.548,can0  204  [16]  FA 23 50 46 50 46 50 46 54 24 30 75 30 75 00 00
2026-02-20T17:48:49.421561,27.644,can0  204  [16]  FA 23 50 46 50 46 50 46 54 24 30 75 30 75 00 00
2026-02-20T17:48:49.421737,27.644,can0  204  [16]  FA 23 50 46 50 46 50 46 54 24 30 75 30 75 00 00
2026-02-20T17:48:49.522319,27.745,can0  206  [24]  7F 0C DC 06 7F 0C 3A DF 12 07 77 0C 6B 0C 00 00 00 00 00 00 00 00 00 00
2026-02-20T17:48:49.522504,27.745,can0  204  [16]  FA 23 50 46 50 46 50 46 54 24 30 75 30 75 00 00
2026-02-20T17:48:49.522667,27.745,can0  041  [04]  5E 00 05 00
2026-02-20T17:48:49.623547,27.846,can0  204  [16]  FA 23 50 46 50 46 50 46 54 24 30 75 30 75 00 00
2026-02-20T17:48:49.623746,27.846,can0  204  [16]  FA 23 50 46 50 46 50 46 54 24 30 75 30 75 00 00
2026-02-20T17:48:49.729615,27.952,can0  204  [16]  FA 23 50 46 50 46 50 46 54 24 30 75 30 75 00 00
2026-02-20T17:48:49.729773,27.952,can0  204  [16]  FA 23 50 46 50 46 50 46 54 24 30 75 30 75 00 00
2026-02-20T17:48:49.820272,28.043,can0  204  [16]  FA 23 50 46 50 46 50 46 54 24 30 75 30 75 00 00
2026-02-20T17:48:49.820341,28.043,can0  041  [04]  8B 00 00 00
2026-02-20T17:48:49.820377,28.043,can0  204  [16]  FA 23 50 46 50 46 50 46 54 24 30 75 30 75 00 00
2026-02-20T17:48:49.932917,28.155,can0  204  [16]  FA 23 50 46 50 46 50 46 54 24 30 75 30 75 00 00
2026-02-20T17:48:49.933039,28.156,can0  204  [16]  FA 23 50 46 50 46 50 46 54 24 30 75 30 75 00 00
2026-02-20T17:48:49.986455,28.209,can0   00  [05]  00 07 70 10 08 0
2026-02-20T17:48:50.016399,28.239,can0  204  [16]  FA 23 50 46 50 46 50 46 54 24 30 75 30 75 00 00
2026-02-20T17:48:50.016671,28.239,can0  001  [05]  00 77 01 00 80
2026-02-20T17:48:50.016831,28.239,can0  204  [16]  FA 23 50 46 50 46 50 46 80 25 30 75 30 75 00 00
2026-02-20T17:48:50.016993,28.239,can0  041  [04]  8B 00 00 00
2026-02-20T17:48:50.116792,28.339,can0  100  [03]  EA 59 04
2026-02-20T17:48:50.117066,28.340,can0  204  [16]  FA 23 50 46 50 46 50 46 80 25 30 75 30 75 00 00
2026-02-20T17:48:50.117499,28.340,can0  206  [24]  73 0C DE 06 77 0C DA DC 12 07 7B 0C 77 0C 00 00 00 00 00 00 00 00 00 00
2026-02-20T17:48:50.123104,28.346,can0  204  [16]  FA 23 50 46 50 46 50 46 80 25 30 75 30 75 00 00
2026-02-20T17:48:50.223248,28.446,can0  204  [16]  FA 23 50 46 50 46 50 46 80 25 30 75 30 75 00 00
2026-02-20T17:48:50.223394,28.446,can0  204  [16]  FA 23 50 46 50 46 50 46 80 25 30 75 30 75 00 00
2026-02-20T17:48:50.328753,28.551,can0  204  [16]  1E 24 50 46 50 46 50 46 80 25 30 75 30 75 00 00
2026-02-20T17:48:50.328901,28.551,can0  041  [04]  5E 00 07 00
2026-02-20T17:48:50.329074,28.552,can0  204  [16]  1E 24 50 46 50 46 50 46 80 25 30 75 30 75 00 00
2026-02-20T17:48:50.433344,28.656,can0  204  [16]  41 24 50 46 50 46 50 46 80 25 30 75 30 75 00 00
2026-02-20T17:48:50.433460,28.656,can0  204  [16]  41 24 50 46 50 46 50 46 80 25 30 75 30 75 00 00
2026-02-20T17:48:50.527880,28.750,can0  204  [16]  64 24 50 46 50 46 50 46 80 25 30 75 30 75 00 00
2026-02-20T17:48:50.528006,28.750,can0  204  [16]  64 24 50 46 50 46 50 46 80 25 30 75 30 75 00 00
2026-02-20T17:48:50.622670,28.845,can0  204  [16]  87 24 50 46 50 46 50 46 80 25 30 75 30 75 00 00
2026-02-20T17:48:50.622780,28.845,can0  041  [04]  8B 00 02 00
2026-02-20T17:48:50.622908,28.845,can0  204  [16]  AA 24 50 46 50 46 50 46 80 25 30 75 30 75 00 00
2026-02-20T17:48:50.721509,28.944,can0  204  [16]  AA 24 50 46 50 46 50 46 80 25 30 75 30 75 00 00
2026-02-20T17:48:50.721629,28.944,can0  204  [16]  AA 24 50 46 50 46 50 46 80 25 30 75 30 75 00 00
2026-02-20T17:48:50.822233,29.045,can0  206  [24]  73 0C DC 06 73 0C DA DC 0E 07 7F 0C 73 0C 00 00 00 00 00 00 00 00 00 00
2026-02-20T17:48:50.822385,29.045,can0  204  [16]  CD 24 50 46 50 46 50 46 80 25 30 75 30 75 00 00
2026-02-20T17:48:50.822505,29.045,can0  204  [16]  CD 24 50 46 50 46 50 46 80 25 30 75 30 75 00 00
2026-02-20T17:48:50.826890,29.049,can0  041  [04]  B5 00 08 00
2026-02-20T17:48:50.924402,29.147,can0  204  [16]  F1 24 50 46 50 46 50 46 80 25 30 75 30 75 00 00
2026-02-20T17:48:50.924778,29.147,can0  110  [02]  1C 1D
2026-02-20T17:48:50.924932,29.147,can0  204  [16]  F1 24 50 46 50 46 50 46 80 25 30 75 30 75 00 00
2026-02-20T17:48:51.031710,29.254,can0  204  [16]  F1 24 50 46 50 46 50 46 80 25 30 75 30 75 00 00
2026-02-20T17:48:51.031842,29.254,can0  204  [16]  14 25 50 46 50 46 50 46 80 25 30 75 30 75 00 00
2026-02-20T17:48:51.127882,29.350,can0  204  [16]  14 25 50 46 50 46 50 46 80 25 30 75 30 75 00 00
2026-02-20T17:48:51.128010,29.351,can0  041  [04]  F0 00 07 00
2026-02-20T17:48:51.128150,29.351,can0  204  [16]  14 25 50 46 50 46 50 46 80 25 30 75 30 75 00 00
2026-02-20T17:48:51.222913,29.445,can0  204  [16]  14 25 50 46 50 46 50 46 80 25 30 75 30 75 00 00
2026-02-20T17:48:51.223054,29.446,can0  204  [16]  37 25 50 46 50 46 50 46 80 25 30 75 30 75 00 00
2026-02-20T17:48:51.322064,29.545,can0  204  [16]  37 25 50 46 50 46 50 46 80 25 30 75 30 75 00 00
2026-02-20T17:48:51.322436,29.545,can0  100  [03]  EF 59 04
2026-02-20T17:48:51.322573,29.545,can0  204  [16]  37 25 50 46 50 46 50 46 80 25 30 75 30 75 00 00
2026-02-20T17:48:51.422040,29.645,can0  041  [04]  04 01 07 00
2026-02-20T17:48:51.422180,29.645,can0  204  [16]  37 25 50 46 50 46 50 46 80 25 30 75 30 75 00 00
2026-02-20T17:48:51.422328,29.645,can0  206  [24]  7F 0C DE 06 73 0C DA DC 12 07 87 0C 6F 0C 00 00 00 00 00 00 00 00 00 00
2026-02-20T17:48:51.422443,29.645,can0  204  [16]  37 25 50 46 50 46 50 46 80 25 30 75 30 75 00 00
2026-02-20T17:48:51.522307,29.745,can0  204  [16]  37 25 50 46 50 46 50 46 80 25 30 75 30 75 00 00
2026-02-20T17:48:51.622319,29.845,can0  204  [16]  37 25 50 46 50 46 50 46 80 25 30 75 30 75 00 00
2026-02-20T17:48:51.622443,29.845,can0  204  [16]  37 25 50 46 50 46 50 46 80 25 30 75 30 75 00 00
2026-02-20T17:48:51.622562,29.845,can0  041  [04]  10 01 0F 00
2026-02-20T17:48:51.734235,29.957,can0  204  [16]  37 25 50 46 50 46 50 46 80 25 30 75 30 75 00 00
2026-02-20T17:48:51.734362,29.957,can0  204  [16]  37 25 50 46 50 46 50 46 80 25 30 75 30 75 00 00
2026-02-20T17:48:51.739265,29.962,can0  204  [16]  37 25 50 46 50 46 50 46 80 25 30 75 30 75 00 00
2026-02-20T17:48:51.820846,30.043,can0  204  [16]  37 25 50 46 50 46 50 46 80 25 30 75 30 75 00 00
2026-02-20T17:48:51.926994,30.149,can0  204  [16]  37 25 50 46 50 46 50 46 80 25 30 75 30 75 00 00
2026-02-20T17:48:51.928278,30.151,can0  204  [16]  37 25 50 46 50 46 50 46 80 25 30 75 30 75 00 00
2026-02-20T17:48:51.928354,30.151,can0  041  [04]  19 01 0C 00
2026-02-20T17:48:52.032753,30.255,can0  204  [16]  37 25 50 46 50 46 50 46 80 25 30 75 30 75 00 00
2026-02-20T17:48:52.032881,30.255,can0  204  [16]  37 25 50 46 50 46 50 46 80 25 30 75 30 75 00 00
2026-02-20T17:48:52.119438,30.342,can0  204  [16]  37 25 50 46 50 46 50 46 80 25 30 75 30 75 00 00
2026-02-20T17:48:52.119617,30.342,can0  206  [24]  63 0C DC 06 6B 0C 99 C6 10 07 8B 0C 8F 0C 00 00 00 00 00 00 00 00 00 00
2026-02-20T17:48:52.119749,30.342,can0  204  [16]  37 25 50 46 50 46 50 46 80 25 30 75 30 75 00 00
2026-02-20T17:48:52.219277,30.442,can0  204  [16]  37 25 50 46 50 46 50 46 80 25 30 75 30 75 00 00
2026-02-20T17:48:52.219415,30.442,can0  041  [04]  1F 01 0B 00
2026-02-20T17:48:52.219542,30.442,can0  204  [16]  37 25 50 46 50 46 50 46 80 25 30 75 30 75 00 00
2026-02-20T17:48:52.317454,30.540,can0  204  [16]  37 25 50 46 50 46 50 46 80 25 30 75 30 75 00 00
2026-02-20T17:48:52.317585,30.540,can0  204  [16]  37 25 50 46 50 46 50 46 80 25 30 75 30 75 00 00
2026-02-20T17:48:52.439732,30.662,can0  204  [16]  37 25 50 46 50 46 50 46 80 25 30 75 30 75 00 00
2026-02-20T17:48:52.439859,30.662,can0  204  [16]  37 25 50 46 50 46 50 46 80 25 30 75 30 75 00 00
2026-02-20T17:48:52.439982,30.662,can0  041  [04]  10 01 07 00
2026-02-20T17:48:52.535349,30.758,can0  204  [16]  37 25 50 46 50 46 50 46 80 25 30 75 30 75 00 00
2026-02-20T17:48:52.535472,30.758,can0  204  [16]  37 25 50 46 50 46 50 46 80 25 30 75 30 75 00 00
2026-02-20T17:48:52.633673,30.856,can0  204  [16]  37 25 50 46 50 46 50 46 80 25 30 75 30 75 00 00
2026-02-20T17:48:52.634069,30.857,can0  100  [03]  F5 59 04
2026-02-20T17:48:52.634410,30.857,can0  110  [02]  1E 1D
2026-02-20T17:48:52.634616,30.857,can0  204  [16]  37 25 50 46 50 46 50 46 80 25 30 75 30 75 00 00
2026-02-20T17:48:52.734553,30.957,can0  204  [16]  37 25 50 46 50 46 50 46 80 25 30 75 30 75 00 00
2026-02-20T17:48:52.734680,30.957,can0  041  [04]  B5 00 08 00
2026-02-20T17:48:52.734830,30.957,can0  206  [24]  97 0C E0 06 6F 0C DA DC 14 07 87 0C 56 0C 00 00 00 00 00 00 00 00 00 00
2026-02-20T17:48:52.734957,30.957,can0  204  [16]  37 25 50 46 50 46 50 46 80 25 30 75 30 75 00 00
2026-02-20T17:48:52.835784,31.058,can0  204  [16]  37 25 50 46 50 46 50 46 80 25 30 75 30 75 00 00
2026-02-20T17:48:52.835910,31.058,can0  204  [16]  37 25 50 46 50 46 50 46 80 25 30 75 30 75 00 00
2026-02-20T17:48:52.935786,31.158,can0  204  [16]  37 25 50 46 50 46 50 46 80 25 30 75 30 75 00 00
2026-02-20T17:48:52.935913,31.158,can0  204  [16]  37 25 50 46 50 46 50 46 80 25 30 75 30 75 00 00
2026-02-20T17:48:53.051304,31.274,can0  204  [16]  37 25 50 46 50 46 50 46 80 25 30 75 30 75 00 00
2026-02-20T17:48:53.051404,31.274,can0  041  [04]  FF 00 07 00
2026-02-20T17:48:53.051444,31.274,can0  204  [16]  37 25 50 46 50 46 50 46 80 25 30 75 30 75 00 00
2026-02-20T17:48:53.138607,31.361,can0  204  [16]  37 25 50 46 50 46 50 46 80 25 30 75 30 75 00 00
2026-02-20T17:48:53.138784,31.361,can0  204  [16]  37 25 50 46 50 46 50 46 80 25 30 75 30 75 00 00
2026-02-20T17:48:53.229713,31.452,can0  204  [16]  37 25 50 46 50 46 50 46 80 25 30 75 30 75 00 00
2026-02-20T17:48:53.229782,31.452,can0  204  [16]  37 25 50 46 50 46 50 46 80 25 30 75 30 75 00 00
2026-02-20T17:48:53.235337,31.458,can0  041  [04]  5D 00 00 00
2026-02-20T17:48:53.319635,31.542,can0  204  [16]  37 25 50 46 50 46 50 46 80 25 30 75 30 75 00 00
2026-02-20T17:48:53.319758,31.542,can0  204  [16]  37 25 50 46 50 46 50 46 80 25 30 75 30 75 00 00
2026-02-20T17:48:53.436475,31.659,can0  206  [24]  73 0C DA 06 73 0C B1 E0 0C 07 7F 0C 7F 0C 00 00 00 00 00 00 00 00 00 00
2026-02-20T17:48:53.436616,31.659,can0  204  [16]  37 25 50 46 50 46 50 46 80 25 30 75 30 75 00 00
2026-02-20T17:48:53.436743,31.659,can0  204  [16]  37 25 50 46 50 46 50 46 80 25 30 75 30 75 00 00
2026-02-20T17:48:53.531281,31.754,can0  204  [16]  37 25 50 46 50 46 50 46 80 25 30 75 30 75 00 00
2026-02-20T17:48:53.531352,31.754,can0  041  [04]  52 00 05 00
2026-02-20T17:48:53.531388,31.754,can0  204  [16]  37 25 50 46 50 46 50 46 80 25 30 75 30 75 00 00
2026-02-20T17:48:53.627838,31.850,can0  204  [16]  37 25 50 46 50 46 50 46 80 25 30 75 30 75 00 00
2026-02-20T17:48:53.627967,31.850,can0  204  [16]  37 25 50 46 50 46 50 46 80 25 30 75 30 75 00 00
2026-02-20T17:48:53.721166,31.944,can0  204  [16]  37 25 50 46 50 46 50 46 80 25 30 75 30 75 00 00
2026-02-20T17:48:53.721422,31.944,can0  204  [16]  37 25 50 46 50 46 50 46 80 25 30 75 30 75 00 00
2026-02-20T17:48:53.831660,32.054,can0  041  [04]  2F 00 06 00
2026-02-20T17:48:53.832759,32.055,can0  204  [16]  37 25 50 46 50 46 50 46 80 25 30 75 30 75 00 00
2026-02-20T17:48:53.832806,32.055,can0  100  [03]  FA 59 04
2026-02-20T17:48:53.837231,32.060,can0  204  [16]  37 25 50 46 50 46 50 46 80 25 30 75 30 75 00 00
2026-02-20T17:48:53.927680,32.150,can0  204  [16]  37 25 50 46 50 46 50 46 80 25 30 75 30 75 00 00
2026-02-20T17:48:53.927808,32.150,can0  204  [16]  37 25 50 46 50 46 50 46 80 25 30 75 30 75 00 00
2026-02-20T17:48:54.042863,32.265,can0  204  [16]  37 25 50 46 50 46 50 46 80 25 30 75 30 75 00 00
2026-02-20T17:48:54.043224,32.266,can0  206  [24]  7B 0C DC 06 67 0C 57 E3 14 07 93 0C 77 0C 00 00 00 00 00 00 00 00 00 00
2026-02-20T17:48:54.043260,32.266,can0  041  [04]  5D 00 0B 00
2026-02-20T17:48:54.043440,32.266,can0  204  [16]  37 25 50 46 50 46 50 46 80 25 30 75 30 75 00 00
2026-02-20T17:48:54.147093,32.370,can0  204  [16]  37 25 50 46 50 46 50 46 80 25 30 75 30 75 00 00
2026-02-20T17:48:54.152673,32.375,can0  204  [16]  37 25 50 46 50 46 50 46 80 25 30 75 30 75 00 00
2026-02-20T17:48:54.223505,32.446,can0  204  [16]  37 25 50 46 50 46 50 46 80 25 30 75 30 75 00 00
2026-02-20T17:48:54.223733,32.446,can0  204  [16]  37 25 50 46 50 46 50 46 80 25 30 75 30 75 00 00
2026-02-20T17:48:54.338213,32.561,can0  110  [02]  1E 1D
2026-02-20T17:48:54.338355,32.561,can0  041  [04]  74 00 07 00
2026-02-20T17:48:54.338506,32.561,can0  204  [16]  37 25 50 46 50 46 50 46 80 25 30 75 30 75 00 00
2026-02-20T17:48:54.338629,32.561,can0  204  [16]  37 25 50 46 50 46 50 46 80 25 30 75 30 75 00 00
2026-02-20T17:48:54.456528,32.679,can0  204  [16]  37 25 50 46 50 46 50 46 80 25 30 75 30 75 00 00
2026-02-20T17:48:54.456683,32.679,can0  204  [16]  37 25 50 46 50 46 50 46 80 25 30 75 30 75 00 00
2026-02-20T17:48:54.525510,32.748,can0  204  [16]  37 25 50 46 50 46 50 46 80 25 30 75 30 75 00 00
2026-02-20T17:48:54.641549,32.864,can0  204  [16]  37 25 50 46 50 46 50 46 80 25 30 75 30 75 00 00
2026-02-20T17:48:54.641670,32.864,can0  041  [04]  81 00 08 00
2026-02-20T17:48:54.641804,32.864,can0  204  [16]  37 25 50 46 50 46 50 46 80 25 30 75 30 75 00 00
2026-02-20T17:48:54.729898,32.952,can0  206  [24]  6F 0C DC 06 7B 0C 99 C6 10 07 7F 0C 7B 0C 00 00 00 00 00 00 00 00 00 00
2026-02-20T17:48:54.730052,32.953,can0  204  [16]  37 25 50 46 50 46 50 46 80 25 30 75 30 75 00 00
2026-02-20T17:48:54.730185,32.953,can0  204  [16]  37 25 50 46 50 46 50 46 80 25 30 75 30 75 00 00
2026-02-20T17:48:54.839545,33.062,can0  204  [16]  37 25 50 46 50 46 50 46 80 25 30 75 30 75 00 00
2026-02-20T17:48:54.839886,33.062,can0  204  [16]  37 25 50 46 50 46 50 46 80 25 30 75 30 75 00 00
2026-02-20T17:48:54.839930,33.062,can0  041  [04]  6C 00 09 00
2026-02-20T17:48:54.925898,33.148,can0  204  [16]  37 25 50 46 50 46 50 46 80 25 30 75 30 75 00 00
2026-02-20T17:48:54.926078,33.149,can0  204  [16]  37 25 50 46 50 46 50 46 80 25 30 75 30 75 00 00
2026-02-20T17:48:55.026627,33.249,can0  204  [16]  37 25 50 46 50 46 50 46 80 25 30 75 30 75 00 00
2026-02-20T17:48:55.026807,33.249,can0  204  [16]  37 25 50 46 50 46 50 46 80 25 30 75 30 75 00 00
2026-02-20T17:48:55.134229,33.357,can0  204  [16]  37 25 50 46 50 46 50 46 80 25 30 75 30 75 00 00
2026-02-20T17:48:55.134762,33.357,can0  041  [04]  5E 00 07 00
2026-02-20T17:48:55.134794,33.357,can0  100  [03]  FC 59 04
2026-02-20T17:48:55.134977,33.357,can0  204  [16]  37 25 50 46 50 46 50 46 80 25 30 75 30 75 00 00
2026-02-20T17:48:55.248062,33.471,can0  204  [16]  37 25 50 46 50 46 50 46 80 25 30 75 30 75 00 00
2026-02-20T17:48:55.248254,33.471,can0  204  [16]  37 25 50 46 50 46 50 46 80 25 30 75 30 75 00 00
2026-02-20T17:48:55.329597,33.552,can0  204  [16]  37 25 50 46 50 46 50 46 80 25 30 75 30 75 00 00
2026-02-20T17:48:55.329822,33.552,can0  206  [24]  67 0C D8 06 6F 0C C5 E1 14 07 7F 0C 8B 0C 00 00 00 00 00 00 00 00 00 00
2026-02-20T17:48:55.333457,33.556,can0  204  [16]  37 25 50 46 50 46 50 46 80 25 30 75 30 75 00 00
2026-02-20T17:48:55.444250,33.667,can0  041  [04]  5D 00 02 00
2026-02-20T17:48:55.444648,33.667,can0  204  [16]  37 25 50 46 50 46 50 46 80 25 30 75 30 75 00 00
2026-02-20T17:48:55.444682,33.667,can0  204  [16]  37 25 50 46 50 46 50 46 80 25 30 75 30 75 00 00
2026-02-20T17:48:55.554292,33.777,can0  204  [16]  37 25 50 46 50 46 50 46 80 25 30 75 30 75 00 00
2026-02-20T17:48:55.554485,33.777,can0  204  [16]  37 25 50 46 50 46 50 46 80 25 30 75 30 75 00 00
2026-02-20T17:48:55.628957,33.851,can0  204  [16]  37 25 50 46 50 46 50 46 80 25 30 75 30 75 00 00
2026-02-20T17:48:55.629175,33.852,can0  041  [04]  5D 00 08 00
2026-02-20T17:48:55.629396,33.852,can0  204  [16]  37 25 50 46 50 46 50 46 80 25 30 75 30 75 00 00
2026-02-20T17:48:55.742204,33.965,can0  204  [16]  37 25 50 46 50 46 50 46 80 25 30 75 30 75 00 00
2026-02-20T17:48:55.742601,33.965,can0  204  [16]  37 25 50 46 50 46 50 46 80 25 30 75 30 75 00 00
2026-02-20T17:48:55.839250,34.062,can0  204  [16]  37 25 50 46 50 46 50 46 80 25 30 75 30 75 00 00
2026-02-20T17:48:55.839389,34.062,can0  204  [16]  37 25 50 46 50 46 50 46 80 25 30 75 30 75 00 00
2026-02-20T17:48:55.932077,34.155,can0  204  [16]  37 25 50 46 50 46 50 46 80 25 30 75 30 75 00 00
2026-02-20T17:48:55.932210,34.155,can0  041  [04]  5E 00 02 00
2026-02-20T17:48:55.932346,34.155,can0  204  [16]  37 25 50 46 50 46 50 46 80 25 30 75 30 75 00 00
2026-02-20T17:48:55.932706,34.155,can0  110  [02]  1D 1D
2026-02-20T17:48:56.046585,34.269,can0  206  [24]  73 0C DA 06 77 0C 3A DF 12 07 7F 0C 7F 0C 00 00 00 00 00 00 00 00 00 00
2026-02-20T17:48:56.046770,34.269,can0  204  [16]  37 25 50 46 50 46 50 46 80 25 30 75 30 75 00 00
2026-02-20T17:48:56.046945,34.269,can0  204  [16]  37 25 50 46 50 46 50 46 80 25 30 75 30 75 00 00
2026-02-20T17:48:56.130729,34.353,can0  204  [16]  37 25 50 46 50 46 50 46 80 25 30 75 30 75 00 00
2026-02-20T17:48:56.130848,34.353,can0  204  [16]  37 25 50 46 50 46 50 46 80 25 30 75 30 75 00 00
2026-02-20T17:48:56.236227,34.459,can0  041  [04]  52 01 02 00
2026-02-20T17:48:56.236366,34.459,can0  204  [16]  37 25 50 46 50 46 50 46 80 25 30 75 30 75 00 00
2026-02-20T17:48:56.236498,34.459,can0  204  [16]  37 25 50 46 50 46 50 46 80 25 30 75 30 75 00 00
2026-02-20T17:48:56.325908,34.548,can0  204  [16]  37 25 50 46 50 46 50 46 80 25 30 75 30 75 00 00
2026-02-20T17:48:56.326044,34.549,can0  204  [16]  37 25 50 46 50 46 50 46 80 25 30 75 30 75 00 00
2026-02-20T17:48:56.446677,34.669,can0  100  [03]  03 5A 04
2026-02-20T17:48:56.446814,34.669,can0  204  [16]  37 25 50 46 50 46 50 46 80 25 30 75 30 75 00 00
2026-02-20T17:48:56.446924,34.669,can0  041  [04]  B5 00 00 00
2026-02-20T17:48:56.450421,34.673,can0  204  [16]  37 25 50 46 50 46 50 46 80 25 30 75 30 75 00 00
2026-02-20T17:48:56.546633,34.769,can0  204  [16]  37 25 50 46 50 46 50 46 80 25 30 75 30 75 00 00
2026-02-20T17:48:56.546766,34.769,can0  204  [16]  37 25 50 46 50 46 50 46 80 25 30 75 30 75 00 00
2026-02-20T17:48:56.646427,34.869,can0  204  [16]  37 25 50 46 50 46 50 46 80 25 30 75 30 75 00 00
2026-02-20T17:48:56.646589,34.869,can0  206  [24]  77 0C E7 06 6B 0C 99 C6 12 07 7F 0C 7B 0C 00 00 00 00 00 00 00 00 00 00
2026-02-20T17:48:56.646712,34.869,can0  204  [16]  37 25 50 46 50 46 50 46 80 25 30 75 30 75 00 00
2026-02-20T17:48:56.747323,34.970,can0  041  [04]  B5 00 08 00
2026-02-20T17:48:56.747455,34.970,can0  204  [16]  37 25 50 46 50 46 50 46 80 25 30 75 30 75 00 00
2026-02-20T17:48:56.846524,35.069,can0  204  [16]  37 25 50 46 50 46 50 46 80 25 30 75 30 75 00 00
2026-02-20T17:48:56.846661,35.069,can0  204  [16]  37 25 50 46 50 46 50 46 80 25 30 75 30 75 00 00
2026-02-20T17:48:56.846771,35.069,can0  204  [16]  37 25 50 46 50 46 50 46 80 25 30 75 30 75 00 00
2026-02-20T17:48:56.947089,35.170,can0  204  [16]  37 25 50 46 50 46 50 46 80 25 30 75 30 75 00 00
2026-02-20T17:48:56.947226,35.170,can0  204  [16]  37 25 50 46 50 46 50 46 80 25 30 75 30 75 00 00
2026-02-20T17:48:57.046808,35.269,can0  041  [04]  AA 00 0C 00
2026-02-20T17:48:57.050288,35.273,can0  204  [16]  37 25 50 46 50 46 50 46 80 25 30 75 30 75 00 00
2026-02-20T17:48:57.147847,35.370,can0  204  [16]  37 25 50 46 50 46 50 46 80 25 30 75 30 75 00 00
2026-02-20T17:48:57.148043,35.371,can0  204  [16]  37 25 50 46 50 46 50 46 80 25 30 75 30 75 00 00
2026-02-20T17:48:57.234893,35.457,can0  204  [16]  37 25 50 46 50 46 50 46 80 25 30 75 30 75 00 00
2026-02-20T17:48:57.235026,35.458,can0  204  [16]  37 25 50 46 50 46 50 46 80 25 30 75 30 75 00 00
2026-02-20T17:48:57.235156,35.458,can0  041  [04]  AE 00 0D 00
2026-02-20T17:48:57.235313,35.458,can0  206  [24]  6F 0C DA 06 77 0C A0 E2 14 07 87 0C 7B 0C 00 00 00 00 00 00 00 00 00 00
2026-02-20T17:48:57.335661,35.558,can0  204  [16]  37 25 50 46 50 46 50 46 80 25 30 75 30 75 00 00
2026-02-20T17:48:57.335892,35.558,can0  204  [16]  37 25 50 46 50 46 50 46 80 25 30 75 30 75 00 00
2026-02-20T17:48:57.446447,35.669,can0  204  [16]  37 25 50 46 50 46 50 46 80 25 30 75 30 75 00 00
2026-02-20T17:48:57.450290,35.673,can0  204  [16]  37 25 50 46 50 46 50 46 80 25 30 75 30 75 00 00
2026-02-20T17:48:57.540530,35.763,can0  204  [16]  37 25 50 46 50 46 50 46 80 25 30 75 30 75 00 00
2026-02-20T17:48:57.540723,35.763,can0  041  [04]  B5 00 06 00
2026-02-20T17:48:57.540869,35.763,can0  204  [16]  37 25 50 46 50 46 50 46 80 25 30 75 30 75 00 00
2026-02-20T17:48:57.654300,35.877,can0  204  [16]  37 25 50 46 50 46 50 46 80 25 30 75 30 75 00 00
2026-02-20T17:48:57.654514,35.877,can0  204  [16]  37 25 50 46 50 46 50 46 80 25 30 75 30 75 00 00
2026-02-20T17:48:57.655011,35.878,can0  100  [03]  0A 5A 04
2026-02-20T17:48:57.655329,35.878,can0  110  [02]  1D 1D
2026-02-20T17:48:57.731837,35.954,can0  204  [16]  37 25 50 46 50 46 50 46 80 25 30 75 30 75 00 00
2026-02-20T17:48:57.732222,35.955,can0  204  [16]  37 25 50 46 50 46 50 46 80 25 30 75 30 75 00 00
2026-02-20T17:48:57.738633,35.961,can0  041  [04]  3F 01 05 00
2026-02-20T17:48:57.861577,36.084,can0  204  [16]  37 25 50 46 50 46 50 46 80 25 30 75 30 75 00 00
2026-02-20T17:48:57.861671,36.084,can0  204  [16]  37 25 50 46 50 46 50 46 80 25 30 75 30 75 00 00
2026-02-20T17:48:57.936038,36.159,can0  204  [16]  37 25 50 46 50 46 50 46 80 25 30 75 30 75 00 00
2026-02-20T17:48:57.936268,36.159,can0  206  [24]  7B 0C DC 06 73 0C 99 C6 0C 07 87 0C 73 0C 00 00 00 00 00 00 00 00 00 00
2026-02-20T17:48:57.936459,36.159,can0  204  [16]  37 25 50 46 50 46 50 46 80 25 30 75 30 75 00 00
2026-02-20T17:48:58.050652,36.273,can0  204  [16]  37 25 50 46 50 46 50 46 80 25 30 75 30 75 00 00
2026-02-20T17:48:58.050843,36.273,can0  041  [04]  10 01 05 00
2026-02-20T17:48:58.051121,36.274,can0  204  [16]  37 25 50 46 50 46 50 46 80 25 30 75 30 75 00 00
2026-02-20T17:48:58.149029,36.372,can0  204  [16]  37 25 50 46 50 46 50 46 80 25 30 75 30 75 00 00
2026-02-20T17:48:58.149180,36.372,can0  204  [16]  37 25 50 46 50 46 50 46 80 25 30 75 30 75 00 00
2026-02-20T17:48:58.231706,36.454,can0  204  [16]  37 25 50 46 50 46 50 46 80 25 30 75 30 75 00 00
2026-02-20T17:48:58.231829,36.454,can0  204  [16]  37 25 50 46 50 46 50 46 80 25 30 75 30 75 00 00
2026-02-20T17:48:58.333876,36.556,can0  204  [16]  37 25 50 46 50 46 50 46 80 25 30 75 30 75 00 00
2026-02-20T17:48:58.334195,36.557,can0  041  [04]  02 00 07 00
2026-02-20T17:48:58.334236,36.557,can0  204  [16]  37 25 50 46 50 46 50 46 80 25 30 75 30 75 00 00
2026-02-20T17:48:58.437076,36.660,can0  204  [16]  37 25 50 46 50 46 50 46 80 25 30 75 30 75 00 00
2026-02-20T17:48:58.444664,36.667,can0  204  [16]  37 25 50 46 50 46 50 46 80 25 30 75 30 75 00 00
2026-02-20T17:48:58.620870,36.843,can0  204  [16]  37 25 50 46 50 46 50 46 80 25 30 75 30 75 00 00
2026-02-20T17:48:58.620970,36.843,can0  204  [16]  37 25 50 46 50 46 50 46 80 25 30 75 30 75 00 00
2026-02-20T17:48:58.621006,36.843,can0  206  [24]  6F 0C DC 06 73 0C DA DC 12 07 8B 0C 7F 0C 00 00 00 00 00 00 00 00 00 00
2026-02-20T17:48:58.652820,36.875,can0  041  [04]  3F 01 06 00
2026-02-20T17:48:58.653053,36.876,can0  204  [16]  37 25 50 46 50 46 50 46 80 25 30 75 30 75 00 00
2026-02-20T17:48:58.653257,36.876,can0  204  [16]  37 25 50 46 50 46 50 46 80 25 30 75 30 75 00 00
2026-02-20T17:48:58.735982,36.958,can0  204  [16]  37 25 50 46 50 46 50 46 80 25 30 75 30 75 00 00
2026-02-20T17:48:58.739603,36.962,can0  204  [16]  37 25 50 46 50 46 50 46 80 25 30 75 30 75 00 00
2026-02-20T17:48:58.839615,37.062,can0  204  [16]  37 25 50 46 50 46 50 46 80 25 30 75 30 75 00 00
2026-02-20T17:48:58.839827,37.062,can0  041  [04]  8B 00 07 00
2026-02-20T17:48:58.839935,37.062,can0  204  [16]  37 25 50 46 50 46 50 46 80 25 30 75 30 75 00 00
2026-02-20T17:48:58.949749,37.172,can0  100  [03]  12 5A 04
2026-02-20T17:48:58.949894,37.172,can0  204  [16]  37 25 50 46 50 46 50 46 80 25 30 75 30 75 00 00
2026-02-20T17:48:58.950028,37.173,can0  204  [16]  37 25 50 46 50 46 50 46 80 25 30 75 30 75 00 00
2026-02-20T17:48:59.041930,37.264,can0  204  [16]  37 25 50 46 50 46 50 46 80 25 30 75 30 75 00 00
2026-02-20T17:48:59.042058,37.265,can0  204  [16]  37 25 50 46 50 46 50 46 80 25 30 75 30 75 00 00
2026-02-20T17:48:59.146786,37.369,can0  041  [04]  3F 01 02 00
2026-02-20T17:48:59.146919,37.369,can0  204  [16]  37 25 50 46 50 46 50 46 80 25 30 75 30 75 00 00
2026-02-20T17:48:59.147053,37.370,can0  204  [16]  37 25 50 46 50 46 50 46 80 25 30 75 30 75 00 00
2026-02-20T17:48:59.247092,37.470,can0  204  [16]  37 25 50 46 50 46 50 46 80 25 30 75 30 75 00 00
2026-02-20T17:48:59.247379,37.470,can0  206  [24]  87 0C DC 06 73 0C 99 C6 0E 07 8B 0C 67 0C 00 00 00 00 00 00 00 00 00 00
2026-02-20T17:48:59.247421,37.470,can0  204  [16]  37 25 50 46 50 46 50 46 80 25 30 75 30 75 00 00
2026-02-20T17:48:59.346545,37.569,can0  204  [16]  37 25 50 46 50 46 50 46 80 25 30 75 30 75 00 00
2026-02-20T17:48:59.346911,37.569,can0  110  [02]  1F 1D
2026-02-20T17:48:59.347046,37.570,can0  041  [04]  8B 00 00 00
2026-02-20T17:48:59.347172,37.570,can0  204  [16]  37 25 50 46 50 46 50 46 80 25 30 75 30 75 00 00
2026-02-20T17:48:59.447331,37.670,can0  204  [16]  37 25 50 46 50 46 50 46 80 25 30 75 30 75 00 00
2026-02-20T17:48:59.447459,37.670,can0  204  [16]  37 25 50 46 50 46 50 46 80 25 30 75 30 75 00 00
2026-02-20T17:48:59.547132,37.770,can0  204  [16]  37 25 50 46 50 46 50 46 80 25 30 75 30 75 00 00
2026-02-20T17:48:59.646783,37.869,can0  204  [16]  37 25 50 46 50 46 50 46 80 25 30 75 30 75 00 00
2026-02-20T17:48:59.646927,37.869,can0  204  [16]  37 25 50 46 50 46 50 46 80 25 30 75 30 75 00 00
2026-02-20T17:48:59.647041,37.870,can0  041  [04]  9F 00 0B 00
2026-02-20T17:48:59.746481,37.969,can0  204  [16]  37 25 50 46 50 46 50 46 80 25 30 75 30 75 00 00
2026-02-20T17:48:59.746613,37.969,can0  204  [16]  37 25 50 46 50 46 50 46 80 25 30 75 30 75 00 00
2026-02-20T17:48:59.846494,38.069,can0  204  [16]  37 25 50 46 50 46 50 46 80 25 30 75 30 75 00 00
2026-02-20T17:48:59.846610,38.069,can0  204  [16]  37 25 50 46 50 46 50 46 80 25 30 75 30 75 00 00
2026-02-20T17:48:59.846777,38.069,can0  206  [24]  77 0C DC 06 77 0C 3A DF 12 07 7B 0C 7F 0C 00 00 00 00 00 00 00 00 00 00
2026-02-20T17:48:59.951153,38.174,can0  204  [16]  37 25 50 46 50 46 50 46 80 25 30 75 30 75 00 00
2026-02-20T17:48:59.951280,38.174,can0  041  [04]  71 00 0C 00
2026-02-20T17:48:59.951408,38.174,can0  204  [16]  37 25 50 46 50 46 50 46 80 25 30 75 30 75 00 00
2026-02-20T17:49:00.047076,38.270,can0  204  [16]  37 25 50 46 50 46 50 46 80 25 30 75 30 75 00 00
2026-02-20T17:49:00.047209,38.270,can0  204  [16]  37 25 50 46 50 46 50 46 80 25 30 75 30 75 00 00
2026-02-20T17:49:00.146733,38.369,can0  204  [16]  37 25 50 46 50 46 50 46 80 25 30 75 30 75 00 00
2026-02-20T17:49:00.146846,38.369,can0  204  [16]  37 25 50 46 50 46 50 46 80 25 30 75 30 75 00 00
2026-02-20T17:49:00.146969,38.369,can0  041  [04]  8B 00 0B 00
2026-02-20T17:49:00.246837,38.469,can0  100  [03]  17 5A 04
2026-02-20T17:49:00.246985,38.469,can0  204  [16]  37 25 50 46 50 46 50 46 80 25 30 75 30 75 00 00
2026-02-20T17:49:00.247119,38.470,can0  204  [16]  37 25 50 46 50 46 50 46 80 25 30 75 30 75 00 00
2026-02-20T17:49:00.347304,38.570,can0  204  [16]  37 25 50 46 50 46 50 46 80 25 30 75 30 75 00 00
2026-02-20T17:49:00.347437,38.570,can0  204  [16]  37 25 50 46 50 46 50 46 80 25 30 75 30 75 00 00
2026-02-20T17:49:00.446841,38.669,can0  204  [16]  37 25 50 46 50 46 50 46 80 25 30 75 30 75 00 00
2026-02-20T17:49:00.446968,38.669,can0  041  [04]  74 00 07 00
2026-02-20T17:49:00.447095,38.670,can0  204  [16]  37 25 50 46 50 46 50 46 80 25 30 75 30 75 00 00
2026-02-20T17:49:00.547268,38.770,can0  204  [16]  37 25 50 46 50 46 50 46 80 25 30 75 30 75 00 00
2026-02-20T17:49:00.547441,38.770,can0  206  [24]  73 0C E0 06 77 0C 99 C6 12 07 87 0C 7B 0C 00 00 00 00 00 00 00 00 00 00
2026-02-20T17:49:00.547571,38.770,can0  204  [16]  37 25 50 46 50 46 50 46 80 25 30 75 30 75 00 00
2026-02-20T17:49:00.647204,38.870,can0  204  [16]  37 25 50 46 50 46 50 46 80 25 30 75 30 75 00 00
2026-02-20T17:49:00.647338,38.870,can0  204  [16]  37 25 50 46 50 46 50 46 80 25 30 75 30 75 00 00
2026-02-20T17:49:00.746988,38.969,can0  204  [16]  37 25 50 46 50 46 50 46 80 25 30 75 30 75 00 00
2026-02-20T17:49:00.747133,38.970,can0  041  [04]  7A 00 02 00
2026-02-20T17:49:00.747255,38.970,can0  204  [16]  37 25 50 46 50 46 50 46 80 25 30 75 30 75 00 00
2026-02-20T17:49:00.847138,39.070,can0  204  [16]  37 25 50 46 50 46 50 46 80 25 30 75 30 75 00 00
2026-02-20T17:49:00.847257,39.070,can0  204  [16]  37 25 50 46 50 46 50 46 80 25 30 75 30 75 00 00
2026-02-20T17:49:00.947021,39.170,can0  204  [16]  37 25 50 46 50 46 50 46 80 25 30 75 30 75 00 00
2026-02-20T17:49:00.947154,39.170,can0  204  [16]  37 25 50 46 50 46 50 46 80 25 30 75 30 75 00 00
2026-02-20T17:49:00.947272,39.170,can0  041  [04]  10 01 05 00
2026-02-20T17:49:01.046724,39.269,can0  204  [16]  37 25 50 46 50 46 50 46 80 25 30 75 30 75 00 00
2026-02-20T17:49:01.047097,39.270,can0  110  [02]  1E 1D
2026-02-20T17:49:01.050954,39.273,can0  204  [16]  37 25 50 46 50 46 50 46 80 25 30 75 30 75 00 00
2026-02-20T17:49:01.147169,39.370,can0  204  [16]  37 25 50 46 50 46 50 46 80 25 30 75 30 75 00 00
2026-02-20T17:49:01.147302,39.370,can0  204  [16]  37 25 50 46 50 46 50 46 80 25 30 75 30 75 00 00
2026-02-20T17:49:01.148725,39.371,can0  206  [24]  73 0C DC 06 83 0C 99 C6 16 07 7F 0C 7B 0C 00 00 00 00 00 00 00 00 00 00
2026-02-20T17:49:01.247254,39.470,can0  204  [16]  37 25 50 46 50 46 50 46 80 25 30 75 30 75 00 00
2026-02-20T17:49:01.247319,39.470,can0  041  [04]  B5 00 00 00
2026-02-20T17:49:01.249346,39.472,can0  204  [16]  37 25 50 46 50 46 50 46 80 25 30 75 30 75 00 00
2026-02-20T17:49:01.357578,39.580,can0  204  [16]  37 25 50 46 50 46 50 46 80 25 30 75 30 75 00 00
2026-02-20T17:49:01.357778,39.580,can0  204  [16]  37 25 50 46 50 46 50 46 80 25 30 75 30 75 00 00
2026-02-20T17:49:01.467868,39.690,can0  204  [16]  37 25 50 46 50 46 50 46 80 25 30 75 30 75 00 00
2026-02-20T17:49:01.468050,39.691,can0  100  [03]  20 5A 04
2026-02-20T17:49:01.469343,39.692,can0  204  [16]  37 25 50 46 50 46 50 46 80 25 30 75 30 75 00 00
2026-02-20T17:49:01.545391,39.768,can0  041  [04]  71 00 06 00
2026-02-20T17:49:01.545531,39.768,can0  204  [16]  37 25 50 46 50 46 50 46 80 25 30 75 30 75 00 00
2026-02-20T17:49:01.545651,39.768,can0  204  [16]  37 25 50 46 50 46 50 46 80 25 30 75 30 75 00 00
2026-02-20T17:49:01.646766,39.869,can0  204  [16]  37 25 50 46 50 46 50 46 80 25 30 75 30 75 00 00
2026-02-20T17:49:01.746606,39.969,can0  204  [16]  37 25 50 46 50 46 50 46 80 25 30 75 30 75 00 00
2026-02-20T17:49:01.746728,39.969,can0  204  [16]  37 25 50 46 50 46 50 46 80 25 30 75 30 75 00 00
2026-02-20T17:49:01.746843,39.969,can0  041  [04]  5D 00 00 00
2026-02-20T17:49:01.847157,40.070,can0  204  [16]  37 25 50 46 50 46 50 46 80 25 30 75 30 75 00 00
2026-02-20T17:49:01.850888,40.073,can0  206  [24]  67 0C DE 06 77 0C 99 C6 14 07 6B 0C 87 0C 00 00 00 00 00 00 00 00 00 00
2026-02-20T17:49:01.850922,40.073,can0  204  [16]  37 25 50 46 50 46 50 46 80 25 30 75 30 75 00 00
2026-02-20T17:49:01.946856,40.169,can0  204  [16]  37 25 50 46 50 46 50 46 80 25 30 75 30 75 00 00
2026-02-20T17:49:01.947038,40.170,can0  204  [16]  37 25 50 46 50 46 50 46 80 25 30 75 30 75 00 00
2026-02-20T17:49:01.950553,40.173,can0  204  [16]  37 25 50 46 50 46 50 46 80 25 30 75 30 75 00 00
2026-02-20T17:49:02.047351,40.270,can0  204  [16]  37 25 50 46 50 46 50 46 80 25 30 75 30 75 00 00
2026-02-20T17:49:02.047515,40.270,can0  041  [04]  02 00 02 00
2026-02-20T17:49:02.147005,40.370,can0  204  [16]  37 25 50 46 50 46 50 46 80 25 30 75 30 75 00 00
2026-02-20T17:49:02.147152,40.370,can0  204  [16]  37 25 50 46 50 46 50 46 80 25 30 75 30 75 00 00
2026-02-20T17:49:02.247026,40.470,can0  204  [16]  37 25 50 46 50 46 50 46 80 25 30 75 30 75 00 00
2026-02-20T17:49:02.247161,40.470,can0  204  [16]  37 25 50 46 50 46 50 46 80 25 30 75 30 75 00 00
2026-02-20T17:49:02.346614,40.569,can0  204  [16]  37 25 50 46 50 46 50 46 80 25 30 75 30 75 00 00
2026-02-20T17:49:02.346741,40.569,can0  041  [04]  2B 01 04 00
2026-02-20T17:49:02.346862,40.569,can0  204  [16]  37 25 50 46 50 46 50 46 80 25 30 75 30 75 00 00
2026-02-20T17:49:02.446865,40.669,can0  204  [16]  37 25 50 46 50 46 50 46 80 25 30 75 30 75 00 00
2026-02-20T17:49:02.446985,40.669,can0  204  [16]  37 25 50 46 50 46 50 46 80 25 30 75 30 75 00 00
2026-02-20T17:49:02.447151,40.670,can0  206  [24]  7B 0C D8 06 73 0C 99 C6 0E 07 7F 0C 6F 0C 00 00 00 00 00 00 00 00 00 00
2026-02-20T17:49:02.547044,40.770,can0  204  [16]  37 25 50 46 50 46 50 46 80 25 30 75 30 75 00 00
2026-02-20T17:49:02.547168,40.770,can0  204  [16]  37 25 50 46 50 46 50 46 80 25 30 75 30 75 00 00
2026-02-20T17:49:02.547292,40.770,can0  041  [04]  10 01 07 00
2026-02-20T17:49:02.646744,40.869,can0  204  [16]  37 25 50 46 50 46 50 46 80 25 30 75 30 75 00 00
2026-02-20T17:49:02.650942,40.873,can0  204  [16]  37 25 50 46 50 46 50 46 80 25 30 75 30 75 00 00
2026-02-20T17:49:02.746944,40.969,can0  204  [16]  37 25 50 46 50 46 50 46 80 25 30 75 30 75 00 00
2026-02-20T17:49:02.747322,40.970,can0  100  [03]  29 5A 04
2026-02-20T17:49:02.747594,40.970,can0  110  [02]  1E 1D
2026-02-20T17:49:02.747729,40.970,can0  204  [16]  37 25 50 46 50 46 50 46 80 25 30 75 30 75 00 00
2026-02-20T17:49:02.846518,41.069,can0  204  [16]  37 25 50 46 50 46 50 46 80 25 30 75 30 75 00 00
2026-02-20T17:49:02.846642,41.069,can0  041  [04]  10 01 02 00
2026-02-20T17:49:02.846762,41.069,can0  204  [16]  37 25 50 46 50 46 50 46 80 25 30 75 30 75 00 00
2026-02-20T17:49:02.947319,41.170,can0  204  [16]  37 25 50 46 50 46 50 46 80 25 30 75 30 75 00 00
2026-02-20T17:49:02.947447,41.170,can0  204  [16]  37 25 50 46 50 46 50 46 80 25 30 75 30 75 00 00
2026-02-20T17:49:03.046604,41.269,can0  204  [16]  37 25 50 46 50 46 50 46 80 25 30 75 30 75 00 00
2026-02-20T17:49:03.046728,41.269,can0  204  [16]  37 25 50 46 50 46 50 46 80 25 30 75 30 75 00 00
2026-02-20T17:49:03.146471,41.369,can0  041  [04]  1F 01 02 00
2026-02-20T17:49:03.146608,41.369,can0  204  [16]  37 25 50 46 50 46 50 46 80 25 30 75 30 75 00 00
2026-02-20T17:49:03.146756,41.369,can0  206  [24]  7B 0C DA 06 77 0C 99 C6 10 07 77 0C 7B 0C 00 00 00 00 00 00 00 00 00 00
2026-02-20T17:49:03.146870,41.369,can0  204  [16]  37 25 50 46 50 46 50 46 80 25 30 75 30 75 00 00
2026-02-20T17:49:03.246991,41.469,can0  204  [16]  37 25 50 46 50 46 50 46 80 25 30 75 30 75 00 00
2026-02-20T17:49:03.247120,41.470,can0  204  [16]  37 25 50 46 50 46 50 46 80 25 30 75 30 75 00 00
