Timestamp,Elapsed_Time_s,CAN_Message
2026-02-20T17:35:52.918245,2.696,can0  204  [16]  E1 22 50 46 50 46 50 46 23 23 30 75 30 75 00 00
2026-02-20T17:35:53.018193,2.796,can0  204  [16]  E1 22 50 46 50 46 50 46 23 23 30 75 30 75 00 00
2026-02-20T17:35:53.018287,2.796,can0  041  [04]  5E 00 00 00
2026-02-20T17:35:53.018412,2.796,can0  204  [16]  E1 22 50 46 50 46 50 46 23 23 30 75 30 75 00 00
2026-02-20T17:35:53.118168,2.896,can0  204  [16]  E1 22 50 46 50 46 50 46 23 23 30 75 30 75 00 00
2026-02-20T17:35:53.118310,2.896,can0  204  [16]  E1 22 50 46 50 46 50 46 23 23 30 75 30 75 00 00
2026-02-20T17:35:53.218051,2.995,can0  204  [16]  E1 22 50 46 50 46 50 46 23 23 30 75 30 75 00 00
2026-02-20T17:35:53.218184,2.996,can0  204  [16]  E1 22 50 46 50 46 50 46 23 23 30 75 30 75 00 00
2026-02-20T17:35:53.318333,3.096,can0  041  [04]  5E 00 05 00
2026-02-20T17:35:53.318470,3.096,can0  204  [16]  E1 22 50 46 50 46 50 46 23 23 30 75 30 75 00 00
2026-02-20T17:35:53.318619,3.096,can0  206  [24]  87 0C 05 07 73 0C B1 E0 39 07 83 0C 67 0C 00 00 00 00 00 00 00 00 00 00
2026-02-20T17:35:53.320797,3.098,can0  204  [16]  E1 22 50 46 50 46 50 46 23 23 30 75 30 75 00 00
2026-02-20T17:35:53.417728,3.195,can0  204  [16]  E1 22 50 46 50 46 50 46 23 23 30 75 30 75 00 00
2026-02-20T17:35:53.417863,3.195,can0  204  [16]  E1 22 50 46 50 46 50 46 23 23 30 75 30 75 00 00
2026-02-20T17:35:53.517567,3.295,can0  204  [16]  E1 22 50 46 50 46 50 46 23 23 30 75 30 75 00 00
2026-02-20T17:35:53.517729,3.295,can0  204  [16]  E1 22 50 46 50 46 50 46 23 23 30 75 30 75 00 00
2026-02-20T17:35:53.517833,3.295,can0  041  [04]  74 00 06 00
2026-02-20T17:35:53.617928,3.395,can0  204  [16]  E1 22 50 46 50 46 50 46 23 23 30 75 30 75 00 00
2026-02-20T17:35:53.618069,3.395,can0  204  [16]  E1 22 50 46 50 46 50 46 23 23 30 75 30 75 00 00
2026-02-20T17:35:53.717743,3.495,can0  204  [16]  E1 22 50 46 50 46 50 46 23 23 30 75 30 75 00 00
2026-02-20T17:35:53.718131,3.495,can0  110  [02]  26 1D
2026-02-20T17:35:53.718299,3.496,can0  204  [16]  E1 22 50 46 50 46 50 46 23 23 30 75 30 75 00 00
2026-02-20T17:35:53.817811,3.595,can0  204  [16]  E1 22 50 46 50 46 50 46 23 23 30 75 30 75 00 00
2026-02-20T17:35:53.817948,3.595,can0  041  [04]  02 00 00 00
2026-02-20T17:35:53.818083,3.595,can0  204  [16]  E1 22 50 46 50 46 50 46 23 23 30 75 30 75 00 00
2026-02-20T17:35:53.917913,3.695,can0  204  [16]  E1 22 50 46 50 46 50 46 23 23 30 75 30 75 00 00
2026-02-20T17:35:53.918093,3.695,can0  206  [24]  7F 0C FF 06 7B 0C 57 E3 36 07 87 0C 6F 0C 00 00 00 00 00 00 00 00 00 00
2026-02-20T17:35:53.920162,3.697,can0  204  [16]  E1 22 50 46 50 46 50 46 23 23 30 75 30 75 00 00
2026-02-20T17:35:54.026237,3.804,can0  204  [16]  E1 22 50 46 50 46 50 46 23 23 30 75 30 75 00 00
2026-02-20T17:35:54.028461,3.806,can0  204  [16]  E1 22 50 46 50 46 50 46 23 23 30 75 30 75 00 00
2026-02-20T17:35:54.122305,3.900,can0  041  [04]  5D 00 05 00
2026-02-20T17:35:54.122452,3.900,can0  204  [16]  E1 22 50 46 50 46 50 46 23 23 30 75 30 75 00 00
2026-02-20T17:35:54.122578,3.900,can0  204  [16]  E1 22 50 46 50 46 50 46 23 23 30 75 30 75 00 00
2026-02-20T17:35:54.122905,3.900,can0  100  [03]  5D 3E 04
2026-02-20T17:35:54.218247,3.996,can0  204  [16]  E1 22 50 46 50 46 50 46 23 23 30 75 30 75 00 00
2026-02-20T17:35:54.218400,3.996,can0  204  [16]  E1 22 50 46 50 46 50 46 23 23 30 75 30 75 00 00
2026-02-20T17:35:54.318486,4.096,can0  204  [16]  E1 22 50 46 50 46 50 46 23 23 30 75 30 75 00 00
2026-02-20T17:35:54.318626,4.096,can0  041  [04]  10 01 05 00
2026-02-20T17:35:54.320776,4.098,can0  204  [16]  E1 22 50 46 50 46 50 46 23 23 30 75 30 75 00 00
2026-02-20T17:35:54.417628,4.195,can0  204  [16]  E1 22 50 46 50 46 50 46 23 23 30 75 30 75 00 00
2026-02-20T17:35:54.417754,4.195,can0  204  [16]  E1 22 50 46 50 46 50 46 23 23 30 75 30 75 00 00
2026-02-20T17:35:54.517976,4.295,can0  204  [16]  E1 22 50 46 50 46 50 46 23 23 30 75 30 75 00 00
2026-02-20T17:35:54.518115,4.295,can0  204  [16]  E1 22 50 46 50 46 50 46 23 23 30 75 30 75 00 00
2026-02-20T17:35:54.617650,4.395,can0  206  [24]  77 0C 03 07 6F 0C DA DC 34 07 87 0C 77 0C 00 00 00 00 00 00 00 00 00 00
2026-02-20T17:35:54.617762,4.395,can0  041  [04]  3F 01 02 00
2026-02-20T17:35:54.617860,4.395,can0  204  [16]  E1 22 50 46 50 46 50 46 23 23 30 75 30 75 00 00
2026-02-20T17:35:54.621018,4.398,can0  204  [16]  E1 22 50 46 50 46 50 46 23 23 30 75 30 75 00 00
2026-02-20T17:35:54.718282,4.496,can0  204  [16]  E1 22 50 46 50 46 50 46 23 23 30 75 30 75 00 00
2026-02-20T17:35:54.718424,4.496,can0  204  [16]  E1 22 50 46 50 46 50 46 23 23 30 75 30 75 00 00
2026-02-20T17:35:54.817503,4.595,can0  204  [16]  E1 22 50 46 50 46 50 46 23 23 30 75 30 75 00 00
2026-02-20T17:35:54.817662,4.595,can0  204  [16]  E1 22 50 46 50 46 50 46 23 23 30 75 30 75 00 00
2026-02-20T17:35:54.923471,4.701,can0  041  [04]  10 01 06 00
2026-02-20T17:35:54.928177,4.706,can0  204  [16]  E1 22 50 46 50 46 50 46 23 23 30 75 30 75 00 00
2026-02-20T17:35:54.928242,4.706,can0  204  [16]  E1 22 50 46 50 46 50 46 23 23 30 75 30 75 00 00
2026-02-20T17:35:55.024683,4.802,can0  204  [16]  E1 22 50 46 50 46 50 46 23 23 30 75 30 75 00 00
2026-02-20T17:35:55.024781,4.802,can0  204  [16]  E1 22 50 46 50 46 50 46 23 23 30 75 30 75 00 00
2026-02-20T17:35:55.124287,4.902,can0  204  [16]  E1 22 50 46 50 46 50 46 23 23 30 75 30 75 00 00
2026-02-20T17:35:55.124394,4.902,can0  041  [04]  52 01 02 00
2026-02-20T17:35:55.124495,4.902,can0  204  [16]  E1 22 50 46 50 46 50 46 23 23 30 75 30 75 00 00
2026-02-20T17:35:55.222990,5.000,can0  204  [16]  E1 22 50 46 50 46 50 46 23 23 30 75 30 75 00 00
2026-02-20T17:35:55.223126,5.000,can0  206  [24]  6F 0C 01 07 83 0C 99 C6 32 07 83 0C 77 0C 00 00 00 00 00 00 00 00 00 00
2026-02-20T17:35:55.223252,5.001,can0  204  [16]  E1 22 50 46 50 46 50 46 23 23 30 75 30 75 00 00
2026-02-20T17:35:55.318592,5.096,can0  204  [16]  E1 22 50 46 50 46 50 46 23 23 30 75 30 75 00 00
2026-02-20T17:35:55.318690,5.096,can0  204  [16]  E1 22 50 46 50 46 50 46 23 23 30 75 30 75 00 00
2026-02-20T17:35:55.417765,5.195,can0  041  [04]  10 01 07 00
2026-02-20T17:35:55.418320,5.196,can0  100  [03]  5C 3E 04
2026-02-20T17:35:55.418606,5.196,can0  110  [02]  26 1D
2026-02-20T17:35:55.418755,5.196,can0  204  [16]  E1 22 50 46 50 46 50 46 23 23 30 75 30 75 00 00
2026-02-20T17:35:55.418891,5.196,can0  204  [16]  E1 22 50 46 50 46 50 46 23 23 30 75 30 75 00 00
2026-02-20T17:35:55.523227,5.301,can0  204  [16]  E1 22 50 46 50 46 50 46 23 23 30 75 30 75 00 00
2026-02-20T17:35:55.617996,5.395,can0  204  [16]  E1 22 50 46 50 46 50 46 23 23 30 75 30 75 00 00
2026-02-20T17:35:55.620536,5.398,can0  204  [16]  E1 22 50 46 50 46 50 46 23 23 30 75 30 75 00 00
2026-02-20T17:35:55.718326,5.496,can0  041  [04]  F8 00 04 00
2026-02-20T17:35:55.718442,5.496,can0  204  [16]  E1 22 50 46 50 46 50 46 23 23 30 75 30 75 00 00
2026-02-20T17:35:55.720775,5.498,can0  204  [16]  E1 22 50 46 50 46 50 46 23 23 30 75 30 75 00 00
2026-02-20T17:35:55.817626,5.595,can0  204  [16]  E1 22 50 46 50 46 50 46 23 23 30 75 30 75 00 00
2026-02-20T17:35:55.817808,5.595,can0  204  [16]  E1 22 50 46 50 46 50 46 23 23 30 75 30 75 00 00
2026-02-20T17:35:55.917650,5.695,can0  204  [16]  E1 22 50 46 50 46 50 46 23 23 30 75 30 75 00 00
2026-02-20T17:35:55.917836,5.695,can0  206  [24]  73 0C 03 07 6F 0C DA DC 32 07 97 0C 7B 0C 00 00 00 00 00 00 00 00 00 00
2026-02-20T17:35:55.917978,5.695,can0  204  [16]  E1 22 50 46 50 46 50 46 23 23 30 75 30 75 00 00
2026-02-20T17:35:55.920277,5.698,can0  041  [04]  9F 00 02 00
2026-02-20T17:35:56.017756,5.795,can0  204  [16]  E1 22 50 46 50 46 50 46 23 23 30 75 30 75 00 00
2026-02-20T17:35:56.020223,5.798,can0  204  [16]  E1 22 50 46 50 46 50 46 23 23 30 75 30 75 00 00
2026-02-20T17:35:56.117931,5.895,can0  204  [16]  E1 22 50 46 50 46 50 46 23 23 30 75 30 75 00 00
2026-02-20T17:35:56.120261,5.898,can0  204  [16]  E1 22 50 46 50 46 50 46 23 23 30 75 30 75 00 00
2026-02-20T17:35:56.217655,5.995,can0  204  [16]  E1 22 50 46 50 46 50 46 23 23 30 75 30 75 00 00
2026-02-20T17:35:56.219195,5.997,can0  041  [04]  97 00 05 00
2026-02-20T17:35:56.220191,5.998,can0  204  [16]  E1 22 50 46 50 46 50 46 23 23 30 75 30 75 00 00
2026-02-20T17:35:56.317536,6.095,can0  204  [16]  E1 22 50 46 50 46 50 46 23 23 30 75 30 75 00 00
2026-02-20T17:35:56.320574,6.098,can0  204  [16]  E1 22 50 46 50 46 50 46 23 23 30 75 30 75 00 00
2026-02-20T17:35:56.417848,6.195,can0  204  [16]  E1 22 50 46 50 46 50 46 23 23 30 75 30 75 00 00
2026-02-20T17:35:56.417973,6.195,can0  204  [16]  E1 22 50 46 50 46 50 46 23 23 30 75 30 75 00 00
2026-02-20T17:35:56.419875,6.197,can0  041  [04]  B5 00 09 00
2026-02-20T17:35:56.517817,6.295,can0  204  [16]  E1 22 50 46 50 46 50 46 23 23 30 75 30 75 00 00
2026-02-20T17:35:56.517985,6.295,can0  206  [24]  8B 0C 01 07 6F 0C 99 C6 34 07 83 0C 6B 0C 00 00 00 00 00 00 00 00 00 00
2026-02-20T17:35:56.518108,6.295,can0  204  [16]  E1 22 50 46 50 46 50 46 23 23 30 75 30 75 00 00
2026-02-20T17:35:56.618245,6.396,can0  204  [16]  E1 22 50 46 50 46 50 46 23 23 30 75 30 75 00 00
2026-02-20T17:35:56.618391,6.396,can0  204  [16]  E1 22 50 46 50 46 50 46 23 23 30 75 30 75 00 00
2026-02-20T17:35:56.618799,6.396,can0  100  [03]  5C 3E 04
2026-02-20T17:35:56.718293,6.496,can0  204  [16]  E1 22 50 46 50 46 50 46 23 23 30 75 30 75 00 00
2026-02-20T17:35:56.720730,6.498,can0  041  [04]  10 01 09 00
2026-02-20T17:35:56.720784,6.498,can0  204  [16]  E1 22 50 46 50 46 50 46 23 23 30 75 30 75 00 00
2026-02-20T17:35:56.818286,6.596,can0  204  [16]  E1 22 50 46 50 46 50 46 23 23 30 75 30 75 00 00
2026-02-20T17:35:56.818429,6.596,can0  204  [16]  E1 22 50 46 50 46 50 46 23 23 30 75 30 75 00 00
2026-02-20T17:35:56.917540,6.695,can0  204  [16]  E1 22 50 46 50 46 50 46 23 23 30 75 30 75 00 00
2026-02-20T17:35:56.919892,6.697,can0  204  [16]  E1 22 50 46 50 46 50 46 23 23 30 75 30 75 00 00
2026-02-20T17:35:57.017488,6.795,can0  041  [04]  10 01 05 00
2026-02-20T17:35:57.017642,6.795,can0  204  [16]  E1 22 50 46 50 46 50 46 23 23 30 75 30 75 00 00
2026-02-20T17:35:57.017781,6.795,can0  204  [16]  E1 22 50 46 50 46 50 46 23 23 30 75 30 75 00 00
2026-02-20T17:35:57.118010,6.895,can0  110  [02]  28 1D
2026-02-20T17:35:57.118402,6.896,can0  204  [16]  E1 22 50 46 50 46 50 46 23 23 30 75 30 75 00 00
2026-02-20T17:35:57.118437,6.896,can0  204  [16]  E1 22 50 46 50 46 50 46 23 23 30 75 30 75 00 00
2026-02-20T17:35:57.217831,6.995,can0  206  [24]  7B 0C 05 07 73 0C 57 E3 34 07 83 0C 73 0C 00 00 00 00 00 00 00 00 00 00
2026-02-20T17:35:57.217979,6.995,can0  204  [16]  E1 22 50 46 50 46 50 46 23 23 30 75 30 75 00 00
2026-02-20T17:35:57.218122,6.995,can0  204  [16]  E1 22 50 46 50 46 50 46 23 23 30 75 30 75 00 00
2026-02-20T17:35:57.218258,6.996,can0  041  [04]  5E 00 02 00
2026-02-20T17:35:57.317871,7.095,can0  204  [16]  E1 22 50 46 50 46 50 46 23 23 30 75 30 75 00 00
2026-02-20T17:35:57.320141,7.097,can0  204  [16]  E1 22 50 46 50 46 50 46 23 23 30 75 30 75 00 00
2026-02-20T17:35:57.442687,7.220,can0  204  [16]  E1 22 50 46 50 46 50 46 23 23 30 75 30 75 00 00
2026-02-20T17:35:57.442825,7.220,can0  204  [16]  E1 22 50 46 50 46 50 46 23 23 30 75 30 75 00 00
2026-02-20T17:35:57.542859,7.320,can0  204  [16]  E1 22 50 46 50 46 50 46 23 23 30 75 30 75 00 00
2026-02-20T17:35:57.545081,7.322,can0  041  [04]  B5 00 02 00
2026-02-20T17:35:57.545242,7.323,can0  204  [16]  E1 22 50 46 50 46 50 46 23 23 30 75 30 75 00 00
2026-02-20T17:35:57.643274,7.421,can0  204  [16]  E1 22 50 46 50 46 50 46 23 23 30 75 30 75 00 00
2026-02-20T17:35:57.742861,7.520,can0  204  [16]  E1 22 50 46 50 46 50 46 23 23 30 75 30 75 00 00
2026-02-20T17:35:57.743009,7.520,can0  204  [16]  E1 22 50 46 50 46 50 46 23 23 30 75 30 75 00 00
2026-02-20T17:35:57.843442,7.621,can0  204  [16]  E1 22 50 46 50 46 50 46 23 23 30 75 30 75 00 00
2026-02-20T17:35:57.843574,7.621,can0  041  [04]  5E 00 06 00
2026-02-20T17:35:57.843718,7.621,can0  204  [16]  E1 22 50 46 50 46 50 46 23 23 30 75 30 75 00 00
2026-02-20T17:35:57.845861,7.623,can0  206  [24]  97 0C 07 07 6B 0C B1 E0 30 07 87 0C 5B 0C 00 00 00 00 00 00 00 00 00 00
2026-02-20T17:35:57.943161,7.720,can0  204  [16]  E1 22 50 46 50 46 50 46 23 23 30 75 30 75 00 00
2026-02-20T17:35:57.950601,7.728,can0  204  [16]  E1 22 50 46 50 46 50 46 23 23 30 75 30 75 00 00
2026-02-20T17:35:57.951670,7.729,can0  100  [03]  59 3E 04
2026-02-20T17:35:58.042944,7.820,can0  204  [16]  E1 22 50 46 50 46 50 46 23 23 30 75 30 75 00 00
2026-02-20T17:35:58.043112,7.820,can0  204  [16]  E1 22 50 46 50 46 50 46 23 23 30 75 30 75 00 00
2026-02-20T17:35:58.043210,7.821,can0  041  [04]  B5 00 00 00
2026-02-20T17:35:58.143053,7.920,can0  204  [16]  E1 22 50 46 50 46 50 46 23 23 30 75 30 75 00 00
2026-02-20T17:35:58.143145,7.920,can0  204  [16]  E1 22 50 46 50 46 50 46 23 23 30 75 30 75 00 00
2026-02-20T17:35:58.242772,8.020,can0  204  [16]  E1 22 50 46 50 46 50 46 23 23 30 75 30 75 00 00
2026-02-20T17:35:58.242864,8.020,can0  204  [16]  E1 22 50 46 50 46 50 46 23 23 30 75 30 75 00 00
2026-02-20T17:35:58.343126,8.120,can0  204  [16]  E1 22 50 46 50 46 50 46 23 23 30 75 30 75 00 00
2026-02-20T17:35:58.343222,8.121,can0  041  [04]  B5 00 00 00
2026-02-20T17:35:58.343317,8.121,can0  204  [16]  E1 22 50 46 50 46 50 46 23 23 30 75 30 75 00 00
2026-02-20T17:35:58.443281,8.221,can0  204  [16]  E1 22 50 46 50 46 50 46 23 23 30 75 30 75 00 00
2026-02-20T17:35:58.443391,8.221,can0  204  [16]  E1 22 50 46 50 46 50 46 23 23 30 75 30 75 00 00
2026-02-20T17:35:58.543491,8.321,can0  204  [16]  E1 22 50 46 50 46 50 46 23 23 30 75 30 75 00 00
2026-02-20T17:35:58.543632,8.321,can0  206  [24]  73 0C 03 07 6B 0C 99 C6 39 07 8B 0C 7F 0C 00 00 00 00 00 00 00 00 00 00
2026-02-20T17:35:58.543726,8.321,can0  204  [16]  E1 22 50 46 50 46 50 46 23 23 30 75 30 75 00 00
2026-02-20T17:35:58.643540,8.421,can0  204  [16]  E1 22 50 46 50 46 50 46 23 23 30 75 30 75 00 00
2026-02-20T17:35:58.643646,8.421,can0  041  [04]  B5 00 06 00
2026-02-20T17:35:58.643744,8.421,can0  204  [16]  E1 22 50 46 50 46 50 46 23 23 30 75 30 75 00 00
2026-02-20T17:35:58.743007,8.520,can0  204  [16]  E1 22 50 46 50 46 50 46 23 23 30 75 30 75 00 00
2026-02-20T17:35:58.743157,8.520,can0  204  [16]  E1 22 50 46 50 46 50 46 23 23 30 75 30 75 00 00
2026-02-20T17:35:58.824514,8.602,can0  110  [02]  25 1D
2026-02-20T17:35:58.824562,8.602,can0  204  [16]  E1 22 50 46 50 46 50 46 23 23 30 75 30 75 00 00
2026-02-20T17:35:58.824651,8.602,can0  204  [16]  E1 22 50 46 50 46 50 46 23 23 30 75 30 75 00 00
2026-02-20T17:35:58.825234,8.603,can0  041  [04]  3F 01 04 00
2026-02-20T17:35:58.942878,8.720,can0  204  [16]  E1 22 50 46 50 46 50 46 23 23 30 75 30 75 00 00
2026-02-20T17:35:58.942969,8.720,can0  204  [16]  E1 22 50 46 50 46 50 46 23 23 30 75 30 75 00 00
2026-02-20T17:35:59.043397,8.821,can0  204  [16]  E1 22 50 46 50 46 50 46 23 23 30 75 30 75 00 00
2026-02-20T17:35:59.043491,8.821,can0  204  [16]  E1 22 50 46 50 46 50 46 23 23 30 75 30 75 00 00
2026-02-20T17:35:59.143398,8.921,can0  204  [16]  E1 22 50 46 50 46 50 46 23 23 30 75 30 75 00 00
2026-02-20T17:35:59.143502,8.921,can0  041  [04]  02 00 00 00
2026-02-20T17:35:59.143623,8.921,can0  206  [24]  7B 0C FC 06 6B 0C DA DC 36 07 8B 0C 77 0C 00 00 00 00 00 00 00 00 00 00
2026-02-20T17:35:59.143718,8.921,can0  204  [16]  E1 22 50 46 50 46 50 46 23 23 30 75 30 75 00 00
2026-02-20T17:35:59.242590,9.020,can0  204  [16]  E1 22 50 46 50 46 50 46 23 23 30 75 30 75 00 00
2026-02-20T17:35:59.243029,9.020,can0  100  [03]  58 3E 04
2026-02-20T17:35:59.243176,9.021,can0  204  [16]  E1 22 50 46 50 46 50 46 23 23 30 75 30 75 00 00
2026-02-20T17:35:59.333804,9.111,can0  204  [16]  E1 22 50 46 50 46 50 46 23 23 30 75 30 75 00 00
2026-02-20T17:35:59.333953,9.111,can0  204  [16]  E1 22 50 46 50 46 50 46 23 23 30 75 30 75 00 00
2026-02-20T17:35:59.426455,9.204,can0  041  [04]  5D 00 02 00
2026-02-20T17:35:59.426567,9.204,can0  204  [16]  E1 22 50 46 50 46 50 46 23 23 30 75 30 75 00 00
2026-02-20T17:35:59.426671,9.204,can0  204  [16]  E1 22 50 46 50 46 50 46 23 23 30 75 30 75 00 00
2026-02-20T17:35:59.542855,9.320,can0  204  [16]  E1 22 50 46 50 46 50 46 23 23 30 75 30 75 00 00
2026-02-20T17:35:59.542996,9.320,can0  204  [16]  E1 22 50 46 50 46 50 46 23 23 30 75 30 75 00 00
2026-02-20T17:35:59.642999,9.420,can0  204  [16]  E1 22 50 46 50 46 50 46 23 23 30 75 30 75 00 00
2026-02-20T17:35:59.643145,9.420,can0  041  [04]  5E 00 02 00
2026-02-20T17:35:59.643273,9.421,can0  204  [16]  E1 22 50 46 50 46 50 46 23 23 30 75 30 75 00 00
2026-02-20T17:35:59.742589,9.520,can0  204  [16]  E1 22 50 46 50 46 50 46 23 23 30 75 30 75 00 00
2026-02-20T17:35:59.744854,9.522,can0  204  [16]  E1 22 50 46 50 46 50 46 23 23 30 75 30 75 00 00
2026-02-20T17:35:59.842779,9.620,can0  206  [24]  6F 0C FC 06 73 0C 99 C6 30 07 7F 0C 7B 0C 00 00 00 00 00 00 00 00 00 00
2026-02-20T17:35:59.842927,9.620,can0  204  [16]  E1 22 50 46 50 46 50 46 23 23 30 75 30 75 00 00
2026-02-20T17:35:59.845146,9.622,can0  204  [16]  E1 22 50 46 50 46 50 46 23 23 30 75 30 75 00 00
2026-02-20T17:35:59.942525,9.720,can0  204  [16]  E1 22 50 46 50 46 50 46 23 23 30 75 30 75 00 00
2026-02-20T17:35:59.942658,9.720,can0  041  [04]  9F 00 06 00
2026-02-20T17:35:59.942785,9.720,can0  204  [16]  E1 22 50 46 50 46 50 46 23 23 30 75 30 75 00 00
2026-02-20T17:36:00.042967,9.820,can0  204  [16]  E1 22 50 46 50 46 50 46 23 23 30 75 30 75 00 00
2026-02-20T17:36:00.043144,9.820,can0  204  [16]  E1 22 50 46 50 46 50 46 23 23 30 75 30 75 00 00
2026-02-20T17:36:00.142781,9.920,can0  204  [16]  E1 22 50 46 50 46 50 46 23 23 30 75 30 75 00 00
2026-02-20T17:36:00.145272,9.923,can0  204  [16]  E1 22 50 46 50 46 50 46 23 23 30 75 30 75 00 00
2026-02-20T17:36:00.242960,10.020,can0  041  [04]  9F 00 08 00
2026-02-20T17:36:00.243117,10.020,can0  204  [16]  E1 22 50 46 50 46 50 46 23 23 30 75 30 75 00 00
2026-02-20T17:36:00.245431,10.023,can0  204  [16]  E1 22 50 46 50 46 50 46 23 23 30 75 30 75 00 00
2026-02-20T17:36:00.342532,10.120,can0  204  [16]  E1 22 50 46 50 46 50 46 23 23 30 75 30 75 00 00
2026-02-20T17:36:00.442697,10.220,can0  204  [16]  E1 22 50 46 50 46 50 46 23 23 30 75 30 75 00 00
2026-02-20T17:36:00.442841,10.220,can0  204  [16]  E1 22 50 46 50 46 50 46 23 23 30 75 30 75 00 00
2026-02-20T17:36:00.442989,10.220,can0  206  [24]  6F 0C 07 07 7F 0C DA DC 32 07 8B 0C 73 0C 00 00 00 00 00 00 00 00 00 00
2026-02-20T17:36:00.443097,10.220,can0  041  [04]  97 00 09 00
2026-02-20T17:36:00.443702,10.221,can0  100  [03]  5A 3E 04
2026-02-20T17:36:00.443723,10.221,can0  110  [02]  26 1D
2026-02-20T17:36:00.542822,10.320,can0  204  [16]  E1 22 50 46 50 46 50 46 23 23 30 75 30 75 00 00
2026-02-20T17:36:00.542969,10.320,can0  204  [16]  E1 22 50 46 50 46 50 46 23 23 30 75 30 75 00 00
2026-02-20T17:36:00.642890,10.420,can0  204  [16]  E1 22 50 46 50 46 50 46 23 23 30 75 30 75 00 00
2026-02-20T17:36:00.643038,10.420,can0  204  [16]  E1 22 50 46 50 46 50 46 23 23 30 75 30 75 00 00
2026-02-20T17:36:00.743093,10.520,can0  204  [16]  E1 22 50 46 50 46 50 46 23 23 30 75 30 75 00 00
2026-02-20T17:36:00.743249,10.521,can0  041  [04]  7A 00 08 00
2026-02-20T17:36:00.743423,10.521,can0  204  [16]  E1 22 50 46 50 46 50 46 23 23 30 75 30 75 00 00
2026-02-20T17:36:00.843090,10.620,can0  204  [16]  E1 22 50 46 50 46 50 46 23 23 30 75 30 75 00 00
2026-02-20T17:36:00.843229,10.621,can0  204  [16]  E1 22 50 46 50 46 50 46 23 23 30 75 30 75 00 00
2026-02-20T17:36:00.871100,10.648,can0   00  [04]  0d 85 30 10 0
2026-02-20T17:36:00.943259,10.721,can0  204  [16]  E1 22 50 46 50 46 50 46 23 23 30 75 30 75 00 00
2026-02-20T17:36:00.943327,10.721,can0  002  [04]  D8 53 01 00
2026-02-20T17:36:00.943582,10.721,can0  204  [16]  E1 22 50 46 50 46 50 46 23 23 30 75 30 75 00 00
2026-02-20T17:36:01.034467,10.812,can0  204  [16]  E1 22 50 46 50 46 50 46 23 23 30 75 30 75 00 00
2026-02-20T17:36:01.034653,10.812,can0  041  [04]  74 00 07 00
2026-02-20T17:36:01.034807,10.812,can0  204  [16]  E1 22 50 46 50 46 50 46 23 23 30 75 30 75 00 00
2026-02-20T17:36:01.097367,10.875,can0   00  [04]  02 04 80 10 0
2026-02-20T17:36:01.126276,10.904,can0  206  [24]  77 0C 03 07 6F 0C B1 E0 32 07 93 0C 77 0C 00 00 00 00 00 00 00 00 00 00
2026-02-20T17:36:01.126446,10.904,can0  204  [16]  E1 22 50 46 50 46 50 46 23 23 30 75 30 75 00 00
2026-02-20T17:36:01.126616,10.904,can0  204  [16]  E1 22 50 46 50 46 50 46 23 23 30 75 30 75 00 00
2026-02-20T17:36:01.126664,10.904,can0  002  [04]  20 48 01 00
2026-02-20T17:36:01.243918,11.021,can0  204  [16]  E1 22 50 46 50 46 50 46 23 23 30 75 30 75 00 00
2026-02-20T17:36:01.244072,11.021,can0  204  [16]  E1 22 50 46 50 46 50 46 23 23 30 75 30 75 00 00
2026-02-20T17:36:01.244206,11.022,can0  041  [04]  74 00 04 00
2026-02-20T17:36:01.280477,11.058,can0   00  [04]  06 83 c0 10 0
2026-02-20T17:36:01.343277,11.121,can0  204  [16]  E1 22 50 46 50 46 50 46 23 23 30 75 30 75 00 00
2026-02-20T17:36:01.343367,11.121,can0  002  [04]  68 3C 01 00
2026-02-20T17:36:01.343653,11.121,can0  204  [16]  E1 22 50 46 50 46 50 46 23 23 30 75 30 75 00 00
2026-02-20T17:36:01.410603,11.188,can0   00  [04]  0b 03 00 10 0
2026-02-20T17:36:01.438431,11.216,can0  204  [16]  E1 22 50 46 50 46 50 46 23 23 30 75 30 75 00 00
2026-02-20T17:36:01.438547,11.216,can0  204  [16]  E1 22 50 46 50 46 50 46 23 23 30 75 30 75 00 00
2026-02-20T17:36:01.438617,11.216,can0  002  [04]  B0 30 01 00
2026-02-20T17:36:01.545756,11.323,can0  204  [16]  E1 22 50 46 50 46 50 46 23 23 30 75 30 75 00 00
2026-02-20T17:36:01.545877,11.323,can0  041  [04]  74 00 04 00
2026-02-20T17:36:01.546020,11.323,can0  204  [16]  E1 22 50 46 50 46 50 46 23 23 30 75 30 75 00 00
2026-02-20T17:36:01.578733,11.356,can0   00  [04]  0f 82 40 10 0
2026-02-20T17:36:01.643061,11.420,can0  204  [16]  E1 22 50 46 50 46 50 46 23 23 30 75 30 75 00 00
2026-02-20T17:36:01.643137,11.420,can0  002  [04]  F8 24 01 00
2026-02-20T17:36:01.646308,11.424,can0  204  [16]  E1 22 50 46 50 46 50 46 23 23 30 75 30 75 00 00
2026-02-20T17:36:01.722538,11.500,can0   00  [04]  04 01 90 10 0
2026-02-20T17:36:01.724994,11.502,can0  204  [16]  E1 22 50 46 50 46 50 46 23 23 30 75 30 75 00 00
2026-02-20T17:36:01.725050,11.502,can0  100  [03]  60 3E 04
2026-02-20T17:36:01.728139,11.505,can0  206  [24]  73 0C FF 06 7B 0C A0 E2 34 07 7B 0C 77 0C 00 00 00 00 00 00 00 00 00 00
2026-02-20T17:36:01.728451,11.506,can0  204  [16]  E1 22 50 46 50 46 50 46 23 23 30 75 30 75 00 00
2026-02-20T17:36:01.728486,11.506,can0  002  [04]  40 19 01 00
2026-02-20T17:36:01.843500,11.621,can0  041  [04]  83 00 04 00
2026-02-20T17:36:01.843634,11.621,can0  204  [16]  E1 22 50 46 50 46 50 46 23 23 30 75 30 75 00 00
2026-02-20T17:36:01.843767,11.621,can0  204  [16]  E1 22 50 46 50 46 50 46 23 23 30 75 30 75 00 00
2026-02-20T17:36:01.873927,11.651,can0   00  [04]  08 80 d0 10 0
2026-02-20T17:36:01.942820,11.720,can0  204  [16]  E1 22 50 46 50 46 50 46 23 23 30 75 30 75 00 00
2026-02-20T17:36:01.942973,11.720,can0  002  [04]  88 0D 01 00
2026-02-20T17:36:01.948132,11.725,can0  204  [16]  E1 22 50 46 50 46 50 46 23 23 30 75 30 75 00 00
2026-02-20T17:36:02.036632,11.814,can0  204  [16]  E1 22 50 46 50 46 50 46 23 23 30 75 30 75 00 00
2026-02-20T17:36:02.036736,11.814,can0  041  [04]  8B 00 05 00
2026-02-20T17:36:02.036838,11.814,can0  204  [16]  E1 22 50 46 50 46 50 46 23 23 30 75 30 75 00 00
2026-02-20T17:36:02.040387,11.818,can0   00  [04]  0d 00 10 10 0
2026-02-20T17:36:02.127541,11.905,can0  002  [04]  D0 01 01 00
2026-02-20T17:36:02.127852,11.905,can0  204  [16]  E1 22 50 46 50 46 50 46 23 23 30 75 30 75 00 00
2026-02-20T17:36:02.128267,11.906,can0  110  [02]  26 1D
2026-02-20T17:36:02.128437,11.906,can0  204  [16]  E1 22 50 46 50 46 50 46 23 23 30 75 30 75 00 00
2026-02-20T17:36:02.189213,11.967,can0   00  [04]  01 8f 60 00 0
2026-02-20T17:36:02.225984,12.003,can0  204  [16]  E1 22 50 46 50 46 50 46 23 23 30 75 30 75 00 00
2026-02-20T17:36:02.226047,12.003,can0  002  [04]  18 F6 00 00
2026-02-20T17:36:02.229072,12.006,can0  204  [16]  E1 22 50 46 50 46 50 46 23 23 30 75 30 75 00 00
2026-02-20T17:36:02.325667,12.103,can0  204  [16]  E1 22 50 46 50 46 50 46 23 23 30 75 30 75 00 00
2026-02-20T17:36:02.325800,12.103,can0  041  [04]  6C 00 04 00
2026-02-20T17:36:02.325920,12.103,can0  204  [16]  E1 22 50 46 50 46 50 46 23 23 30 75 30 75 00 00
2026-02-20T17:36:02.339307,12.117,can0   00  [04]  06 0e a0 00 0
2026-02-20T17:36:02.442938,12.220,can0  206  [24]  77 0C 03 07 77 0C DA DC 32 07 83 0C 73 0C 00 00 00 00 00 00 00 00 00 00
2026-02-20T17:36:02.443014,12.220,can0  002  [04]  60 EA 00 00
2026-02-20T17:36:02.443314,12.221,can0  204  [16]  E1 22 50 46 50 46 50 46 23 23 30 75 30 75 00 00
2026-02-20T17:36:02.443421,12.221,can0  204  [16]  E1 22 50 46 50 46 50 46 23 23 30 75 30 75 00 00
2026-02-20T17:36:02.475553,12.253,can0   00  [04]  0a 8d e0 00 0
2026-02-20T17:36:02.525549,12.303,can0  204  [16]  E1 22 50 46 50 46 50 46 23 23 30 75 30 75 00 00
2026-02-20T17:36:02.525622,12.303,can0  002  [04]  A8 DE 00 00
2026-02-20T17:36:02.528956,12.306,can0  204  [16]  E1 22 50 46 50 46 50 46 23 23 30 75 30 75 00 00
2026-02-20T17:36:02.645668,12.423,can0  041  [04]  5E 00 05 00
2026-02-20T17:36:02.645768,12.423,can0  204  [16]  E1 22 50 46 50 46 50 46 23 23 30 75 30 75 00 00
2026-02-20T17:36:02.743124,12.520,can0  204  [16]  E1 22 50 46 50 46 50 46 23 23 30 75 30 75 00 00
2026-02-20T17:36:02.743380,12.521,can0  204  [16]  E1 22 50 46 50 46 50 46 23 23 30 75 30 75 00 00
2026-02-20T17:36:02.843277,12.621,can0  204  [16]  E1 22 50 46 50 46 50 46 23 23 30 75 30 75 00 00
2026-02-20T17:36:02.843374,12.621,can0  204  [16]  E1 22 50 46 50 46 50 46 23 23 30 75 30 75 00 00
2026-02-20T17:36:02.843468,12.621,can0  041  [04]  8B 00 05 00
2026-02-20T17:36:02.943407,12.721,can0  204  [16]  E1 22 50 46 50 46 50 46 23 23 30 75 30 75 00 00
2026-02-20T17:36:02.950940,12.728,can0  204  [16]  E1 22 50 46 50 46 50 46 23 23 30 75 30 75 00 00
2026-02-20T17:36:03.006460,12.784,can0   00  [04]  09 05 f0 10 0
2026-02-20T17:36:03.043097,12.820,can0  204  [16]  E1 22 50 46 50 46 50 46 23 23 30 75 30 75 00 00
2026-02-20T17:36:03.043462,12.821,can0  100  [03]  5E 3E 04
2026-02-20T17:36:03.043596,12.821,can0  204  [16]  E1 22 50 46 50 46 50 46 23 23 30 75 30 75 00 00
2026-02-20T17:36:03.043740,12.821,can0  206  [24]  77 0C 07 07 6B 0C DA DC 30 07 87 0C 77 0C 00 00 00 00 00 00 00 00 00 00
2026-02-20T17:36:03.043790,12.821,can0  002  [04]  90 5F 01 00
2026-02-20T17:36:03.145777,12.923,can0  204  [16]  E1 22 50 46 50 46 50 46 23 23 30 75 30 75 00 00
2026-02-20T17:36:03.145876,12.923,can0  041  [04]  71 00 04 00
2026-02-20T17:36:03.145974,12.923,can0  204  [16]  E1 22 50 46 50 46 50 46 23 23 30 75 30 75 00 00
2026-02-20T17:36:03.242766,13.020,can0  204  [16]  E1 22 50 46 50 46 50 46 23 23 30 75 30 75 00 00
2026-02-20T17:36:03.242876,13.020,can0  204  [16]  E1 22 50 46 50 46 50 46 23 23 30 75 30 75 00 00
2026-02-20T17:36:03.342687,13.120,can0  204  [16]  E1 22 50 46 50 46 50 46 23 23 30 75 30 75 00 00
2026-02-20T17:36:03.343025,13.120,can0  204  [16]  E1 22 50 46 50 46 50 46 23 23 30 75 30 75 00 00
2026-02-20T17:36:03.443024,13.220,can0  041  [04]  5E 00 05 00
2026-02-20T17:36:03.445558,13.223,can0  204  [16]  E1 22 50 46 50 46 50 46 23 23 30 75 30 75 00 00
2026-02-20T17:36:03.445595,13.223,can0  204  [16]  E1 22 50 46 50 46 50 46 23 23 30 75 30 75 00 00
2026-02-20T17:36:03.542766,13.320,can0  204  [16]  E1 22 50 46 50 46 50 46 23 23 30 75 30 75 00 00
2026-02-20T17:36:03.545269,13.323,can0  204  [16]  E1 22 50 46 50 46 50 46 23 23 30 75 30 75 00 00
2026-02-20T17:36:03.643410,13.421,can0  204  [16]  E1 22 50 46 50 46 50 46 23 23 30 75 30 75 00 00
2026-02-20T17:36:03.643527,13.421,can0  204  [16]  E1 22 50 46 50 46 50 46 23 23 30 75 30 75 00 00
2026-02-20T17:36:03.646082,13.423,can0  041  [04]  02 00 06 00
2026-02-20T17:36:03.742760,13.520,can0  206  [24]  7F 0C 12 07 7F 0C 99 C6 30 07 7F 0C 6F 0C 00 00 00 00 00 00 00 00 00 00
2026-02-20T17:36:03.742926,13.520,can0  204  [16]  E1 22 50 46 50 46 50 46 23 23 30 75 30 75 00 00
2026-02-20T17:36:03.743066,13.520,can0  204  [16]  E1 22 50 46 50 46 50 46 23 23 30 75 30 75 00 00
2026-02-20T17:36:03.842839,13.620,can0  204  [16]  E1 22 50 46 50 46 50 46 23 23 30 75 30 75 00 00
2026-02-20T17:36:03.843190,13.621,can0  110  [02]  25 1D
2026-02-20T17:36:03.843446,13.621,can0  204  [16]  E1 22 50 46 50 46 50 46 23 23 30 75 30 75 00 00
2026-02-20T17:36:03.942736,13.720,can0  204  [16]  E1 22 50 46 50 46 50 46 23 23 30 75 30 75 00 00
2026-02-20T17:36:03.943009,13.720,can0  041  [04]  5A 01 07 00
2026-02-20T17:36:03.943286,13.721,can0  204  [16]  E1 22 50 46 50 46 50 46 23 23 30 75 30 75 00 00
2026-02-20T17:36:04.042893,13.820,can0  204  [16]  E1 22 50 46 50 46 50 46 23 23 30 75 30 75 00 00
2026-02-20T17:36:04.043053,13.820,can0  204  [16]  E1 22 50 46 50 46 50 46 23 23 30 75 30 75 00 00
2026-02-20T17:36:04.142879,13.920,can0  204  [16]  E1 22 50 46 50 46 50 46 23 23 30 75 30 75 00 00
2026-02-20T17:36:04.145821,13.923,can0  204  [16]  E1 22 50 46 50 46 50 46 23 23 30 75 30 75 00 00
2026-02-20T17:36:04.243454,14.021,can0  041  [04]  3F 01 04 00
2026-02-20T17:36:04.243619,14.021,can0  204  [16]  E1 22 50 46 50 46 50 46 23 23 30 75 30 75 00 00
2026-02-20T17:36:04.243850,14.021,can0  204  [16]  E1 22 50 46 50 46 50 46 23 23 30 75 30 75 00 00
2026-02-20T17:36:04.244278,14.022,can0  100  [03]  62 3E 04
2026-02-20T17:36:04.343191,14.121,can0  204  [16]  E1 22 50 46 50 46 50 46 23 23 30 75 30 75 00 00
2026-02-20T17:36:04.343358,14.121,can0  206  [24]  77 0C 05 07 6F 0C 99 C6 34 07 8B 0C 77 0C 00 00 00 00 00 00 00 00 00 00
2026-02-20T17:36:04.345958,14.123,can0  204  [16]  E1 22 50 46 50 46 50 46 23 23 30 75 30 75 00 00
2026-02-20T17:36:04.442620,14.220,can0  204  [16]  E1 22 50 46 50 46 50 46 23 23 30 75 30 75 00 00
2026-02-20T17:36:04.442721,14.220,can0  041  [04]  2F 00 04 00
2026-02-20T17:36:04.442818,14.220,can0  204  [16]  E1 22 50 46 50 46 50 46 23 23 30 75 30 75 00 00
2026-02-20T17:36:04.576430,14.354,can0  204  [16]  E1 22 50 46 50 46 50 46 23 23 30 75 30 75 00 00
2026-02-20T17:36:04.578311,14.356,can0  204  [16]  E1 22 50 46 50 46 50 46 23 23 30 75 30 75 00 00
2026-02-20T17:36:04.635790,14.413,can0  204  [16]  E1 22 50 46 50 46 50 46 23 23 30 75 30 75 00 00
2026-02-20T17:36:04.635940,14.413,can0  204  [16]  E1 22 50 46 50 46 50 46 23 23 30 75 30 75 00 00
2026-02-20T17:36:04.744017,14.521,can0  041  [04]  10 01 02 00
2026-02-20T17:36:04.744201,14.522,can0  204  [16]  E1 22 50 46 50 46 50 46 23 23 30 75 30 75 00 00
2026-02-20T17:36:04.744376,14.522,can0  204  [16]  E1 22 50 46 50 46 50 46 23 23 30 75 30 75 00 00
2026-02-20T17:36:04.843175,14.621,can0  204  [16]  E1 22 50 46 50 46 50 46 23 23 30 75 30 75 00 00
2026-02-20T17:36:04.843325,14.621,can0  204  [16]  E1 22 50 46 50 46 50 46 23 23 30 75 30 75 00 00
2026-02-20T17:36:04.942666,14.720,can0  204  [16]  E1 22 50 46 50 46 50 46 23 23 30 75 30 75 00 00
2026-02-20T17:36:05.042551,14.820,can0  204  [16]  E1 22 50 46 50 46 50 46 23 23 30 75 30 75 00 00
2026-02-20T17:36:05.042687,14.820,can0  041  [04]  E4 00 02 00
2026-02-20T17:36:05.042829,14.820,can0  206  [24]  7B 0C 0E 07 6F 0C 99 C6 32 07 8F 0C 77 0C 00 00 00 00 00 00 00 00 00 00
2026-02-20T17:36:05.045649,14.823,can0  204  [16]  E1 22 50 46 50 46 50 46 23 23 30 75 30 75 00 00
2026-02-20T17:36:05.143251,14.921,can0  204  [16]  E1 22 50 46 50 46 50 46 23 23 30 75 30 75 00 00
2026-02-20T17:36:05.143392,14.921,can0  204  [16]  E1 22 50 46 50 46 50 46 23 23 30 75 30 75 00 00
2026-02-20T17:36:05.146055,14.923,can0  204  [16]  E1 22 50 46 50 46 50 46 23 23 30 75 30 75 00 00
2026-02-20T17:36:05.243429,15.021,can0  204  [16]  E1 22 50 46 50 46 50 46 23 23 30 75 30 75 00 00
2026-02-20T17:36:05.243567,15.021,can0  041  [04]  E4 00 04 00
2026-02-20T17:36:05.342623,15.120,can0  204  [16]  E1 22 50 46 50 46 50 46 23 23 30 75 30 75 00 00
2026-02-20T17:36:05.342767,15.120,can0  204  [16]  E1 22 50 46 50 46 50 46 23 23 30 75 30 75 00 00
2026-02-20T17:36:05.442646,15.220,can0  204  [16]  E1 22 50 46 50 46 50 46 23 23 30 75 30 75 00 00
2026-02-20T17:36:05.442794,15.220,can0  204  [16]  E1 22 50 46 50 46 50 46 23 23 30 75 30 75 00 00
2026-02-20T17:36:05.543361,15.321,can0  204  [16]  E1 22 50 46 50 46 50 46 23 23 30 75 30 75 00 00
2026-02-20T17:36:05.543497,15.321,can0  041  [04]  5E 00 08 00
2026-02-20T17:36:05.543796,15.321,can0  100  [03]  61 3E 04
2026-02-20T17:36:05.544017,15.321,can0  110  [02]  25 1D
2026-02-20T17:36:05.544155,15.321,can0  204  [16]  E1 22 50 46 50 46 50 46 23 23 30 75 30 75 00 00
2026-02-20T17:36:05.643444,15.421,can0  204  [16]  E1 22 50 46 50 46 50 46 23 23 30 75 30 75 00 00
2026-02-20T17:36:05.643612,15.421,can0  206  [24]  77 0C 01 07 6F 0C 99 C6 32 07 8B 0C 77 0C 00 00 00 00 00 00 00 00 00 00
2026-02-20T17:36:05.643766,15.421,can0  204  [16]  E1 22 50 46 50 46 50 46 23 23 30 75 30 75 00 00
2026-02-20T17:36:05.743325,15.521,can0  204  [16]  E1 22 50 46 50 46 50 46 23 23 30 75 30 75 00 00
2026-02-20T17:36:05.743439,15.521,can0  204  [16]  E1 22 50 46 50 46 50 46 23 23 30 75 30 75 00 00
2026-02-20T17:36:05.843384,15.621,can0  041  [04]  5E 00 06 00
2026-02-20T17:36:05.843536,15.621,can0  204  [16]  E1 22 50 46 50 46 50 46 23 23 30 75 30 75 00 00
2026-02-20T17:36:05.845566,15.623,can0  204  [16]  E1 22 50 46 50 46 50 46 23 23 30 75 30 75 00 00
2026-02-20T17:36:05.942727,15.720,can0  204  [16]  E1 22 50 46 50 46 50 46 23 23 30 75 30 75 00 00
2026-02-20T17:36:05.942872,15.720,can0  204  [16]  E1 22 50 46 50 46 50 46 23 23 30 75 30 75 00 00
2026-02-20T17:36:06.043436,15.821,can0  204  [16]  E1 22 50 46 50 46 50 46 23 23 30 75 30 75 00 00
2026-02-20T17:36:06.043573,15.821,can0  041  [04]  6A 00 00 00
2026-02-20T17:36:06.045884,15.823,can0  204  [16]  E1 22 50 46 50 46 50 46 23 23 30 75 30 75 00 00
2026-02-20T17:36:06.143259,15.921,can0  204  [16]  E1 22 50 46 50 46 50 46 23 23 30 75 30 75 00 00
2026-02-20T17:36:06.143402,15.921,can0  204  [16]  E1 22 50 46 50 46 50 46 23 23 30 75 30 75 00 00
2026-02-20T17:36:06.243298,16.021,can0  204  [16]  E1 22 50 46 50 46 50 46 23 23 30 75 30 75 00 00
2026-02-20T17:36:06.243447,16.021,can0  204  [16]  E1 22 50 46 50 46 50 46 23 23 30 75 30 75 00 00
2026-02-20T17:36:06.342825,16.120,can0  206  [24]  7B 0C 03 07 7B 0C DA DC 2E 07 87 0C 6F 0C 00 00 00 00 00 00 00 00 00 00
2026-02-20T17:36:06.342977,16.120,can0  204  [16]  E1 22 50 46 50 46 50 46 23 23 30 75 30 75 00 00
2026-02-20T17:36:06.343103,16.120,can0  041  [04]  9F 00 07 00
2026-02-20T17:36:06.345551,16.123,can0  204  [16]  E1 22 50 46 50 46 50 46 23 23 30 75 30 75 00 00
2026-02-20T17:36:06.443279,16.221,can0  204  [16]  E1 22 50 46 50 46 50 46 23 23 30 75 30 75 00 00
2026-02-20T17:36:06.443422,16.221,can0  204  [16]  E1 22 50 46 50 46 50 46 23 23 30 75 30 75 00 00
2026-02-20T17:36:06.543178,16.321,can0  204  [16]  E1 22 50 46 50 46 50 46 23 23 30 75 30 75 00 00
2026-02-20T17:36:06.543326,16.321,can0  204  [16]  E1 22 50 46 50 46 50 46 23 23 30 75 30 75 00 00
2026-02-20T17:36:06.642980,16.420,can0  041  [04]  6C 00 00 00
2026-02-20T17:36:06.643122,16.420,can0  204  [16]  E1 22 50 46 50 46 50 46 23 23 30 75 30 75 00 00
2026-02-20T17:36:06.643253,16.421,can0  204  [16]  E1 22 50 46 50 46 50 46 23 23 30 75 30 75 00 00
2026-02-20T17:36:06.742536,16.520,can0  204  [16]  E1 22 50 46 50 46 50 46 23 23 30 75 30 75 00 00
2026-02-20T17:36:06.742677,16.520,can0  204  [16]  E1 22 50 46 50 46 50 46 23 23 30 75 30 75 00 00
2026-02-20T17:36:06.842987,16.620,can0  100  [03]  63 3E 04
2026-02-20T17:36:06.843148,16.620,can0  204  [16]  E1 22 50 46 50 46 50 46 23 23 30 75 30 75 00 00
2026-02-20T17:36:06.843291,16.621,can0  041  [04]  5E 00 00 00
2026-02-20T17:36:06.845502,16.623,can0  204  [16]  E1 22 50 46 50 46 50 46 23 23 30 75 30 75 00 00
2026-02-20T17:36:06.942565,16.720,can0  204  [16]  E1 22 50 46 50 46 50 46 23 23 30 75 30 75 00 00
2026-02-20T17:36:06.942750,16.720,can0  206  [24]  97 0C 07 07 6F 0C DA DC 2E 07 87 0C 5B 0C 00 00 00 00 00 00 00 00 00 00
2026-02-20T17:36:06.942894,16.720,can0  204  [16]  E1 22 50 46 50 46 50 46 23 23 30 75 30 75 00 00
2026-02-20T17:36:07.042874,16.820,can0  204  [16]  E1 22 50 46 50 46 50 46 23 23 30 75 30 75 00 00
2026-02-20T17:36:07.043021,16.820,can0  204  [16]  E1 22 50 46 50 46 50 46 23 23 30 75 30 75 00 00
2026-02-20T17:36:07.142538,16.920,can0  041  [04]  B5 00 02 00
2026-02-20T17:36:07.142687,16.920,can0  204  [16]  E1 22 50 46 50 46 50 46 23 23 30 75 30 75 00 00
2026-02-20T17:36:07.145014,16.922,can0  204  [16]  E1 22 50 46 50 46 50 46 23 23 30 75 30 75 00 00
2026-02-20T17:36:07.242806,17.020,can0  110  [02]  26 1D
2026-02-20T17:36:07.242957,17.020,can0  204  [16]  E1 22 50 46 50 46 50 46 23 23 30 75 30 75 00 00
2026-02-20T17:36:07.243089,17.020,can0  204  [16]  E1 22 50 46 50 46 50 46 23 23 30 75 30 75 00 00
2026-02-20T17:36:07.343438,17.121,can0  204  [16]  E1 22 50 46 50 46 50 46 23 23 30 75 30 75 00 00
2026-02-20T17:36:07.343578,17.121,can0  204  [16]  E1 22 50 46 50 46 50 46 23 23 30 75 30 75 00 00
2026-02-20T17:36:07.343696,17.121,can0  041  [04]  5D 00 00 00
2026-02-20T17:36:07.442949,17.220,can0  204  [16]  E1 22 50 46 50 46 50 46 23 23 30 75 30 75 00 00
2026-02-20T17:36:07.443091,17.220,can0  204  [16]  E1 22 50 46 50 46 50 46 23 23 30 75 30 75 00 00
2026-02-20T17:36:07.543130,17.320,can0  204  [16]  E1 22 50 46 50 46 50 46 23 23 30 75 30 75 00 00
2026-02-20T17:36:07.642919,17.420,can0  204  [16]  E1 22 50 46 50 46 50 46 23 23 30 75 30 75 00 00
2026-02-20T17:36:07.643088,17.420,can0  206  [24]  7F 0C 09 07 6F 0C DA DC 36 07 87 0C 73 0C 00 00 00 00 00 00 00 00 00 00
2026-02-20T17:36:07.643230,17.421,can0  204  [16]  E1 22 50 46 50 46 50 46 23 23 30 75 30 75 00 00
2026-02-20T17:36:07.643353,17.421,can0  041  [04]  2F 00 02 00
2026-02-20T17:36:07.742602,17.520,can0  204  [16]  E1 22 50 46 50 46 50 46 23 23 30 75 30 75 00 00
2026-02-20T17:36:07.742746,17.520,can0  204  [16]  E1 22 50 46 50 46 50 46 23 23 30 75 30 75 00 00
2026-02-20T17:36:07.842498,17.620,can0  204  [16]  E1 22 50 46 50 46 50 46 23 23 30 75 30 75 00 00
2026-02-20T17:36:07.842641,17.620,can0  204  [16]  E1 22 50 46 50 46 50 46 23 23 30 75 30 75 00 00
2026-02-20T17:36:07.942562,17.720,can0  204  [16]  E1 22 50 46 50 46 50 46 23 23 30 75 30 75 00 00
2026-02-20T17:36:07.942697,17.720,can0  041  [04]  5D 00 02 00
2026-02-20T17:36:07.942832,17.720,can0  204  [16]  E1 22 50 46 50 46 50 46 23 23 30 75 30 75 00 00
2026-02-20T17:36:08.042493,17.820,can0  204  [16]  E1 22 50 46 50 46 50 46 23 23 30 75 30 75 00 00
2026-02-20T17:36:08.050008,17.827,can0  204  [16]  E1 22 50 46 50 46 50 46 23 23 30 75 30 75 00 00
2026-02-20T17:36:08.050519,17.828,can0  100  [03]  64 3E 04
2026-02-20T17:36:08.142675,17.920,can0  204  [16]  E1 22 50 46 50 46 50 46 23 23 30 75 30 75 00 00
2026-02-20T17:36:08.143632,17.921,can0  204  [16]  E1 22 50 46 50 46 50 46 23 23 30 75 30 75 00 00
2026-02-20T17:36:08.146258,17.924,can0  041  [04]  F8 00 02 00
2026-02-20T17:36:08.246855,18.024,can0  204  [16]  E1 22 50 46 50 46 50 46 23 23 30 75 30 75 00 00
2026-02-20T17:36:08.247027,18.024,can0  206  [24]  87 0C 01 07 6F 0C 99 C6 36 07 87 0C 6B 0C 00 00 00 00 00 00 00 00 00 00
2026-02-20T17:36:08.247154,18.024,can0  204  [16]  E1 22 50 46 50 46 50 46 23 23 30 75 30 75 00 00
2026-02-20T17:36:08.355396,18.133,can0  204  [16]  E1 22 50 46 50 46 50 46 23 23 30 75 30 75 00 00
2026-02-20T17:36:08.355558,18.133,can0  204  [16]  E1 22 50 46 50 46 50 46 23 23 30 75 30 75 00 00
2026-02-20T17:36:08.455695,18.233,can0  204  [16]  E1 22 50 46 50 46 50 46 23 23 30 75 30 75 00 00
2026-02-20T17:36:08.455825,18.233,can0  041  [04]  3F 01 00 00
2026-02-20T17:36:08.455956,18.233,can0  204  [16]  E1 22 50 46 50 46 50 46 23 23 30 75 30 75 00 00
2026-02-20T17:36:08.554718,18.332,can0  204  [16]  E1 22 50 46 50 46 50 46 23 23 30 75 30 75 00 00
2026-02-20T17:36:08.554870,18.332,can0  204  [16]  E1 22 50 46 50 46 50 46 23 23 30 75 30 75 00 00
2026-02-20T17:36:08.654453,18.432,can0  204  [16]  E1 22 50 46 50 46 50 46 23 23 30 75 30 75 00 00
2026-02-20T17:36:08.654607,18.432,can0  204  [16]  E1 22 50 46 50 46 50 46 23 23 30 75 30 75 00 00
2026-02-20T17:36:08.754501,18.532,can0  204  [16]  E1 22 50 46 50 46 50 46 23 23 30 75 30 75 00 00
2026-02-20T17:36:08.754644,18.532,can0  041  [04]  8B 00 00 00
2026-02-20T17:36:08.754826,18.532,can0  204  [16]  E1 22 50 46 50 46 50 46 23 23 30 75 30 75 00 00
2026-02-20T17:36:08.846046,18.623,can0  204  [16]  E1 22 50 46 50 46 50 46 23 23 30 75 30 75 00 00
2026-02-20T17:36:08.846206,18.624,can0  204  [16]  E1 22 50 46 50 46 50 46 23 23 30 75 30 75 00 00
2026-02-20T17:36:08.942678,18.720,can0  206  [24]  73 0C FF 06 77 0C 99 C6 32 07 87 0C 77 0C 00 00 00 00 00 00 00 00 00 00
2026-02-20T17:36:08.942986,18.720,can0  110  [02]  25 1D
2026-02-20T17:36:08.943109,18.720,can0  204  [16]  E1 22 50 46 50 46 50 46 23 23 30 75 30 75 00 00
2026-02-20T17:36:08.943214,18.721,can0  204  [16]  E1 22 50 46 50 46 50 46 23 23 30 75 30 75 00 00
2026-02-20T17:36:08.943300,18.721,can0  041  [04]  B5 00 0A 00
2026-02-20T17:36:09.043354,18.821,can0  204  [16]  E1 22 50 46 50 46 50 46 23 23 30 75 30 75 00 00
2026-02-20T17:36:09.043449,18.821,can0  204  [16]  E1 22 50 46 50 46 50 46 23 23 30 75 30 75 00 00
2026-02-20T17:36:09.142591,18.920,can0  204  [16]  E1 22 50 46 50 46 50 46 23 23 30 75 30 75 00 00
2026-02-20T17:36:09.142707,18.920,can0  204  [16]  E1 22 50 46 50 46 50 46 23 23 30 75 30 75 00 00
2026-02-20T17:36:09.243023,19.020,can0  204  [16]  E1 22 50 46 50 46 50 46 23 23 30 75 30 75 00 00
2026-02-20T17:36:09.243125,19.020,can0  041  [04]  B5 00 08 00
2026-02-20T17:36:09.243221,19.021,can0  204  [16]  E1 22 50 46 50 46 50 46 23 23 30 75 30 75 00 00
2026-02-20T17:36:09.342624,19.120,can0  204  [16]  E1 22 50 46 50 46 50 46 23 23 30 75 30 75 00 00
2026-02-20T17:36:09.342943,19.120,can0  100  [03]  62 3E 04
2026-02-20T17:36:09.343061,19.120,can0  204  [16]  E1 22 50 46 50 46 50 46 23 23 30 75 30 75 00 00
2026-02-20T17:36:09.442897,19.220,can0  204  [16]  E1 22 50 46 50 46 50 46 23 23 30 75 30 75 00 00
2026-02-20T17:36:09.443004,19.220,can0  204  [16]  E1 22 50 46 50 46 50 46 23 23 30 75 30 75 00 00
2026-02-20T17:36:09.543167,19.321,can0  041  [04]  7A 00 02 00
2026-02-20T17:36:09.543276,19.321,can0  204  [16]  E1 22 50 46 50 46 50 46 23 23 30 75 30 75 00 00
2026-02-20T17:36:09.543385,19.321,can0  206  [24]  67 0C FF 06 77 0C B1 E0 32 07 87 0C 7F 0C 00 00 00 00 00 00 00 00 00 00
2026-02-20T17:36:09.543477,19.321,can0  204  [16]  E1 22 50 46 50 46 50 46 23 23 30 75 30 75 00 00
2026-02-20T17:36:09.642744,19.420,can0  204  [16]  E1 22 50 46 50 46 50 46 23 23 30 75 30 75 00 00
2026-02-20T17:36:09.642846,19.420,can0  204  [16]  E1 22 50 46 50 46 50 46 23 23 30 75 30 75 00 00
2026-02-20T17:36:09.743046,19.520,can0  204  [16]  E1 22 50 46 50 46 50 46 23 23 30 75 30 75 00 00
2026-02-20T17:36:09.743155,19.520,can0  041  [04]  5D 00 02 00
2026-02-20T17:36:09.743254,19.521,can0  204  [16]  E1 22 50 46 50 46 50 46 23 23 30 75 30 75 00 00
2026-02-20T17:36:09.842896,19.620,can0  204  [16]  E1 22 50 46 50 46 50 46 23 23 30 75 30 75 00 00
2026-02-20T17:36:09.842996,19.620,can0  204  [16]  E1 22 50 46 50 46 50 46 23 23 30 75 30 75 00 00
2026-02-20T17:36:09.942897,19.720,can0  204  [16]  E1 22 50 46 50 46 50 46 23 23 30 75 30 75 00 00
2026-02-20T17:36:10.043422,19.821,can0  204  [16]  E1 22 50 46 50 46 50 46 23 23 30 75 30 75 00 00
2026-02-20T17:36:10.043563,19.821,can0  204  [16]  E1 22 50 46 50 46 50 46 23 23 30 75 30 75 00 00
2026-02-20T17:36:10.043683,19.821,can0  041  [04]  2F 00 02 00
2026-02-20T17:36:10.044110,19.821,can0   00  [04]  04 86 b0 10 0
2026-02-20T17:36:10.143116,19.920,can0  204  [16]  E1 22 50 46 50 46 50 46 23 23 30 75 30 75 00 00
2026-02-20T17:36:10.143192,19.921,can0  002  [04]  48 6B 01 00
2026-02-20T17:36:10.145648,19.923,can0  204  [16]  E1 22 50 46 50 46 50 46 23 23 30 75 30 75 00 00
2026-02-20T17:36:10.206527,19.984,can0   00  [04]  00 07 70 10 0
2026-02-20T17:36:10.242422,20.020,can0  204  [16]  E1 22 50 46 50 46 50 46 23 23 30 75 30 75 00 00
2026-02-20T17:36:10.242590,20.020,can0  206  [24]  63 0C 03 07 73 0C 3A DF 36 07 93 0C 7F 0C 00 00 00 00 00 00 00 00 00 00
2026-02-20T17:36:10.242750,20.020,can0  204  [16]  E1 22 50 46 50 46 50 46 23 23 30 75 30 75 00 00
2026-02-20T17:36:10.242786,20.020,can0  002  [04]  00 77 01 00
2026-02-20T17:36:10.342539,20.120,can0  204  [16]  E1 22 50 46 50 46 50 46 23 23 30 75 30 75 00 00
2026-02-20T17:36:10.342703,20.120,can0  041  [04]  2F 00 02 00
2026-02-20T17:36:10.342841,20.120,can0  204  [16]  E1 22 50 46 50 46 50 46 23 23 30 75 30 75 00 00
2026-02-20T17:36:10.370408,20.148,can0   00  [04]  0b 88 20 10 0
2026-02-20T17:36:10.443002,20.220,can0  204  [16]  E1 22 50 46 50 46 50 46 23 23 30 75 30 75 00 00
2026-02-20T17:36:10.443073,20.220,can0  002  [04]  B8 82 01 00
2026-02-20T17:36:10.443291,20.221,can0  204  [16]  E1 22 50 46 50 46 50 46 23 23 30 75 30 75 00 00
2026-02-20T17:36:10.530773,20.308,can0   00  [04]  07 08 e0 10 0
2026-02-20T17:36:10.542714,20.320,can0  204  [16]  E1 22 50 46 50 46 50 46 23 23 30 75 30 75 00 00
2026-02-20T17:36:10.542821,20.320,can0  204  [16]  E1 22 50 46 50 46 50 46 23 23 30 75 30 75 00 00
2026-02-20T17:36:10.542924,20.320,can0  041  [04]  52 01 02 00
2026-02-20T17:36:10.542975,20.320,can0  002  [04]  70 8E 01 00
2026-02-20T17:36:10.647416,20.425,can0  100  [03]  67 3E 04
2026-02-20T17:36:10.647686,20.425,can0  110  [02]  26 1D
2026-02-20T17:36:10.647843,20.425,can0  204  [16]  E1 22 50 46 50 46 50 46 23 23 30 75 30 75 00 00
2026-02-20T17:36:10.650370,20.428,can0  204  [16]  E1 22 50 46 50 46 50 46 23 23 30 75 30 75 00 00
2026-02-20T17:36:10.682368,20.460,can0   00  [04]  02 89 a0 10 0
2026-02-20T17:36:10.743516,20.521,can0  204  [16]  E1 22 50 46 50 46 50 46 23 23 30 75 30 75 00 00
2026-02-20T17:36:10.743575,20.521,can0  002  [04]  28 9A 01 00
2026-02-20T17:36:10.743787,20.521,can0  204  [16]  E1 22 50 46 50 46 50 46 23 23 30 75 30 75 00 00
2026-02-20T17:36:10.839119,20.616,can0   00  [04]  0e 0a 50 10 0
2026-02-20T17:36:10.850982,20.628,can0  204  [16]  E1 22 50 46 50 46 50 46 23 23 30 75 30 75 00 00
2026-02-20T17:36:10.851264,20.629,can0  206  [24]  73 0C FC 06 6F 0C 99 C6 34 07 83 0C 7B 0C 00 00 00 00 00 00 00 00 00 00
2026-02-20T17:36:10.851477,20.629,can0  041  [04]  2B 01 04 00
2026-02-20T17:36:10.854359,20.632,can0  204  [16]  E1 22 50 46 50 46 50 46 23 23 30 75 30 75 00 00
2026-02-20T17:36:10.942757,20.720,can0  002  [04]  E0 A5 01 00
2026-02-20T17:36:10.942993,20.720,can0  204  [16]  E1 22 50 46 50 46 50 46 23 23 30 75 30 75 00 00
2026-02-20T17:36:10.943129,20.720,can0  204  [16]  E1 22 50 46 50 46 50 46 23 23 30 75 30 75 00 00
2026-02-20T17:36:11.002822,20.780,can0   00  [04]  09 8b 10 10 0
2026-02-20T17:36:11.043141,20.820,can0  204  [16]  E1 22 50 46 50 46 50 46 23 23 30 75 30 75 00 00
2026-02-20T17:36:11.043198,20.821,can0  002  [04]  98 B1 01 00
2026-02-20T17:36:11.045832,20.823,can0  204  [16]  E1 22 50 46 50 46 50 46 23 23 30 75 30 75 00 00
2026-02-20T17:36:11.143063,20.920,can0  041  [04]  24 01 06 00
2026-02-20T17:36:11.143167,20.920,can0  204  [16]  E1 22 50 46 50 46 50 46 23 23 30 75 30 75 00 00
2026-02-20T17:36:11.143262,20.921,can0  204  [16]  E1 22 50 46 50 46 50 46 23 23 30 75 30 75 00 00
2026-02-20T17:36:11.145893,20.923,can0   00  [04]  05 0b d0 10 0
2026-02-20T17:36:11.243291,21.021,can0  002  [04]  50 BD 01 00
2026-02-20T17:36:11.245927,21.023,can0  204  [16]  E1 22 50 46 50 46 50 46 23 23 30 75 30 75 00 00
2026-02-20T17:36:11.245961,21.023,can0  204  [16]  E1 22 50 46 50 46 50 46 23 23 30 75 30 75 00 00
2026-02-20T17:36:11.307226,21.085,can0   00  [04]  00 8c 90 10 0
2026-02-20T17:36:11.342664,21.120,can0  204  [16]  E1 22 50 46 50 46 50 46 23 23 30 75 30 75 00 00
2026-02-20T17:36:11.342724,21.120,can0  002  [04]  08 C9 01 00
2026-02-20T17:36:11.343009,21.120,can0  204  [16]  E1 22 50 46 50 46 50 46 23 23 30 75 30 75 00 00
2026-02-20T17:36:11.345271,21.123,can0  041  [04]  2B 01 07 00
2026-02-20T17:36:11.442625,21.220,can0  204  [16]  E1 22 50 46 50 46 50 46 23 23 30 75 30 75 00 00
2026-02-20T17:36:11.442759,21.220,can0  204  [16]  E1 22 50 46 50 46 50 46 23 23 30 75 30 75 00 00
2026-02-20T17:36:11.469266,21.247,can0   00  [04]  0c 0d 40 10 0
2026-02-20T17:36:11.543038,21.320,can0  206  [24]  73 0C 05 07 73 0C 99 C6 3B 07 7F 0C 7F 0C 00 00 00 00 00 00 00 00 00 00
2026-02-20T17:36:11.543205,21.321,can0  204  [16]  E1 22 50 46 50 46 50 46 23 23 30 75 30 75 00 00
2026-02-20T17:36:11.543244,21.321,can0  002  [04]  C0 D4 01 00
2026-02-20T17:36:11.545461,21.323,can0  204  [16]  E1 22 50 46 50 46 50 46 23 23 30 75 30 75 00 00
2026-02-20T17:36:11.630145,21.407,can0   00  [04]  07 8e 00 10 0
2026-02-20T17:36:11.642928,21.420,can0  204  [16]  E1 22 50 46 50 46 50 46 23 23 30 75 30 75 00 00
2026-02-20T17:36:11.643061,21.420,can0  041  [04]  10 01 02 00
2026-02-20T17:36:11.643115,21.420,can0  002  [04]  78 E0 01 00
2026-02-20T17:36:11.645581,21.423,can0  204  [16]  E1 22 50 46 50 46 50 46 23 23 30 75 30 75 00 00
2026-02-20T17:36:11.742711,21.520,can0  204  [16]  E1 22 50 46 50 46 50 46 23 23 30 75 30 75 00 00
2026-02-20T17:36:11.742840,21.520,can0  204  [16]  E1 22 50 46 50 46 50 46 23 23 30 75 30 75 00 00
2026-02-20T17:36:11.769451,21.547,can0   00  [04]  03 0e c0 10 0
2026-02-20T17:36:11.842502,21.620,can0  002  [04]  30 EC 01 00
2026-02-20T17:36:11.842835,21.620,can0  204  [16]  E1 22 50 46 50 46 50 46 23 23 30 75 30 75 00 00
2026-02-20T17:36:11.843168,21.620,can0  100  [03]  67 3E 04
2026-02-20T17:36:11.843322,21.621,can0  204  [16]  E1 22 50 46 50 46 50 46 23 23 30 75 30 75 00 00
2026-02-20T17:36:11.923314,21.701,can0   00  [04]  0e 8f 70 10 0
2026-02-20T17:36:11.942766,21.720,can0  041  [04]  10 01 00 00
2026-02-20T17:36:11.942910,21.720,can0  204  [16]  E1 22 50 46 50 46 50 46 23 23 30 75 30 75 00 00
2026-02-20T17:36:11.942969,21.720,can0  002  [04]  E8 F7 01 00
2026-02-20T17:36:11.945751,21.723,can0  204  [16]  E1 22 50 46 50 46 50 46 23 23 30 75 30 75 00 00
2026-02-20T17:36:12.051599,21.829,can0  204  [16]  E1 22 50 46 50 46 50 46 23 23 30 75 30 75 00 00
2026-02-20T17:36:12.051835,21.829,can0  204  [16]  E1 22 50 46 50 46 50 46 23 23 30 75 30 75 00 00
2026-02-20T17:36:12.101283,21.879,can0   00  [04]  0a 00 30 20 0
2026-02-20T17:36:12.144076,21.921,can0  204  [16]  E1 22 50 46 50 46 50 46 23 23 30 75 30 75 00 00
2026-02-20T17:36:12.144277,21.922,can0  206  [24]  87 0C FC 06 7B 0C DA DC 32 07 6F 0C 67 0C 00 00 00 00 00 00 00 00 00 00
2026-02-20T17:36:12.144344,21.922,can0  002  [04]  A0 03 02 00
2026-02-20T17:36:12.144594,21.922,can0  041  [04]  1B 00 02 00
2026-02-20T17:36:12.144756,21.922,can0  204  [16]  E1 22 50 46 50 46 50 46 23 23 30 75 30 75 00 00
2026-02-20T17:36:12.247195,22.025,can0  204  [16]  E1 22 50 46 50 46 50 46 23 23 30 75 30 75 00 00
2026-02-20T17:36:12.247512,22.025,can0  110  [02]  27 1D
2026-02-20T17:36:12.264736,22.042,can0   00  [04]  05 80 f0 20 0
2026-02-20T17:36:12.342988,22.120,can0  204  [16]  E1 22 50 46 50 46 50 46 23 23 30 75 30 75 00 00
2026-02-20T17:36:12.343039,22.120,can0  002  [04]  58 0F 02 00
2026-02-20T17:36:12.345442,22.123,can0  204  [16]  E1 22 50 46 50 46 50 46 23 23 30 75 30 75 00 00
2026-02-20T17:36:12.442876,22.220,can0  204  [16]  E1 22 50 46 50 46 50 46 23 23 30 75 30 75 00 00
2026-02-20T17:36:12.442993,22.220,can0  204  [16]  E1 22 50 46 50 46 50 46 23 23 30 75 30 75 00 00
2026-02-20T17:36:12.443095,22.220,can0  041  [04]  10 01 05 00
2026-02-20T17:36:12.443212,22.221,can0  204  [16]  E1 22 50 46 50 46 50 46 23 23 30 75 30 75 00 00
2026-02-20T17:36:12.446301,22.224,can0   00  [04]  05 80 f0 20 0
2026-02-20T17:36:12.542459,22.320,can0  002  [04]  58 0F 02 00
2026-02-20T17:36:12.542738,22.320,can0  204  [16]  E1 22 50 46 50 46 50 46 23 23 30 75 30 75 00 00
2026-02-20T17:36:12.624112,22.401,can0   00  [04]  05 80 f0 20 0
2026-02-20T17:36:12.642638,22.420,can0  204  [16]  E1 22 50 46 50 46 50 46 23 23 30 75 30 75 00 00
2026-02-20T17:36:12.642732,22.420,can0  204  [16]  E1 22 50 46 50 46 50 46 23 23 30 75 30 75 00 00
2026-02-20T17:36:12.642780,22.420,can0  002  [04]  58 0F 02 00
2026-02-20T17:36:12.742990,22.520,can0  204  [16]  E1 22 50 46 50 46 50 46 23 23 30 75 30 75 00 00
2026-02-20T17:36:12.743097,22.520,can0  041  [04]  F8 00 04 00
2026-02-20T17:36:12.743217,22.521,can0  204  [16]  E1 22 50 46 50 46 50 46 23 23 30 75 30 75 00 00
2026-02-20T17:36:12.843473,22.621,can0  206  [24]  7F 0C 07 07 6F 0C 99 C6 32 07 8B 0C 73 0C 00 00 00 00 00 00 00 00 00 00
2026-02-20T17:36:12.843590,22.621,can0  204  [16]  E1 22 50 46 50 46 50 46 23 23 30 75 30 75 00 00
2026-02-20T17:36:12.843678,22.621,can0  204  [16]  E1 22 50 46 50 46 50 46 23 23 30 75 30 75 00 00
2026-02-20T17:36:12.945463,22.723,can0  204  [16]  E1 22 50 46 50 46 50 46 23 23 30 75 30 75 00 00
2026-02-20T17:36:12.945562,22.723,can0  204  [16]  E1 22 50 46 50 46 50 46 23 23 30 75 30 75 00 00
2026-02-20T17:36:12.945662,22.723,can0  041  [04]  B5 00 05 00
2026-02-20T17:36:12.956891,22.734,can0   00  [04]  09 05 f0 10 0
2026-02-20T17:36:13.043047,22.820,can0  204  [16]  E1 22 50 46 50 46 50 46 23 23 30 75 30 75 00 00
2026-02-20T17:36:13.050485,22.828,can0  002  [04]  90 5F 01 00
2026-02-20T17:36:13.054292,22.832,can0  204  [16]  E1 22 50 46 50 46 50 46 23 23 30 75 30 75 00 00
2026-02-20T17:36:13.147312,22.925,can0  204  [16]  E1 22 50 46 50 46 50 46 23 23 30 75 30 75 00 00
2026-02-20T17:36:13.147629,22.925,can0  100  [03]  6B 3E 04
2026-02-20T17:36:13.147758,22.925,can0  204  [16]  E1 22 50 46 50 46 50 46 23 23 30 75 30 75 00 00
2026-02-20T17:36:13.243430,23.021,can0  204  [16]  E1 22 50 46 50 46 50 46 23 23 30 75 30 75 00 00
2026-02-20T17:36:13.243526,23.021,can0  041  [04]  AA 00 05 00
2026-02-20T17:36:13.243619,23.021,can0  204  [16]  E1 22 50 46 50 46 50 46 23 23 30 75 30 75 00 00
2026-02-20T17:36:13.343939,23.121,can0  204  [16]  E1 22 50 46 50 46 50 46 23 23 30 75 30 75 00 00
2026-02-20T17:36:13.344035,23.121,can0  204  [16]  E1 22 50 46 50 46 50 46 23 23 30 75 30 75 00 00
2026-02-20T17:36:13.442840,23.220,can0  204  [16]  E1 22 50 46 50 46 50 46 23 23 30 75 30 75 00 00
2026-02-20T17:36:13.443008,23.220,can0  206  [24]  7F 0C 03 07 6F 0C 99 C6 32 07 87 0C 6F 0C 00 00 00 00 00 00 00 00 00 00
2026-02-20T17:36:13.445426,23.223,can0  204  [16]  E1 22 50 46 50 46 50 46 23 23 30 75 30 75 00 00
2026-02-20T17:36:13.543032,23.320,can0  041  [04]  B5 00 09 00
2026-02-20T17:36:13.543188,23.321,can0  204  [16]  E1 22 50 46 50 46 50 46 23 23 30 75 30 75 00 00
2026-02-20T17:36:13.543312,23.321,can0  204  [16]  E1 22 50 46 50 46 50 46 23 23 30 75 30 75 00 00
2026-02-20T17:36:13.642898,23.420,can0  204  [16]  E1 22 50 46 50 46 50 46 23 23 30 75 30 75 00 00
2026-02-20T17:36:13.643047,23.420,can0  204  [16]  E1 22 50 46 50 46 50 46 23 23 30 75 30 75 00 00
2026-02-20T17:36:13.742893,23.520,can0  204  [16]  E1 22 50 46 50 46 50 46 23 23 30 75 30 75 00 00
2026-02-20T17:36:13.743031,23.520,can0  204  [16]  E1 22 50 46 50 46 50 46 23 23 30 75 30 75 00 00
2026-02-20T17:36:13.743153,23.520,can0  041  [04]  10 01 07 00
2026-02-20T17:36:13.842858,23.620,can0  204  [16]  E1 22 50 46 50 46 50 46 23 23 30 75 30 75 00 00
2026-02-20T17:36:13.845346,23.623,can0  204  [16]  E1 22 50 46 50 46 50 46 23 23 30 75 30 75 00 00
2026-02-20T17:36:13.942879,23.720,can0  204  [16]  E1 22 50 46 50 46 50 46 23 23 30 75 30 75 00 00
2026-02-20T17:36:13.943201,23.721,can0  110  [02]  26 1D
2026-02-20T17:36:13.943342,23.721,can0  204  [16]  E1 22 50 46 50 46 50 46 23 23 30 75 30 75 00 00
2026-02-20T17:36:14.043374,23.821,can0  204  [16]  E1 22 50 46 50 46 50 46 23 23 30 75 30 75 00 00
2026-02-20T17:36:14.043532,23.821,can0  041  [04]  D1 00 05 00
2026-02-20T17:36:14.043697,23.821,can0  204  [16]  E1 22 50 46 50 46 50 46 23 23 30 75 30 75 00 00
2026-02-20T17:36:14.143282,23.921,can0  206  [24]  6F 0C 01 07 77 0C 99 C6 32 07 87 0C 77 0C 00 00 00 00 00 00 00 00 00 00
2026-02-20T17:36:14.143429,23.921,can0  204  [16]  E1 22 50 46 50 46 50 46 23 23 30 75 30 75 00 00
2026-02-20T17:36:14.146105,23.923,can0  204  [16]  E1 22 50 46 50 46 50 46 23 23 30 75 30 75 00 00
2026-02-20T17:36:14.242909,24.020,can0  204  [16]  E1 22 50 46 50 46 50 46 23 23 30 75 30 75 00 00
2026-02-20T17:36:14.245176,24.023,can0  204  [16]  E1 22 50 46 50 46 50 46 23 23 30 75 30 75 00 00
2026-02-20T17:36:14.342550,24.120,can0  041  [04]  8B 00 00 00
2026-02-20T17:36:14.342692,24.120,can0  204  [16]  E1 22 50 46 50 46 50 46 23 23 30 75 30 75 00 00
2026-02-20T17:36:14.342828,24.120,can0  204  [16]  E1 22 50 46 50 46 50 46 23 23 30 75 30 75 00 00
2026-02-20T17:36:14.343150,24.120,can0  100  [03]  6E 3E 04
2026-02-20T17:36:14.443376,24.221,can0  204  [16]  E1 22 50 46 50 46 50 46 23 23 30 75 30 75 00 00
2026-02-20T17:36:14.443517,24.221,can0  204  [16]  E1 22 50 46 50 46 50 46 23 23 30 75 30 75 00 00
2026-02-20T17:36:14.543445,24.321,can0  204  [16]  E1 22 50 46 50 46 50 46 23 23 30 75 30 75 00 00
2026-02-20T17:36:14.543577,24.321,can0  041  [04]  8B 00 02 00
2026-02-20T17:36:14.543704,24.321,can0  204  [16]  E1 22 50 46 50 46 50 46 23 23 30 75 30 75 00 00
2026-02-20T17:36:14.642559,24.420,can0  204  [16]  E1 22 50 46 50 46 50 46 23 23 30 75 30 75 00 00
2026-02-20T17:36:14.642706,24.420,can0  204  [16]  E1 22 50 46 50 46 50 46 23 23 30 75 30 75 00 00
2026-02-20T17:36:14.742672,24.520,can0  204  [16]  E1 22 50 46 50 46 50 46 23 23 30 75 30 75 00 00
2026-02-20T17:36:14.742857,24.520,can0  206  [24]  83 0C FF 06 77 0C DA DC 32 07 83 0C 67 0C 00 00 00 00 00 00 00 00 00 00
2026-02-20T17:36:14.843244,24.621,can0  204  [16]  E1 22 50 46 50 46 50 46 23 23 30 75 30 75 00 00
2026-02-20T17:36:14.843378,24.621,can0  041  [04]  2F 00 06 00
2026-02-20T17:36:14.845747,24.623,can0  204  [16]  E1 22 50 46 50 46 50 46 23 23 30 75 30 75 00 00
2026-02-20T17:36:14.942609,24.720,can0  204  [16]  E1 22 50 46 50 46 50 46 23 23 30 75 30 75 00 00
2026-02-20T17:36:14.945490,24.723,can0  204  [16]  E1 22 50 46 50 46 50 46 23 23 30 75 30 75 00 00
2026-02-20T17:36:15.042526,24.820,can0  204  [16]  E1 22 50 46 50 46 50 46 23 23 30 75 30 75 00 00
2026-02-20T17:36:15.042641,24.820,can0  204  [16]  E1 22 50 46 50 46 50 46 23 23 30 75 30 75 00 00
2026-02-20T17:36:15.142595,24.920,can0  204  [16]  E1 22 50 46 50 46 50 46 23 23 30 75 30 75 00 00
2026-02-20T17:36:15.142739,24.920,can0  041  [04]  5E 00 02 00
2026-02-20T17:36:15.142867,24.920,can0  204  [16]  E1 22 50 46 50 46 50 46 23 23 30 75 30 75 00 00
2026-02-20T17:36:15.244664,25.022,can0  204  [16]  E1 22 50 46 50 46 50 46 23 23 30 75 30 75 00 00
2026-02-20T17:36:15.244803,25.022,can0  204  [16]  E1 22 50 46 50 46 50 46 23 23 30 75 30 75 00 00
2026-02-20T17:36:15.343479,25.121,can0  204  [16]  E1 22 50 46 50 46 50 46 23 23 30 75 30 75 00 00
2026-02-20T17:36:15.343575,25.121,can0  204  [16]  E1 22 50 46 50 46 50 46 23 23 30 75 30 75 00 00
2026-02-20T17:36:15.343679,25.121,can0  041  [04]  8B 00 02 00
2026-02-20T17:36:15.445292,25.223,can0  206  [24]  7B 0C 07 07 6F 0C 99 C6 32 07 83 0C 77 0C 00 00 00 00 00 00 00 00 00 00
2026-02-20T17:36:15.445437,25.223,can0  204  [16]  E1 22 50 46 50 46 50 46 23 23 30 75 30 75 00 00
2026-02-20T17:36:15.445552,25.223,can0  204  [16]  E1 22 50 46 50 46 50 46 23 23 30 75 30 75 00 00
2026-02-20T17:36:15.544860,25.322,can0  204  [16]  E1 22 50 46 50 46 50 46 23 23 30 75 30 75 00 00
2026-02-20T17:36:15.544989,25.322,can0  204  [16]  E1 22 50 46 50 46 50 46 23 23 30 75 30 75 00 00
2026-02-20T17:36:15.651725,25.429,can0  204  [16]  E1 22 50 46 50 46 50 46 23 23 30 75 30 75 00 00
2026-02-20T17:36:15.651854,25.429,can0  041  [04]  8B 00 00 00
2026-02-20T17:36:15.652231,25.430,can0  100  [03]  6E 3E 04
2026-02-20T17:36:15.652499,25.430,can0  110  [02]  25 1D
2026-02-20T17:36:15.652640,25.430,can0  204  [16]  E1 22 50 46 50 46 50 46 23 23 30 75 30 75 00 00
2026-02-20T17:36:15.764990,25.542,can0  204  [16]  E1 22 50 46 50 46 50 46 23 23 30 75 30 75 00 00
2026-02-20T17:36:15.765121,25.542,can0  204  [16]  E1 22 50 46 50 46 50 46 23 23 30 75 30 75 00 00
2026-02-20T17:36:15.848915,25.626,can0  204  [16]  E1 22 50 46 50 46 50 46 23 23 30 75 30 75 00 00
2026-02-20T17:36:15.849070,25.626,can0  204  [16]  E1 22 50 46 50 46 50 46 23 23 30 75 30 75 00 00
2026-02-20T17:36:15.961006,25.738,can0  041  [04]  B5 00 05 00
2026-02-20T17:36:15.964737,25.742,can0  204  [16]  E1 22 50 46 50 46 50 46 23 23 30 75 30 75 00 00
2026-02-20T17:36:15.964789,25.742,can0  204  [16]  E1 22 50 46 50 46 50 46 23 23 30 75 30 75 00 00
2026-02-20T17:36:16.051526,25.829,can0  204  [16]  E1 22 50 46 50 46 50 46 23 23 30 75 30 75 00 00
2026-02-20T17:36:16.051719,25.829,can0  206  [24]  6B 0C 03 07 5F 0C 99 C6 36 07 97 0C 83 0C 00 00 00 00 00 00 00 00 00 00
2026-02-20T17:36:16.051871,25.829,can0  204  [16]  E1 22 50 46 50 46 50 46 23 23 30 75 30 75 00 00
2026-02-20T17:36:16.143337,25.921,can0  204  [16]  E1 22 50 46 50 46 50 46 23 23 30 75 30 75 00 00
2026-02-20T17:36:16.143469,25.921,can0  041  [04]  2F 00 02 00
2026-02-20T17:36:16.146146,25.923,can0  204  [16]  E1 22 50 46 50 46 50 46 23 23 30 75 30 75 00 00
2026-02-20T17:36:16.243351,26.021,can0  204  [16]  E1 22 50 46 50 46 50 46 23 23 30 75 30 75 00 00
2026-02-20T17:36:16.246128,26.023,can0  204  [16]  E1 22 50 46 50 46 50 46 23 23 30 75 30 75 00 00
2026-02-20T17:36:16.368445,26.146,can0  204  [16]  E1 22 50 46 50 46 50 46 23 23 30 75 30 75 00 00
2026-02-20T17:36:16.368584,26.146,can0  204  [16]  E1 22 50 46 50 46 50 46 23 23 30 75 30 75 00 00
2026-02-20T17:36:16.443396,26.221,can0  204  [16]  E1 22 50 46 50 46 50 46 23 23 30 75 30 75 00 00
2026-02-20T17:36:16.443524,26.221,can0  041  [04]  8B 00 02 00
2026-02-20T17:36:16.446274,26.224,can0  204  [16]  E1 22 50 46 50 46 50 46 23 23 30 75 30 75 00 00
2026-02-20T17:36:16.567513,26.345,can0  204  [16]  E1 22 50 46 50 46 50 46 23 23 30 75 30 75 00 00
2026-02-20T17:36:16.567658,26.345,can0  204  [16]  E1 22 50 46 50 46 50 46 23 23 30 75 30 75 00 00
2026-02-20T17:36:16.668146,26.445,can0  204  [16]  E1 22 50 46 50 46 50 46 23 23 30 75 30 75 00 00
2026-02-20T17:36:16.668250,26.446,can0  204  [16]  E1 22 50 46 50 46 50 46 23 23 30 75 30 75 00 00
2026-02-20T17:36:16.668377,26.446,can0  206  [24]  77 0C FF 06 73 0C 99 C6 30 07 7F 0C 77 0C 00 00 00 00 00 00 00 00 00 00
2026-02-20T17:36:16.768265,26.546,can0  041  [04]  5E 00 02 00
2026-02-20T17:36:16.768380,26.546,can0  204  [16]  E1 22 50 46 50 46 50 46 23 23 30 75 30 75 00 00
2026-02-20T17:36:16.768467,26.546,can0  204  [16]  E1 22 50 46 50 46 50 46 23 23 30 75 30 75 00 00
2026-02-20T17:36:16.868427,26.646,can0  204  [16]  E1 22 50 46 50 46 50 46 23 23 30 75 30 75 00 00
2026-02-20T17:36:16.868535,26.646,can0  204  [16]  E1 22 50 46 50 46 50 46 23 23 30 75 30 75 00 00
2026-02-20T17:36:16.970361,26.748,can0  100  [03]  73 3E 04
2026-02-20T17:36:16.973929,26.751,can0  204  [16]  E1 22 50 46 50 46 50 46 23 23 30 75 30 75 00 00
2026-02-20T17:36:16.973998,26.751,can0  041  [04]  B5 00 02 00
2026-02-20T17:36:16.974025,26.751,can0  204  [16]  E1 22 50 46 50 46 50 46 23 23 30 75 30 75 00 00
2026-02-20T17:36:17.068154,26.845,can0  204  [16]  E1 22 50 46 50 46 50 46 23 23 30 75 30 75 00 00
2026-02-20T17:36:17.068264,26.846,can0  204  [16]  E1 22 50 46 50 46 50 46 23 23 30 75 30 75 00 00
2026-02-20T17:36:17.168445,26.946,can0  204  [16]  E1 22 50 46 50 46 50 46 23 23 30 75 30 75 00 00
2026-02-20T17:36:17.168549,26.946,can0  204  [16]  E1 22 50 46 50 46 50 46 23 23 30 75 30 75 00 00
2026-02-20T17:36:17.267641,27.045,can0  041  [04]  AD 00 08 00
2026-02-20T17:36:17.267793,27.045,can0  204  [16]  E1 22 50 46 50 46 50 46 23 23 30 75 30 75 00 00
2026-02-20T17:36:17.267922,27.045,can0  204  [16]  E1 22 50 46 50 46 50 46 23 23 30 75 30 75 00 00
2026-02-20T17:36:17.368517,27.146,can0  110  [02]  26 1D
2026-02-20T17:36:17.368670,27.146,can0  204  [16]  E1 22 50 46 50 46 50 46 23 23 30 75 30 75 00 00
2026-02-20T17:36:17.368819,27.146,can0  206  [24]  73 0C 01 07 73 0C B1 E0 2E 07 8F 0C 73 0C 00 00 00 00 00 00 00 00 00 00
2026-02-20T17:36:17.468499,27.246,can0  204  [16]  E1 22 50 46 50 46 50 46 23 23 30 75 30 75 00 00
2026-02-20T17:36:17.468653,27.246,can0  204  [16]  E1 22 50 46 50 46 50 46 23 23 30 75 30 75 00 00
2026-02-20T17:36:17.567748,27.345,can0  041  [04]  97 00 05 00
2026-02-20T17:36:17.567897,27.345,can0  204  [16]  E1 22 50 46 50 46 50 46 23 23 30 75 30 75 00 00
2026-02-20T17:36:17.570380,27.348,can0  204  [16]  E1 22 50 46 50 46 50 46 23 23 30 75 30 75 00 00
2026-02-20T17:36:17.667653,27.445,can0  204  [16]  E1 22 50 46 50 46 50 46 23 23 30 75 30 75 00 00
2026-02-20T17:36:17.667803,27.445,can0  204  [16]  E1 22 50 46 50 46 50 46 23 23 30 75 30 75 00 00
2026-02-20T17:36:17.778388,27.556,can0  204  [16]  E1 22 50 46 50 46 50 46 23 23 30 75 30 75 00 00
2026-02-20T17:36:17.778476,27.556,can0  204  [16]  E1 22 50 46 50 46 50 46 23 23 30 75 30 75 00 00
2026-02-20T17:36:17.778513,27.556,can0  041  [04]  7A 00 06 00
2026-02-20T17:36:17.864969,27.642,can0  204  [16]  E1 22 50 46 50 46 50 46 23 23 30 75 30 75 00 00
2026-02-20T17:36:17.865137,27.642,can0  204  [16]  E1 22 50 46 50 46 50 46 23 23 30 75 30 75 00 00
2026-02-20T17:36:17.948949,27.726,can0  204  [16]  E1 22 50 46 50 46 50 46 23 23 30 75 30 75 00 00
2026-02-20T17:36:17.949049,27.726,can0  204  [16]  E1 22 50 46 50 46 50 46 23 23 30 75 30 75 00 00
2026-02-20T17:36:17.949196,27.727,can0  206  [24]  6F 0C FF 06 7B 0C 99 C6 32 07 7F 0C 77 0C 00 00 00 00 00 00 00 00 00 00
2026-02-20T17:36:18.068192,27.846,can0  204  [16]  E1 22 50 46 50 46 50 46 23 23 30 75 30 75 00 00
2026-02-20T17:36:18.075700,27.853,can0  041  [04]  5D 00 0B 00
2026-02-20T17:36:18.075965,27.853,can0  204  [16]  E1 22 50 46 50 46 50 46 23 23 30 75 30 75 00 00
2026-02-20T17:36:18.167466,27.945,can0  204  [16]  E1 22 50 46 50 46 50 46 23 23 30 75 30 75 00 00
2026-02-20T17:36:18.167556,27.945,can0  204  [16]  E1 22 50 46 50 46 50 46 23 23 30 75 30 75 00 00
2026-02-20T17:36:18.167868,27.945,can0  100  [03]  76 3E 04
2026-02-20T17:36:18.270818,28.048,can0  204  [16]  E1 22 50 46 50 46 50 46 23 23 30 75 30 75 00 00
2026-02-20T17:36:18.270943,28.048,can0  204  [16]  E1 22 50 46 50 46 50 46 23 23 30 75 30 75 00 00
2026-02-20T17:36:18.368503,28.146,can0  041  [04]  4A 01 07 00
2026-02-20T17:36:18.368661,28.146,can0  204  [16]  E1 22 50 46 50 46 50 46 23 23 30 75 30 75 00 00
2026-02-20T17:36:18.371163,28.148,can0  204  [16]  E1 22 50 46 50 46 50 46 23 23 30 75 30 75 00 00
2026-02-20T17:36:18.467637,28.245,can0  204  [16]  E1 22 50 46 50 46 50 46 23 23 30 75 30 75 00 00
2026-02-20T17:36:18.467747,28.245,can0  204  [16]  E1 22 50 46 50 46 50 46 23 23 30 75 30 75 00 00
2026-02-20T17:36:18.568462,28.346,can0  204  [16]  E1 22 50 46 50 46 50 46 23 23 30 75 30 75 00 00
2026-02-20T17:36:18.568559,28.346,can0  041  [04]  B5 00 02 00
2026-02-20T17:36:18.568652,28.346,can0  204  [16]  E1 22 50 46 50 46 50 46 23 23 30 75 30 75 00 00
2026-02-20T17:36:18.668170,28.446,can0  204  [16]  E1 22 50 46 50 46 50 46 23 23 30 75 30 75 00 00
2026-02-20T17:36:18.668314,28.446,can0  206  [24]  6B 0C 03 07 6F 0C 3A DF 32 07 97 0C 83 0C 00 00 00 00 00 00 00 00 00 00
2026-02-20T17:36:18.668408,28.446,can0  204  [16]  E1 22 50 46 50 46 50 46 23 23 30 75 30 75 00 00
2026-02-20T17:36:18.768235,28.546,can0  204  [16]  E1 22 50 46 50 46 50 46 23 23 30 75 30 75 00 00
2026-02-20T17:36:18.768395,28.546,can0  204  [16]  E1 22 50 46 50 46 50 46 23 23 30 75 30 75 00 00
2026-02-20T17:36:18.868309,28.646,can0  041  [04]  B5 00 08 00
2026-02-20T17:36:18.868457,28.646,can0  204  [16]  E1 22 50 46 50 46 50 46 23 23 30 75 30 75 00 00
2026-02-20T17:36:18.870971,28.648,can0  204  [16]  E1 22 50 46 50 46 50 46 23 23 30 75 30 75 00 00
2026-02-20T17:36:18.968263,28.746,can0  204  [16]  E1 22 50 46 50 46 50 46 23 23 30 75 30 75 00 00
2026-02-20T17:36:18.968405,28.746,can0  204  [16]  E1 22 50 46 50 46 50 46 23 23 30 75 30 75 00 00
2026-02-20T17:36:19.068428,28.846,can0  110  [02]  26 1D
2026-02-20T17:36:19.068583,28.846,can0  204  [16]  E1 22 50 46 50 46 50 46 23 23 30 75 30 75 00 00
2026-02-20T17:36:19.068711,28.846,can0  204  [16]  E1 22 50 46 50 46 50 46 23 23 30 75 30 75 00 00
2026-02-20T17:36:19.071128,28.848,can0  041  [04]  A7 00 05 00
2026-02-20T17:36:19.167887,28.945,can0  204  [16]  E1 22 50 46 50 46 50 46 23 23 30 75 30 75 00 00
2026-02-20T17:36:19.168030,28.945,can0  204  [16]  E1 22 50 46 50 46 50 46 23 23 30 75 30 75 00 00
2026-02-20T17:36:19.268229,29.046,can0  204  [16]  E1 22 50 46 50 46 50 46 23 23 30 75 30 75 00 00
2026-02-20T17:36:19.268377,29.046,can0  204  [16]  E1 22 50 46 50 46 50 46 23 23 30 75 30 75 00 00
2026-02-20T17:36:19.367524,29.145,can0  206  [24]  6B 0C FF 06 73 0C 99 C6 30 07 87 0C 83 0C 00 00 00 00 00 00 00 00 00 00
2026-02-20T17:36:19.367673,29.145,can0  204  [16]  E1 22 50 46 50 46 50 46 23 23 30 75 30 75 00 00
2026-02-20T17:36:19.367801,29.145,can0  041  [04]  02 00 02 00
2026-02-20T17:36:19.367953,29.145,can0  204  [16]  E1 22 50 46 50 46 50 46 23 23 30 75 30 75 00 00
2026-02-20T17:36:19.467571,29.245,can0  204  [16]  E1 22 50 46 50 46 50 46 23 23 30 75 30 75 00 00
2026-02-20T17:36:19.467865,29.245,can0  100  [03]  76 3E 04
2026-02-20T17:36:19.467973,29.245,can0  204  [16]  E1 22 50 46 50 46 50 46 23 23 30 75 30 75 00 00
2026-02-20T17:36:19.568297,29.346,can0  204  [16]  E1 22 50 46 50 46 50 46 23 23 30 75 30 75 00 00
2026-02-20T17:36:19.568403,29.346,can0  204  [16]  E1 22 50 46 50 46 50 46 23 23 30 75 30 75 00 00
2026-02-20T17:36:19.667786,29.445,can0  041  [04]  8B 00 02 00
2026-02-20T17:36:19.667896,29.445,can0  204  [16]  E1 22 50 46 50 46 50 46 23 23 30 75 30 75 00 00
2026-02-20T17:36:19.768425,29.546,can0  204  [16]  E1 22 50 46 50 46 50 46 23 23 30 75 30 75 00 00
2026-02-20T17:36:19.768556,29.546,can0  204  [16]  E1 22 50 46 50 46 50 46 23 23 30 75 30 75 00 00
2026-02-20T17:36:19.867810,29.645,can0  204  [16]  E1 22 50 46 50 46 50 46 23 23 30 75 30 75 00 00
2026-02-20T17:36:19.867912,29.645,can0  204  [16]  E1 22 50 46 50 46 50 46 23 23 30 75 30 75 00 00
2026-02-20T17:36:19.868010,29.645,can0  041  [04]  5E 00 06 00
2026-02-20T17:36:19.968043,29.745,can0  204  [16]  E1 22 50 46 50 46 50 46 23 23 30 75 30 75 00 00
2026-02-20T17:36:19.968183,29.746,can0  206  [24]  6F 0C 07 07 7F 0C B1 E0 34 07 83 0C 73 0C 00 00 00 00 00 00 00 00 00 00
2026-02-20T17:36:19.968283,29.746,can0  204  [16]  E1 22 50 46 50 46 50 46 23 23 30 75 30 75 00 00
2026-02-20T17:36:20.068139,29.845,can0  204  [16]  E1 22 50 46 50 46 50 46 23 23 30 75 30 75 00 00
2026-02-20T17:36:20.068238,29.846,can0  204  [16]  E1 22 50 46 50 46 50 46 23 23 30 75 30 75 00 00
2026-02-20T17:36:20.168227,29.946,can0  204  [16]  E1 22 50 46 50 46 50 46 23 23 30 75 30 75 00 00
2026-02-20T17:36:20.168336,29.946,can0  204  [16]  E1 22 50 46 50 46 50 46 23 23 30 75 30 75 00 00
2026-02-20T17:36:20.168425,29.946,can0  041  [04]  74 00 07 00
2026-02-20T17:36:20.267964,30.045,can0  204  [16]  E1 22 50 46 50 46 50 46 23 23 30 75 30 75 00 00
2026-02-20T17:36:20.268069,30.045,can0  204  [16]  E1 22 50 46 50 46 50 46 23 23 30 75 30 75 00 00
2026-02-20T17:36:20.368005,30.145,can0  204  [16]  E1 22 50 46 50 46 50 46 23 23 30 75 30 75 00 00
2026-02-20T17:36:20.368102,30.145,can0  204  [16]  E1 22 50 46 50 46 50 46 23 23 30 75 30 75 00 00
2026-02-20T17:36:20.467633,30.245,can0  204  [16]  E1 22 50 46 50 46 50 46 23 23 30 75 30 75 00 00
2026-02-20T17:36:20.467742,30.245,can0  041  [04]  02 00 02 00
2026-02-20T17:36:20.467840,30.245,can0  204  [16]  E1 22 50 46 50 46 50 46 23 23 30 75 30 75 00 00
2026-02-20T17:36:20.568411,30.346,can0  204  [16]  E1 22 50 46 50 46 50 46 23 23 30 75 30 75 00 00
2026-02-20T17:36:20.568512,30.346,can0  204  [16]  E1 22 50 46 50 46 50 46 23 23 30 75 30 75 00 00
2026-02-20T17:36:20.571537,30.349,can0  206  [24]  77 0C 07 07 6F 0C F4 E3 32 07 8B 0C 77 0C 00 00 00 00 00 00 00 00 00 00
2026-02-20T17:36:20.667884,30.445,can0  204  [16]  E1 22 50 46 50 46 50 46 23 23 30 75 30 75 00 00
2026-02-20T17:36:20.667987,30.445,can0  204  [16]  E1 22 50 46 50 46 50 46 23 23 30 75 30 75 00 00
2026-02-20T17:36:20.668081,30.445,can0  041  [04]  5E 01 06 00
2026-02-20T17:36:20.767858,30.545,can0  100  [03]  75 3E 04
2026-02-20T17:36:20.768099,30.545,can0  110  [02]  27 1D
2026-02-20T17:36:20.768223,30.546,can0  204  [16]  E1 22 50 46 50 46 50 46 23 23 30 75 30 75 00 00
2026-02-20T17:36:20.768316,30.546,can0  204  [16]  E1 22 50 46 50 46 50 46 23 23 30 75 30 75 00 00
2026-02-20T17:36:20.868424,30.646,can0  204  [16]  E1 22 50 46 50 46 50 46 23 23 30 75 30 75 00 00
2026-02-20T17:36:20.868537,30.646,can0  204  [16]  E1 22 50 46 50 46 50 46 23 23 30 75 30 75 00 00
2026-02-20T17:36:20.968258,30.746,can0  204  [16]  E1 22 50 46 50 46 50 46 23 23 30 75 30 75 00 00
2026-02-20T17:36:20.968366,30.746,can0  041  [04]  E4 00 00 00
2026-02-20T17:36:20.968457,30.746,can0  204  [16]  E1 22 50 46 50 46 50 46 23 23 30 75 30 75 00 00
2026-02-20T17:36:21.067669,30.845,can0  204  [16]  E1 22 50 46 50 46 50 46 23 23 30 75 30 75 00 00
2026-02-20T17:36:21.067820,30.845,can0  204  [16]  E1 22 50 46 50 46 50 46 23 23 30 75 30 75 00 00
2026-02-20T17:36:21.168042,30.945,can0  204  [16]  E1 22 50 46 50 46 50 46 23 23 30 75 30 75 00 00
2026-02-20T17:36:21.168193,30.946,can0  204  [16]  E1 22 50 46 50 46 50 46 23 23 30 75 30 75 00 00
2026-02-20T17:36:21.267989,31.045,can0  041  [04]  5D 00 05 00
2026-02-20T17:36:21.268129,31.045,can0  204  [16]  E1 22 50 46 50 46 50 46 23 23 30 75 30 75 00 00
2026-02-20T17:36:21.268278,31.046,can0  206  [24]  6B 0C 09 07 77 0C 99 C6 32 07 7F 0C 7F 0C 00 00 00 00 00 00 00 00 00 00
2026-02-20T17:36:21.269178,31.047,can0  204  [16]  E1 22 50 46 50 46 50 46 23 23 30 75 30 75 00 00
2026-02-20T17:36:21.368339,31.146,can0  204  [16]  E1 22 50 46 50 46 50 46 23 23 30 75 30 75 00 00
2026-02-20T17:36:21.368479,31.146,can0  204  [16]  E1 22 50 46 50 46 50 46 23 23 30 75 30 75 00 00
2026-02-20T17:36:21.468258,31.246,can0  204  [16]  E1 22 50 46 50 46 50 46 23 23 30 75 30 75 00 00
2026-02-20T17:36:21.468397,31.246,can0  204  [16]  E1 22 50 46 50 46 50 46 23 23 30 75 30 75 00 00
2026-02-20T17:36:21.471425,31.249,can0  041  [04]  5D 00 05 00
2026-02-20T17:36:21.567576,31.345,can0  204  [16]  E1 22 50 46 50 46 50 46 23 23 30 75 30 75 00 00
2026-02-20T17:36:21.567712,31.345,can0  204  [16]  E1 22 50 46 50 46 50 46 23 23 30 75 30 75 00 00
2026-02-20T17:36:21.667608,31.445,can0  204  [16]  E1 22 50 46 50 46 50 46 23 23 30 75 30 75 00 00
2026-02-20T17:36:21.670120,31.447,can0  204  [16]  E1 22 50 46 50 46 50 46 23 23 30 75 30 75 00 00
2026-02-20T17:36:21.768394,31.546,can0  204  [16]  E1 22 50 46 50 46 50 46 23 23 30 75 30 75 00 00
2026-02-20T17:36:21.768514,31.546,can0  041  [04]  5D 00 05 00
2026-02-20T17:36:21.771103,31.548,can0  204  [16]  E1 22 50 46 50 46 50 46 23 23 30 75 30 75 00 00
2026-02-20T17:36:21.867542,31.645,can0  204  [16]  E1 22 50 46 50 46 50 46 23 23 30 75 30 75 00 00
2026-02-20T17:36:21.867696,31.645,can0  204  [16]  E1 22 50 46 50 46 50 46 23 23 30 75 30 75 00 00
2026-02-20T17:36:21.870323,31.648,can0  206  [24]  83 0C 03 07 77 0C 99 C6 2E 07 83 0C 6F 0C 00 00 00 00 00 00 00 00 00 00
2026-02-20T17:36:21.968456,31.746,can0  204  [16]  E1 22 50 46 50 46 50 46 23 23 30 75 30 75 00 00
2026-02-20T17:36:21.968789,31.746,can0  100  [03]  75 3E 04
2026-02-20T17:36:21.971712,31.749,can0  204  [16]  E1 22 50 46 50 46 50 46 23 23 30 75 30 75 00 00
2026-02-20T17:36:22.067730,31.845,can0  041  [04]  10 01 02 00
2026-02-20T17:36:22.067884,31.845,can0  204  [16]  E1 22 50 46 50 46 50 46 23 23 30 75 30 75 00 00
2026-02-20T17:36:22.167832,31.945,can0  204  [16]  E1 22 50 46 50 46 50 46 23 23 30 75 30 75 00 00
2026-02-20T17:36:22.167974,31.945,can0  204  [16]  E1 22 50 46 50 46 50 46 23 23 30 75 30 75 00 00
2026-02-20T17:36:22.170773,31.948,can0  204  [16]  E1 22 50 46 50 46 50 46 23 23 30 75 30 75 00 00
2026-02-20T17:36:22.267817,32.045,can0  204  [16]  E1 22 50 46 50 46 50 46 23 23 30 75 30 75 00 00
2026-02-20T17:36:22.267927,32.045,can0  041  [04]  B5 00 05 00
2026-02-20T17:36:22.268027,32.045,can0  204  [16]  E1 22 50 46 50 46 50 46 23 23 30 75 30 75 00 00
2026-02-20T17:36:22.368160,32.145,can0  204  [16]  E1 22 50 46 50 46 50 46 23 23 30 75 30 75 00 00
2026-02-20T17:36:22.368497,32.146,can0  110  [02]  27 1D
2026-02-20T17:36:22.468042,32.245,can0  204  [16]  E1 22 50 46 50 46 50 46 23 23 30 75 30 75 00 00
2026-02-20T17:36:22.468138,32.245,can0  204  [16]  E1 22 50 46 50 46 50 46 23 23 30 75 30 75 00 00
2026-02-20T17:36:22.568403,32.346,can0  204  [16]  E1 22 50 46 50 46 50 46 23 23 30 75 30 75 00 00
2026-02-20T17:36:22.568535,32.346,can0  206  [24]  08 0D F4 06 73 0C 99 C6 32 07 7F 0C E6 0B 00 00 00 00 00 00 00 00 00 00
2026-02-20T17:36:22.568620,32.346,can0  041  [04]  5E 00 08 00
2026-02-20T17:36:22.568710,32.346,can0  204  [16]  E1 22 50 46 50 46 50 46 23 23 30 75 30 75 00 00
2026-02-20T17:36:22.668256,32.446,can0  204  [16]  E1 22 50 46 50 46 50 46 23 23 30 75 30 75 00 00
2026-02-20T17:36:22.668363,32.446,can0  204  [16]  E1 22 50 46 50 46 50 46 23 23 30 75 30 75 00 00
2026-02-20T17:36:22.777380,32.555,can0  204  [16]  E1 22 50 46 50 46 50 46 23 23 30 75 30 75 00 00
2026-02-20T17:36:22.777496,32.555,can0  204  [16]  E1 22 50 46 50 46 50 46 23 23 30 75 30 75 00 00
2026-02-20T17:36:22.850490,32.628,can0  204  [16]  E1 22 50 46 50 46 50 46 23 23 30 75 30 75 00 00
2026-02-20T17:36:22.850651,32.628,can0  041  [04]  6A 00 07 00
2026-02-20T17:36:22.850796,32.628,can0  204  [16]  E1 22 50 46 50 46 50 46 23 23 30 75 30 75 00 00
2026-02-20T17:36:22.967718,32.745,can0  204  [16]  E1 22 50 46 50 46 50 46 23 23 30 75 30 75 00 00
2026-02-20T17:36:22.970558,32.748,can0  204  [16]  E1 22 50 46 50 46 50 46 23 23 30 75 30 75 00 00
2026-02-20T17:36:23.067822,32.845,can0  204  [16]  E1 22 50 46 50 46 50 46 23 23 30 75 30 75 00 00
2026-02-20T17:36:23.068079,32.845,can0  204  [16]  E1 22 50 46 50 46 50 46 23 23 30 75 30 75 00 00
2026-02-20T17:36:23.068104,32.845,can0  041  [04]  83 00 02 00
2026-02-20T17:36:23.167899,32.945,can0  204  [16]  E1 22 50 46 50 46 50 46 23 23 30 75 30 75 00 00
2026-02-20T17:36:23.175471,32.953,can0  204  [16]  E1 22 50 46 50 46 50 46 23 23 30 75 30 75 00 00
2026-02-20T17:36:23.175789,32.953,can0  206  [24]  73 0C FF 06 77 0C 99 C6 36 07 83 0C 7B 0C 00 00 00 00 00 00 00 00 00 00
2026-02-20T17:36:23.268049,33.045,can0  204  [16]  E1 22 50 46 50 46 50 46 23 23 30 75 30 75 00 00
2026-02-20T17:36:23.268406,33.046,can0  100  [03]  73 3E 04
2026-02-20T17:36:23.268553,33.046,can0  204  [16]  E1 22 50 46 50 46 50 46 23 23 30 75 30 75 00 00
2026-02-20T17:36:23.368300,33.146,can0  204  [16]  E1 22 50 46 50 46 50 46 23 23 30 75 30 75 00 00
2026-02-20T17:36:23.368448,33.146,can0  041  [04]  97 00 08 00
2026-02-20T17:36:23.368620,33.146,can0  204  [16]  E1 22 50 46 50 46 50 46 23 23 30 75 30 75 00 00
2026-02-20T17:36:23.467555,33.245,can0  204  [16]  E1 22 50 46 50 46 50 46 23 23 30 75 30 75 00 00
2026-02-20T17:36:23.467697,33.245,can0  204  [16]  E1 22 50 46 50 46 50 46 23 23 30 75 30 75 00 00
2026-02-20T17:36:23.567742,33.345,can0  204  [16]  E1 22 50 46 50 46 50 46 23 23 30 75 30 75 00 00
2026-02-20T17:36:23.567879,33.345,can0  204  [16]  E1 22 50 46 50 46 50 46 23 23 30 75 30 75 00 00
2026-02-20T17:36:23.667834,33.445,can0  041  [04]  5D 00 00 00
2026-02-20T17:36:23.667979,33.445,can0  204  [16]  E1 22 50 46 50 46 50 46 23 23 30 75 30 75 00 00
2026-02-20T17:36:23.767674,33.545,can0  204  [16]  E1 22 50 46 50 46 50 46 23 23 30 75 30 75 00 00
2026-02-20T17:36:23.767805,33.545,can0  204  [16]  E1 22 50 46 50 46 50 46 23 23 30 75 30 75 00 00
2026-02-20T17:36:23.770814,33.548,can0  204  [16]  E1 22 50 46 50 46 50 46 23 23 30 75 30 75 00 00
2026-02-20T17:36:23.867762,33.645,can0  204  [16]  E1 22 50 46 50 46 50 46 23 23 30 75 30 75 00 00
2026-02-20T17:36:23.867923,33.645,can0  206  [24]  6B 0C FC 06 7F 0C 99 C6 32 07 83 0C 7B 0C 00 00 00 00 00 00 00 00 00 00
2026-02-20T17:36:23.868033,33.645,can0  041  [04]  B5 00 02 00
2026-02-20T17:36:23.871183,33.649,can0  204  [16]  E1 22 50 46 50 46 50 46 23 23 30 75 30 75 00 00
2026-02-20T17:36:23.967909,33.745,can0  204  [16]  E1 22 50 46 50 46 50 46 23 23 30 75 30 75 00 00
2026-02-20T17:36:23.968054,33.745,can0  204  [16]  E1 22 50 46 50 46 50 46 23 23 30 75 30 75 00 00
2026-02-20T17:36:24.067976,33.845,can0  204  [16]  E1 22 50 46 50 46 50 46 23 23 30 75 30 75 00 00
2026-02-20T17:36:24.068333,33.846,can0  110  [02]  27 1D
2026-02-20T17:36:24.068483,33.846,can0  204  [16]  E1 22 50 46 50 46 50 46 23 23 30 75 30 75 00 00
2026-02-20T17:36:24.168084,33.945,can0  204  [16]  E1 22 50 46 50 46 50 46 23 23 30 75 30 75 00 00
2026-02-20T17:36:24.168222,33.946,can0  041  [04]  8B 00 02 00
2026-02-20T17:36:24.168358,33.946,can0  204  [16]  E1 22 50 46 50 46 50 46 23 23 30 75 30 75 00 00
2026-02-20T17:36:24.268177,34.046,can0  204  [16]  E1 22 50 46 50 46 50 46 23 23 30 75 30 75 00 00
2026-02-20T17:36:24.268316,34.046,can0  204  [16]  E1 22 50 46 50 46 50 46 23 23 30 75 30 75 00 00
2026-02-20T17:36:24.368447,34.146,can0  204  [16]  E1 22 50 46 50 46 50 46 23 23 30 75 30 75 00 00
2026-02-20T17:36:24.368587,34.146,can0  204  [16]  E1 22 50 46 50 46 50 46 23 23 30 75 30 75 00 00
2026-02-20T17:36:24.467609,34.245,can0  041  [04]  52 00 05 00
2026-02-20T17:36:24.467767,34.245,can0  204  [16]  E1 22 50 46 50 46 50 46 23 23 30 75 30 75 00 00
2026-02-20T17:36:24.467893,34.245,can0  204  [16]  E1 22 50 46 50 46 50 46 23 23 30 75 30 75 00 00
2026-02-20T17:36:24.468084,34.245,can0  206  [24]  12 0C FC 06 73 0C 99 C6 30 07 8B 0C D7 0C 00 00 00 00 00 00 00 00 00 00
2026-02-20T17:36:24.468440,34.246,can0  100  [03]  75 3E 04
2026-02-20T17:36:24.567535,34.345,can0  204  [16]  E1 22 50 46 50 46 50 46 23 23 30 75 30 75 00 00
2026-02-20T17:36:24.668053,34.445,can0  204  [16]  E1 22 50 46 50 46 50 46 23 23 30 75 30 75 00 00
2026-02-20T17:36:24.668195,34.446,can0  204  [16]  E1 22 50 46 50 46 50 46 23 23 30 75 30 75 00 00
2026-02-20T17:36:24.668315,34.446,can0  041  [04]  8B 00 00 00
2026-02-20T17:36:24.768198,34.546,can0  204  [16]  E1 22 50 46 50 46 50 46 23 23 30 75 30 75 00 00
2026-02-20T17:36:24.768396,34.546,can0  204  [16]  E1 22 50 46 50 46 50 46 23 23 30 75 30 75 00 00
2026-02-20T17:36:24.867943,34.645,can0  204  [16]  E1 22 50 46 50 46 50 46 23 23 30 75 30 75 00 00
2026-02-20T17:36:24.871187,34.649,can0  204  [16]  E1 22 50 46 50 46 50 46 23 23 30 75 30 75 00 00
2026-02-20T17:36:24.968230,34.746,can0  204  [16]  E1 22 50 46 50 46 50 46 23 23 30 75 30 75 00 00
2026-02-20T17:36:24.968367,34.746,can0  041  [04]  B5 00 02 00
2026-02-20T17:36:24.968518,34.746,can0  204  [16]  E1 22 50 46 50 46 50 46 23 23 30 75 30 75 00 00
2026-02-20T17:36:25.067563,34.845,can0  204  [16]  E1 22 50 46 50 46 50 46 23 23 30 75 30 75 00 00
2026-02-20T17:36:25.067739,34.845,can0  204  [16]  E1 22 50 46 50 46 50 46 23 23 30 75 30 75 00 00
2026-02-20T17:36:25.167670,34.945,can0  204  [16]  E1 22 50 46 50 46 50 46 23 23 30 75 30 75 00 00
2026-02-20T17:36:25.167821,34.945,can0  206  [24]  77 0C 03 07 6F 0C 99 C6 3F 07 8B 0C 73 0C 00 00 00 00 00 00 00 00 00 00
2026-02-20T17:36:25.167920,34.945,can0  204  [16]  E1 22 50 46 50 46 50 46 23 23 30 75 30 75 00 00
2026-02-20T17:36:25.267507,35.045,can0  204  [16]  E1 22 50 46 50 46 50 46 23 23 30 75 30 75 00 00
2026-02-20T17:36:25.267748,35.045,can0  041  [04]  E4 00 04 00
2026-02-20T17:36:25.267777,35.045,can0  204  [16]  E1 22 50 46 50 46 50 46 23 23 30 75 30 75 00 00
2026-02-20T17:36:25.368491,35.146,can0  204  [16]  E1 22 50 46 50 46 50 46 23 23 30 75 30 75 00 00
2026-02-20T17:36:25.368652,35.146,can0  204  [16]  E1 22 50 46 50 46 50 46 23 23 30 75 30 75 00 00
2026-02-20T17:36:25.468476,35.246,can0  204  [16]  E1 22 50 46 50 46 50 46 23 23 30 75 30 75 00 00
2026-02-20T17:36:25.468683,35.246,can0  204  [16]  E1 22 50 46 50 46 50 46 23 23 30 75 30 75 00 00
2026-02-20T17:36:25.468885,35.246,can0  041  [04]  10 01 02 00
2026-02-20T17:36:25.568250,35.346,can0  204  [16]  E1 22 50 46 50 46 50 46 23 23 30 75 30 75 00 00
2026-02-20T17:36:25.568540,35.346,can0  204  [16]  E1 22 50 46 50 46 50 46 23 23 30 75 30 75 00 00
2026-02-20T17:36:25.668309,35.446,can0  204  [16]  E1 22 50 46 50 46 50 46 23 23 30 75 30 75 00 00
2026-02-20T17:36:25.668997,35.446,can0  204  [16]  E1 22 50 46 50 46 50 46 23 23 30 75 30 75 00 00
2026-02-20T17:36:25.767541,35.545,can0  204  [16]  E1 22 50 46 50 46 50 46 23 23 30 75 30 75 00 00
2026-02-20T17:36:25.767641,35.545,can0  041  [04]  3F 01 00 00
2026-02-20T17:36:25.767950,35.545,can0  100  [03]  71 3E 04
2026-02-20T17:36:25.768182,35.546,can0  110  [02]  28 1D
2026-02-20T17:36:25.771920,35.549,can0  204  [16]  E1 22 50 46 50 46 50 46 23 23 30 75 30 75 00 00
2026-02-20T17:36:25.868546,35.646,can0  206  [24]  7B 0C 01 07 63 0C B1 E0 32 07 9B 0C 73 0C 00 00 00 00 00 00 00 00 00 00
2026-02-20T17:36:25.868855,35.646,can0  204  [16]  E1 22 50 46 50 46 50 46 23 23 30 75 30 75 00 00
2026-02-20T17:36:25.869108,35.646,can0  204  [16]  E1 22 50 46 50 46 50 46 23 23 30 75 30 75 00 00
2026-02-20T17:36:25.968380,35.746,can0  204  [16]  E1 22 50 46 50 46 50 46 23 23 30 75 30 75 00 00
2026-02-20T17:36:25.968648,35.746,can0  204  [16]  E1 22 50 46 50 46 50 46 23 23 30 75 30 75 00 00
2026-02-20T17:36:26.068023,35.845,can0  041  [04]  10 01 05 00
2026-02-20T17:36:26.068181,35.846,can0  204  [16]  E1 22 50 46 50 46 50 46 23 23 30 75 30 75 00 00
2026-02-20T17:36:26.069589,35.847,can0  204  [16]  E1 22 50 46 50 46 50 46 23 23 30 75 30 75 00 00
2026-02-20T17:36:26.167872,35.945,can0  204  [16]  E1 22 50 46 50 46 50 46 23 23 30 75 30 75 00 00
2026-02-20T17:36:26.168016,35.945,can0  204  [16]  E1 22 50 46 50 46 50 46 23 23 30 75 30 75 00 00
2026-02-20T17:36:26.268371,36.046,can0  204  [16]  E1 22 50 46 50 46 50 46 23 23 30 75 30 75 00 00
2026-02-20T17:36:26.268505,36.046,can0  041  [04]  24 01 05 00
2026-02-20T17:36:26.271748,36.049,can0  204  [16]  E1 22 50 46 50 46 50 46 23 23 30 75 30 75 00 00
2026-02-20T17:36:26.368316,36.146,can0  204  [16]  E1 22 50 46 50 46 50 46 23 23 30 75 30 75 00 00
2026-02-20T17:36:26.368469,36.146,can0  204  [16]  E1 22 50 46 50 46 50 46 23 23 30 75 30 75 00 00
2026-02-20T17:36:26.468400,36.246,can0  204  [16]  E1 22 50 46 50 46 50 46 23 23 30 75 30 75 00 00
2026-02-20T17:36:26.468547,36.246,can0  206  [24]  63 0C 07 07 7B 0C DA DC 32 07 7B 0C 7F 0C 00 00 00 00 00 00 00 00 00 00
2026-02-20T17:36:26.470276,36.248,can0  204  [16]  E1 22 50 46 50 46 50 46 23 23 30 75 30 75 00 00
2026-02-20T17:36:26.567573,36.345,can0  204  [16]  E1 22 50 46 50 46 50 46 23 23 30 75 30 75 00 00
2026-02-20T17:36:26.567707,36.345,can0  041  [04]  10 01 02 00
2026-02-20T17:36:26.571271,36.349,can0  204  [16]  E1 22 50 46 50 46 50 46 23 23 30 75 30 75 00 00
2026-02-20T17:36:26.668167,36.446,can0  204  [16]  E1 22 50 46 50 46 50 46 23 23 30 75 30 75 00 00
2026-02-20T17:36:26.668272,36.446,can0  204  [16]  E1 22 50 46 50 46 50 46 23 23 30 75 30 75 00 00
2026-02-20T17:36:26.768228,36.546,can0  204  [16]  E1 22 50 46 50 46 50 46 23 23 30 75 30 75 00 00
2026-02-20T17:36:26.768333,36.546,can0  204  [16]  E1 22 50 46 50 46 50 46 23 23 30 75 30 75 00 00
2026-02-20T17:36:26.868165,36.646,can0  041  [04]  10 01 02 00
2026-02-20T17:36:26.868268,36.646,can0  204  [16]  E1 22 50 46 50 46 50 46 23 23 30 75 30 75 00 00
2026-02-20T17:36:26.868357,36.646,can0  204  [16]  E1 22 50 46 50 46 50 46 23 23 30 75 30 75 00 00
2026-02-20T17:36:26.968320,36.746,can0  204  [16]  E1 22 50 46 50 46 50 46 23 23 30 75 30 75 00 00
2026-02-20T17:36:26.968427,36.746,can0  204  [16]  E1 22 50 46 50 46 50 46 23 23 30 75 30 75 00 00
2026-02-20T17:36:27.067703,36.845,can0  100  [03]  70 3E 04
2026-02-20T17:36:27.067889,36.845,can0  204  [16]  E1 22 50 46 50 46 50 46 23 23 30 75 30 75 00 00
2026-02-20T17:36:27.067977,36.845,can0  041  [04]  02 00 06 00
2026-02-20T17:36:27.068092,36.845,can0  206  [24]  6F 0C 07 07 67 0C 99 C6 32 07 83 0C 83 0C 00 00 00 00 00 00 00 00 00 00
2026-02-20T17:36:27.167642,36.945,can0  204  [16]  E1 22 50 46 50 46 50 46 23 23 30 75 30 75 00 00
2026-02-20T17:36:27.167781,36.945,can0  204  [16]  E1 22 50 46 50 46 50 46 23 23 30 75 30 75 00 00
2026-02-20T17:36:27.268314,37.046,can0  204  [16]  E1 22 50 46 50 46 50 46 23 23 30 75 30 75 00 00
2026-02-20T17:36:27.268455,37.046,can0  204  [16]  E1 22 50 46 50 46 50 46 23 23 30 75 30 75 00 00
2026-02-20T17:36:27.367719,37.145,can0  204  [16]  E1 22 50 46 50 46 50 46 23 23 30 75 30 75 00 00
2026-02-20T17:36:27.367854,37.145,can0  041  [04]  02 00 05 00
2026-02-20T17:36:27.370689,37.148,can0  204  [16]  E1 22 50 46 50 46 50 46 23 23 30 75 30 75 00 00
2026-02-20T17:36:27.472751,37.250,can0  204  [16]  E1 22 50 46 50 46 50 46 23 23 30 75 30 75 00 00
2026-02-20T17:36:27.473131,37.250,can0  110  [02]  27 1D
2026-02-20T17:36:27.476973,37.254,can0  204  [16]  E1 22 50 46 50 46 50 46 23 23 30 75 30 75 00 00
2026-02-20T17:36:27.568102,37.345,can0  204  [16]  E1 22 50 46 50 46 50 46 23 23 30 75 30 75 00 00
2026-02-20T17:36:27.568208,37.346,can0  204  [16]  E1 22 50 46 50 46 50 46 23 23 30 75 30 75 00 00
2026-02-20T17:36:27.667929,37.445,can0  041  [04]  5E 01 00 00
2026-02-20T17:36:27.668038,37.445,can0  204  [16]  E1 22 50 46 50 46 50 46 23 23 30 75 30 75 00 00
2026-02-20T17:36:27.668129,37.445,can0  204  [16]  E1 22 50 46 50 46 50 46 23 23 30 75 30 75 00 00
2026-02-20T17:36:27.767735,37.545,can0  204  [16]  E1 22 50 46 50 46 50 46 23 23 30 75 30 75 00 00
2026-02-20T17:36:27.767859,37.545,can0  206  [24]  7F 0C 05 07 73 0C 99 C6 32 07 93 0C 6B 0C 00 00 00 00 00 00 00 00 00 00
2026-02-20T17:36:27.767956,37.545,can0  204  [16]  E1 22 50 46 50 46 50 46 23 23 30 75 30 75 00 00
2026-02-20T17:36:27.867598,37.645,can0  204  [16]  E1 22 50 46 50 46 50 46 23 23 30 75 30 75 00 00
2026-02-20T17:36:27.867735,37.645,can0  204  [16]  E1 22 50 46 50 46 50 46 23 23 30 75 30 75 00 00
2026-02-20T17:36:27.870648,37.648,can0  041  [04]  5A 01 00 00
2026-02-20T17:36:27.968015,37.745,can0  204  [16]  E1 22 50 46 50 46 50 46 23 23 30 75 30 75 00 00
2026-02-20T17:36:27.968163,37.745,can0  204  [16]  E1 22 50 46 50 46 50 46 23 23 30 75 30 75 00 00
2026-02-20T17:36:28.067741,37.845,can0  204  [16]  E1 22 50 46 50 46 50 46 23 23 30 75 30 75 00 00
2026-02-20T17:36:28.067879,37.845,can0  204  [16]  E1 22 50 46 50 46 50 46 23 23 30 75 30 75 00 00
2026-02-20T17:36:28.167709,37.945,can0  204  [16]  E1 22 50 46 50 46 50 46 23 23 30 75 30 75 00 00
2026-02-20T17:36:28.175186,37.953,can0  041  [04]  52 01 04 00
2026-02-20T17:36:28.175258,37.953,can0  204  [16]  E1 22 50 46 50 46 50 46 23 23 30 75 30 75 00 00
2026-02-20T17:36:28.280556,38.058,can0  204  [16]  E1 22 50 46 50 46 50 46 23 23 30 75 30 75 00 00
2026-02-20T17:36:28.280644,38.058,can0  204  [16]  E1 22 50 46 50 46 50 46 23 23 30 75 30 75 00 00
2026-02-20T17:36:28.281081,38.058,can0  100  [03]  70 3E 04
2026-02-20T17:36:28.368495,38.146,can0  204  [16]  E1 22 50 46 50 46 50 46 23 23 30 75 30 75 00 00
2026-02-20T17:36:28.368668,38.146,can0  204  [16]  E1 22 50 46 50 46 50 46 23 23 30 75 30 75 00 00
2026-02-20T17:36:28.368805,38.146,can0  206  [24]  73 0C 03 07 73 0C 3A DF 2E 07 87 0C 77 0C 00 00 00 00 00 00 00 00 00 00
2026-02-20T17:36:28.467729,38.245,can0  041  [04]  3F 01 04 00
2026-02-20T17:36:28.467843,38.245,can0  204  [16]  E1 22 50 46 50 46 50 46 23 23 30 75 30 75 00 00
2026-02-20T17:36:28.467928,38.245,can0  204  [16]  E1 22 50 46 50 46 50 46 23 23 30 75 30 75 00 00
2026-02-20T17:36:28.568012,38.345,can0  204  [16]  E1 22 50 46 50 46 50 46 23 23 30 75 30 75 00 00
2026-02-20T17:36:28.568118,38.345,can0  204  [16]  E1 22 50 46 50 46 50 46 23 23 30 75 30 75 00 00
2026-02-20T17:36:28.667940,38.445,can0  204  [16]  E1 22 50 46 50 46 50 46 23 23 30 75 30 75 00 00
2026-02-20T17:36:28.668043,38.445,can0  041  [04]  B5 00 00 00
2026-02-20T17:36:28.668127,38.445,can0  204  [16]  E1 22 50 46 50 46 50 46 23 23 30 75 30 75 00 00
2026-02-20T17:36:28.768035,38.545,can0  204  [16]  E1 22 50 46 50 46 50 46 23 23 30 75 30 75 00 00
2026-02-20T17:36:28.768145,38.545,can0  204  [16]  E1 22 50 46 50 46 50 46 23 23 30 75 30 75 00 00
2026-02-20T17:36:28.867922,38.645,can0  204  [16]  E1 22 50 46 50 46 50 46 23 23 30 75 30 75 00 00
2026-02-20T17:36:28.868028,38.645,can0  204  [16]  E1 22 50 46 50 46 50 46 23 23 30 75 30 75 00 00
2026-02-20T17:36:28.967703,38.745,can0  041  [04]  5D 00 02 00
2026-02-20T17:36:28.967819,38.745,can0  204  [16]  E1 22 50 46 50 46 50 46 23 23 30 75 30 75 00 00
2026-02-20T17:36:28.967917,38.745,can0  204  [16]  E1 22 50 46 50 46 50 46 23 23 30 75 30 75 00 00
2026-02-20T17:36:29.067846,38.845,can0  204  [16]  E1 22 50 46 50 46 50 46 23 23 30 75 30 75 00 00
2026-02-20T17:36:29.067988,38.845,can0  206  [24]  7B 0C 01 07 77 0C 99 C6 2E 07 87 0C 6F 0C 00 00 00 00 00 00 00 00 00 00
2026-02-20T17:36:29.068076,38.845,can0  204  [16]  E1 22 50 46 50 46 50 46 23 23 30 75 30 75 00 00
2026-02-20T17:36:29.167987,38.945,can0  110  [02]  27 1D
2026-02-20T17:36:29.168146,38.945,can0  204  [16]  E1 22 50 46 50 46 50 46 23 23 30 75 30 75 00 00
2026-02-20T17:36:29.168269,38.946,can0  204  [16]  E1 22 50 46 50 46 50 46 23 23 30 75 30 75 00 00
2026-02-20T17:36:29.171239,38.949,can0  041  [04]  43 00 00 00
2026-02-20T17:36:29.268129,39.045,can0  204  [16]  E1 22 50 46 50 46 50 46 23 23 30 75 30 75 00 00
2026-02-20T17:36:29.268264,39.046,can0  204  [16]  E1 22 50 46 50 46 50 46 23 23 30 75 30 75 00 00
2026-02-20T17:36:29.368027,39.145,can0  204  [16]  E1 22 50 46 50 46 50 46 23 23 30 75 30 75 00 00
2026-02-20T17:36:29.368134,39.145,can0  204  [16]  E1 22 50 46 50 46 50 46 23 23 30 75 30 75 00 00
2026-02-20T17:36:29.468383,39.246,can0  204  [16]  E1 22 50 46 50 46 50 46 23 23 30 75 30 75 00 00
2026-02-20T17:36:29.468515,39.246,can0  041  [04]  5E 00 07 00
2026-02-20T17:36:29.471284,39.249,can0  204  [16]  E1 22 50 46 50 46 50 46 23 23 30 75 30 75 00 00
2026-02-20T17:36:29.568502,39.346,can0  204  [16]  E1 22 50 46 50 46 50 46 23 23 30 75 30 75 00 00
2026-02-20T17:36:29.568836,39.346,can0  100  [03]  6C 3E 04
2026-02-20T17:36:29.668029,39.445,can0  204  [16]  E1 22 50 46 50 46 50 46 23 23 30 75 30 75 00 00
2026-02-20T17:36:29.668141,39.445,can0  204  [16]  E1 22 50 46 50 46 50 46 23 23 30 75 30 75 00 00
2026-02-20T17:36:29.671180,39.449,can0  206  [24]  77 0C 07 07 73 0C 3A DF 32 07 7F 0C 77 0C 00 00 00 00 00 00 00 00 00 00
2026-02-20T17:36:29.767655,39.545,can0  204  [16]  E1 22 50 46 50 46 50 46 23 23 30 75 30 75 00 00
2026-02-20T17:36:29.767788,39.545,can0  041  [04]  7A 00 07 00
2026-02-20T17:36:29.767890,39.545,can0  204  [16]  E1 22 50 46 50 46 50 46 23 23 30 75 30 75 00 00
2026-02-20T17:36:29.867530,39.645,can0  204  [16]  E1 22 50 46 50 46 50 46 23 23 30 75 30 75 00 00
2026-02-20T17:36:29.867704,39.645,can0  204  [16]  E1 22 50 46 50 46 50 46 23 23 30 75 30 75 00 00
2026-02-20T17:36:29.967838,39.745,can0  204  [16]  E1 22 50 46 50 46 50 46 23 23 30 75 30 75 00 00
2026-02-20T17:36:29.967976,39.745,can0  204  [16]  E1 22 50 46 50 46 50 46 23 23 30 75 30 75 00 00
2026-02-20T17:36:30.067569,39.845,can0  041  [04]  93 00 06 00
2026-02-20T17:36:30.067725,39.845,can0  204  [16]  E1 22 50 46 50 46 50 46 23 23 30 75 30 75 00 00
2026-02-20T17:36:30.070572,39.848,can0  204  [16]  E1 22 50 46 50 46 50 46 23 23 30 75 30 75 00 00
2026-02-20T17:36:30.167854,39.945,can0  204  [16]  E1 22 50 46 50 46 50 46 23 23 30 75 30 75 00 00
2026-02-20T17:36:30.167991,39.945,can0  204  [16]  E1 22 50 46 50 46 50 46 23 23 30 75 30 75 00 00
2026-02-20T17:36:30.268138,40.045,can0  204  [16]  E1 22 50 46 50 46 50 46 23 23 30 75 30 75 00 00
2026-02-20T17:36:30.268282,40.046,can0  204  [16]  E1 22 50 46 50 46 50 46 23 23 30 75 30 75 00 00
2026-02-20T17:36:30.271272,40.049,can0  041  [04]  A7 00 05 00
2026-02-20T17:36:30.371518,40.149,can0  204  [16]  E1 22 50 46 50 46 50 46 23 23 30 75 30 75 00 00
2026-02-20T17:36:30.371673,40.149,can0  206  [24]  67 0C 03 07 77 0C B1 E0 30 07 83 0C 7B 0C 00 00 00 00 00 00 00 00 00 00
2026-02-20T17:36:30.371799,40.149,can0  204  [16]  E1 22 50 46 50 46 50 46 23 23 30 75 30 75 00 00
2026-02-20T17:36:30.467986,40.245,can0  204  [16]  E1 22 50 46 50 46 50 46 23 23 30 75 30 75 00 00
2026-02-20T17:36:30.468098,40.245,can0  204  [16]  E1 22 50 46 50 46 50 46 23 23 30 75 30 75 00 00
2026-02-20T17:36:30.568123,40.345,can0  204  [16]  E1 22 50 46 50 46 50 46 23 23 30 75 30 75 00 00
2026-02-20T17:36:30.568240,40.346,can0  041  [04]  10 01 07 00
2026-02-20T17:36:30.568332,40.346,can0  204  [16]  E1 22 50 46 50 46 50 46 23 23 30 75 30 75 00 00
2026-02-20T17:36:30.668375,40.446,can0  204  [16]  E1 22 50 46 50 46 50 46 23 23 30 75 30 75 00 00
2026-02-20T17:36:30.668483,40.446,can0  204  [16]  E1 22 50 46 50 46 50 46 23 23 30 75 30 75 00 00
2026-02-20T17:36:30.767620,40.545,can0  204  [16]  E1 22 50 46 50 46 50 46 23 23 30 75 30 75 00 00
2026-02-20T17:36:30.767736,40.545,can0  204  [16]  E1 22 50 46 50 46 50 46 23 23 30 75 30 75 00 00
2026-02-20T17:36:30.767828,40.545,can0  041  [04]  06 01 07 00
2026-02-20T17:36:30.868453,40.646,can0  100  [03]  69 3E 04
2026-02-20T17:36:30.868680,40.646,can0  110  [02]  26 1D
2026-02-20T17:36:30.868788,40.646,can0  204  [16]  E1 22 50 46 50 46 50 46 23 23 30 75 30 75 00 00
2026-02-20T17:36:30.868874,40.646,can0  204  [16]  E1 22 50 46 50 46 50 46 23 23 30 75 30 75 00 00
2026-02-20T17:36:30.967868,40.745,can0  204  [16]  E1 22 50 46 50 46 50 46 23 23 30 75 30 75 00 00
2026-02-20T17:36:30.967974,40.745,can0  204  [16]  E1 22 50 46 50 46 50 46 23 23 30 75 30 75 00 00
2026-02-20T17:36:30.968096,40.745,can0  206  [24]  73 0C FC 06 7F 0C DA DC 32 07 7F 0C 77 0C 00 00 00 00 00 00 00 00 00 00
2026-02-20T17:36:31.068353,40.846,can0  204  [16]  E1 22 50 46 50 46 50 46 23 23 30 75 30 75 00 00
2026-02-20T17:36:31.068459,40.846,can0  041  [04]  10 01 05 00
2026-02-20T17:36:31.068551,40.846,can0  204  [16]  E1 22 50 46 50 46 50 46 23 23 30 75 30 75 00 00
2026-02-20T17:36:31.168377,40.946,can0  204  [16]  E1 22 50 46 50 46 50 46 23 23 30 75 30 75 00 00
2026-02-20T17:36:31.168483,40.946,can0  204  [16]  E1 22 50 46 50 46 50 46 23 23 30 75 30 75 00 00
2026-02-20T17:36:31.267591,41.045,can0  204  [16]  E1 22 50 46 50 46 50 46 23 23 30 75 30 75 00 00
2026-02-20T17:36:31.267733,41.045,can0  204  [16]  E1 22 50 46 50 46 50 46 23 23 30 75 30 75 00 00
2026-02-20T17:36:31.367693,41.145,can0  041  [04]  B5 00 00 00
2026-02-20T17:36:31.367839,41.145,can0  204  [16]  E1 22 50 46 50 46 50 46 23 23 30 75 30 75 00 00
2026-02-20T17:36:31.370816,41.148,can0  204  [16]  E1 22 50 46 50 46 50 46 23 23 30 75 30 75 00 00
2026-02-20T17:36:31.469095,41.246,can0  204  [16]  E1 22 50 46 50 46 50 46 23 23 30 75 30 75 00 00
2026-02-20T17:36:31.469247,41.247,can0  204  [16]  E1 22 50 46 50 46 50 46 23 23 30 75 30 75 00 00
2026-02-20T17:36:31.568034,41.345,can0  204  [16]  E1 22 50 46 50 46 50 46 23 23 30 75 30 75 00 00
2026-02-20T17:36:31.568201,41.346,can0  204  [16]  E1 22 50 46 50 46 50 46 23 23 30 75 30 75 00 00
2026-02-20T17:36:31.571234,41.349,can0  041  [04]  7A 00 02 00
2026-02-20T17:36:31.668011,41.445,can0  206  [24]  7B 0C 05 07 6F 0C 99 C6 36 07 93 0C 73 0C 00 00 00 00 00 00 00 00 00 00
2026-02-20T17:36:31.671087,41.448,can0  204  [16]  E1 22 50 46 50 46 50 46 23 23 30 75 30 75 00 00
2026-02-20T17:36:31.671116,41.448,can0  204  [16]  E1 22 50 46 50 46 50 46 23 23 30 75 30 75 00 00
2026-02-20T17:36:31.768362,41.546,can0  204  [16]  E1 22 50 46 50 46 50 46 23 23 30 75 30 75 00 00
2026-02-20T17:36:31.868005,41.645,can0  204  [16]  E1 22 50 46 50 46 50 46 23 23 30 75 30 75 00 00
2026-02-20T17:36:31.868175,41.646,can0  204  [16]  E1 22 50 46 50 46 50 46 23 23 30 75 30 75 00 00
