Timestamp,Elapsed_Time_s,CAN_Message
2026-02-20T16:40:47.034856,0.784,can0  204  [16]  4B 23 50 46 50 46 50 46 28 23 30 75 30 75 00 00
2026-02-20T16:40:47.035011,0.784,can0  070  [20]  53 F8 4C 08 17 F6 61 03 C8 AF 00 00 28 00 00 00 3A 00 00 00
2026-02-20T16:40:47.035181,0.784,can0  204  [16]  4B 23 50 46 50 46 50 46 28 23 30 75 30 75 00 00
2026-02-20T16:40:47.035311,0.784,can0  041  [04]  8B 00 05 00
2026-02-20T16:40:47.144979,0.894,can0  204  [16]  4B 23 50 46 50 46 50 46 28 23 30 75 30 75 00 00
2026-02-20T16:40:47.145120,0.894,can0  204  [16]  4B 23 50 46 50 46 50 46 28 23 30 75 30 75 00 00
2026-02-20T16:40:47.252864,1.002,can0  204  [16]  4B 23 50 46 50 46 50 46 28 23 30 75 30 75 00 00
2026-02-20T16:40:47.253086,1.002,can0  206  [24]  77 0C 82 07 77 0C C5 E1 82 07 8F 0C 7B 0C 00 00 00 00 00 00 00 00 00 00
2026-02-20T16:40:47.253223,1.002,can0  204  [16]  4B 23 50 46 50 46 50 46 28 23 30 75 30 75 00 00
2026-02-20T16:40:47.338296,1.087,can0  204  [16]  4B 23 50 46 50 46 50 46 28 23 30 75 30 75 00 00
2026-02-20T16:40:47.338486,1.088,can0  041  [04]  8B 00 02 00
2026-02-20T16:40:47.338664,1.088,can0  070  [20]  53 F8 4C 08 15 F6 61 03 B0 B3 00 00 28 00 00 00 18 00 00 00
2026-02-20T16:40:47.341443,1.091,can0  204  [16]  4B 23 50 46 50 46 50 46 28 23 30 75 30 75 00 00
2026-02-20T16:40:47.450555,1.200,can0  070  [20]  53 F8 4C 08 15 F6 61 03 B0 B3 00 00 28 00 00 00 17 00 00 00
2026-02-20T16:40:47.450630,1.200,can0  204  [16]  4B 23 50 46 50 46 50 46 28 23 30 75 30 75 00 00
2026-02-20T16:40:47.450669,1.200,can0  100  [03]  45 53 04
2026-02-20T16:40:47.450707,1.200,can0  204  [16]  4B 23 50 46 50 46 50 46 28 23 30 75 30 75 00 00
2026-02-20T16:40:47.543909,1.293,can0  070  [20]  53 F8 4C 08 15 F6 61 03 B0 B3 00 00 28 00 00 00 17 00 00 00
2026-02-20T16:40:47.544038,1.293,can0  060  [32]  00 00 00 00 00 00 00 00 00 00 00 00 00 00 00 00 00 00 00 00 00 00 00 00 00 00 00 00 00 00 00 00
2026-02-20T16:40:47.544395,1.294,can0  204  [16]  4B 23 50 46 50 46 50 46 28 23 30 75 30 75 00 00
2026-02-20T16:40:47.544565,1.294,can0  204  [16]  4B 23 50 46 50 46 50 46 28 23 30 75 30 75 00 00
2026-02-20T16:40:47.664986,1.414,can0  041  [04]  B5 00 02 00
2026-02-20T16:40:47.665183,1.414,can0  204  [16]  4B 23 50 46 50 46 50 46 28 23 30 75 30 75 00 00
2026-02-20T16:40:47.665360,1.415,can0  204  [16]  4B 23 50 46 50 46 50 46 28 23 30 75 30 75 00 00
2026-02-20T16:40:47.743764,1.493,can0  204  [16]  4B 23 50 46 50 46 50 46 28 23 30 75 30 75 00 00
2026-02-20T16:40:47.743943,1.493,can0  204  [16]  4B 23 50 46 50 46 50 46 28 23 30 75 30 75 00 00
2026-02-20T16:40:47.852671,1.602,can0  204  [16]  4B 23 50 46 50 46 50 46 28 23 30 75 30 75 00 00
2026-02-20T16:40:47.853440,1.603,can0  204  [16]  4B 23 50 46 50 46 50 46 28 23 30 75 30 75 00 00
2026-02-20T16:40:47.853507,1.603,can0  110  [02]  E2 1C
2026-02-20T16:40:47.853830,1.603,can0  041  [04]  10 01 02 00
2026-02-20T16:40:47.964774,1.714,can0  206  [24]  7B 0C 79 07 7B 0C 99 C6 84 07 83 0C 7B 0C 00 00 00 00 00 00 00 00 00 00
2026-02-20T16:40:47.964963,1.714,can0  204  [16]  4B 23 50 46 50 46 50 46 28 23 30 75 30 75 00 00
2026-02-20T16:40:47.965129,1.714,can0  070  [20]  53 F8 4C 08 15 F6 61 03 B0 B3 00 00 28 00 00 00 17 00 00 00
2026-02-20T16:40:47.965305,1.714,can0  204  [16]  4B 23 50 46 50 46 50 46 28 23 30 75 30 75 00 00
2026-02-20T16:40:48.038820,1.788,can0  060  [32]  00 00 00 00 53 F8 4C 08 6A 4B B7 10 00 00 10 0E FF 01 80 00 00 00 00 00 01 00 00 00 00 00 00 00
2026-02-20T16:40:48.039657,1.789,can0  204  [16]  4B 23 50 46 50 46 50 46 28 23 30 75 30 75 00 00
2026-02-20T16:40:48.039974,1.789,can0  204  [16]  4B 23 50 46 50 46 50 46 28 23 30 75 30 75 00 00
2026-02-20T16:40:48.151353,1.901,can0  204  [16]  4B 23 50 46 50 46 50 46 28 23 30 75 30 75 00 00
2026-02-20T16:40:48.151530,1.901,can0  041  [04]  3F 01 00 00
2026-02-20T16:40:48.257809,2.007,can0  204  [16]  4B 23 50 46 50 46 50 46 28 23 30 75 30 75 00 00
2026-02-20T16:40:48.257979,2.007,can0  204  [16]  4B 23 50 46 50 46 50 46 28 23 30 75 30 75 00 00
2026-02-20T16:40:48.361460,2.111,can0  204  [16]  4B 23 50 46 50 46 50 46 28 23 30 75 30 75 00 00
2026-02-20T16:40:48.361622,2.111,can0  204  [16]  4B 23 50 46 50 46 50 46 28 23 30 75 30 75 00 00
2026-02-20T16:40:48.464905,2.214,can0  070  [20]  51 F8 4C 08 13 F6 61 03 98 B7 00 00 28 00 00 00 57 00 00 00
2026-02-20T16:40:48.465092,2.214,can0  204  [16]  4B 23 50 46 50 46 50 46 28 23 30 75 30 75 00 00
2026-02-20T16:40:48.465243,2.214,can0  070  [20]  51 F8 4C 08 13 F6 61 03 98 B7 00 00 28 00 00 00 57 00 00 00
2026-02-20T16:40:48.465385,2.215,can0  041  [04]  3F 01 00 00
2026-02-20T16:40:48.465540,2.215,can0  204  [16]  4B 23 50 46 50 46 50 46 28 23 30 75 30 75 00 00
2026-02-20T16:40:48.535456,2.285,can0  204  [16]  4B 23 50 46 50 46 50 46 28 23 30 75 30 75 00 00
2026-02-20T16:40:48.535559,2.285,can0  060  [32]  00 00 00 00 00 00 00 00 00 00 00 00 00 00 00 00 00 00 00 00 00 00 00 00 00 00 00 00 00 00 00 00
2026-02-20T16:40:48.535801,2.285,can0  070  [20]  51 F8 4C 08 13 F6 61 03 98 B7 00 00 28 00 00 00 57 00 00 00
2026-02-20T16:40:48.536039,2.285,can0  206  [24]  6F 0C 79 07 7B 0C 99 C6 7D 07 8B 0C 87 0C 00 00 00 00 00 00 00 00 00 00
2026-02-20T16:40:48.536219,2.285,can0  204  [16]  4B 23 50 46 50 46 50 46 28 23 30 75 30 75 00 00
2026-02-20T16:40:48.649385,2.399,can0  204  [16]  4B 23 50 46 50 46 50 46 28 23 30 75 30 75 00 00
2026-02-20T16:40:48.649621,2.399,can0  204  [16]  4B 23 50 46 50 46 50 46 28 23 30 75 30 75 00 00
2026-02-20T16:40:48.649789,2.399,can0  041  [04]  B5 00 05 00
2026-02-20T16:40:48.747693,2.497,can0  204  [16]  4B 23 50 46 50 46 50 46 28 23 30 75 30 75 00 00
2026-02-20T16:40:48.748117,2.497,can0  100  [03]  49 53 04
2026-02-20T16:40:48.748317,2.497,can0  204  [16]  4B 23 50 46 50 46 50 46 28 23 30 75 30 75 00 00
2026-02-20T16:40:48.854501,2.604,can0  204  [16]  4B 23 50 46 50 46 50 46 28 23 30 75 30 75 00 00
2026-02-20T16:40:48.854711,2.604,can0  204  [16]  4B 23 50 46 50 46 50 46 28 23 30 75 30 75 00 00
2026-02-20T16:40:48.962266,2.711,can0  204  [16]  4B 23 50 46 50 46 50 46 28 23 30 75 30 75 00 00
2026-02-20T16:40:48.962328,2.712,can0  041  [04]  B5 00 05 00
2026-02-20T16:40:48.967389,2.717,can0  204  [16]  4B 23 50 46 50 46 50 46 28 23 30 75 30 75 00 00
2026-02-20T16:40:49.037268,2.786,can0  204  [16]  4B 23 50 46 50 46 50 46 28 23 30 75 30 75 00 00
2026-02-20T16:40:49.037505,2.787,can0  070  [20]  51 F8 4C 08 13 F6 61 03 98 B7 00 00 28 00 00 00 57 00 00 00
2026-02-20T16:40:49.037552,2.787,can0  060  [32]  00 00 00 00 00 00 00 00 00 00 00 00 00 00 00 00 00 00 00 00 00 00 00 00 00 00 00 00 00 00 00 00
2026-02-20T16:40:49.038102,2.787,can0  060  [32]  00 00 00 00 51 F8 4C 08 68 4B B7 10 00 00 10 0E FF 01 80 00 00 00 00 00 01 00 00 00 00 00 00 00
2026-02-20T16:40:49.038149,2.787,can0  204  [16]  4B 23 50 46 50 46 50 46 28 23 30 75 30 75 00 00
2026-02-20T16:40:49.150997,2.900,can0  204  [16]  4B 23 50 46 50 46 50 46 28 23 30 75 30 75 00 00
2026-02-20T16:40:49.151392,2.901,can0  204  [16]  4B 23 50 46 50 46 50 46 28 23 30 75 30 75 00 00
2026-02-20T16:40:49.151433,2.901,can0  206  [24]  2A 0C 79 07 7F 0C 99 C6 86 07 83 0C CB 0C 00 00 00 00 00 00 00 00 00 00
2026-02-20T16:40:49.261044,3.010,can0  204  [16]  4B 23 50 46 50 46 50 46 28 23 30 75 30 75 00 00
2026-02-20T16:40:49.261185,3.010,can0  041  [04]  B5 00 05 00
2026-02-20T16:40:49.261366,3.011,can0  204  [16]  4B 23 50 46 50 46 50 46 28 23 30 75 30 75 00 00
2026-02-20T16:40:49.332088,3.081,can0  204  [16]  4B 23 50 46 50 46 50 46 28 23 30 75 30 75 00 00
2026-02-20T16:40:49.332280,3.081,can0  204  [16]  4B 23 50 46 50 46 50 46 28 23 30 75 30 75 00 00
2026-02-20T16:40:49.449278,3.198,can0  070  [20]  51 F8 4C 08 12 F6 61 03 80 BB 00 00 28 00 00 00 4A 00 00 00
2026-02-20T16:40:49.449471,3.199,can0  204  [16]  4B 23 50 46 50 46 50 46 28 23 30 75 30 75 00 00
2026-02-20T16:40:49.449622,3.199,can0  070  [20]  51 F8 4C 08 12 F6 61 03 80 BB 00 00 28 00 00 00 4B 00 00 00
2026-02-20T16:40:49.452491,3.202,can0  204  [16]  4B 23 50 46 50 46 50 46 28 23 30 75 30 75 00 00
2026-02-20T16:40:49.452522,3.202,can0  041  [04]  E4 00 02 00
2026-02-20T16:40:49.543866,3.293,can0  204  [16]  4B 23 50 46 50 46 50 46 28 23 30 75 30 75 00 00
2026-02-20T16:40:49.544035,3.293,can0  070  [20]  51 F8 4C 08 12 F6 61 03 80 BB 00 00 28 00 00 00 4B 00 00 00
2026-02-20T16:40:49.544153,3.293,can0  060  [32]  00 00 00 00 00 00 00 00 00 00 00 00 00 00 00 00 00 00 00 00 00 00 00 00 00 00 00 00 00 00 00 00
2026-02-20T16:40:49.544654,3.294,can0  110  [02]  DE 1C
2026-02-20T16:40:49.544851,3.294,can0  204  [16]  4B 23 50 46 50 46 50 46 28 23 30 75 30 75 00 00
2026-02-20T16:40:49.648752,3.398,can0  204  [16]  4B 23 50 46 50 46 50 46 28 23 30 75 30 75 00 00
2026-02-20T16:40:49.648936,3.398,can0  204  [16]  4B 23 50 46 50 46 50 46 28 23 30 75 30 75 00 00
2026-02-20T16:40:49.742355,3.492,can0  204  [16]  4B 23 50 46 50 46 50 46 28 23 30 75 30 75 00 00
2026-02-20T16:40:49.742694,3.492,can0  041  [04]  10 01 02 00
2026-02-20T16:40:49.742742,3.492,can0  204  [16]  4B 23 50 46 50 46 50 46 28 23 30 75 30 75 00 00
2026-02-20T16:40:49.836444,3.586,can0  204  [16]  4B 23 50 46 50 46 50 46 28 23 30 75 30 75 00 00
2026-02-20T16:40:49.836619,3.586,can0  206  [24]  83 0C 7B 07 77 0C 3A DF 82 07 7F 0C 77 0C 00 00 00 00 00 00 00 00 00 00
2026-02-20T16:40:49.836755,3.586,can0  204  [16]  4B 23 50 46 50 46 50 46 28 23 30 75 30 75 00 00
2026-02-20T16:40:49.933614,3.683,can0  204  [16]  4B 23 50 46 50 46 50 46 28 23 30 75 30 75 00 00
2026-02-20T16:40:49.933827,3.683,can0  204  [16]  4B 23 50 46 50 46 50 46 28 23 30 75 30 75 00 00
2026-02-20T16:40:49.934269,3.683,can0  100  [03]  47 53 04
2026-02-20T16:40:50.035155,3.784,can0  070  [20]  51 F8 4C 08 12 F6 61 03 80 BB 00 00 28 00 00 00 4B 00 00 00
2026-02-20T16:40:50.042908,3.792,can0  041  [04]  10 01 02 00
2026-02-20T16:40:50.043163,3.792,can0  204  [16]  4B 23 50 46 50 46 50 46 28 23 30 75 30 75 00 00
2026-02-20T16:40:50.043363,3.793,can0  060  [32]  00 00 00 00 51 F8 4C 08 66 4B B7 10 00 00 10 0E FF 01 80 00 00 00 00 00 01 00 00 00 00 00 00 00
2026-02-20T16:40:50.043948,3.793,can0  204  [16]  4B 23 50 46 50 46 50 46 28 23 30 75 30 75 00 00
2026-02-20T16:40:50.148500,3.898,can0  204  [16]  4B 23 50 46 50 46 50 46 28 23 30 75 30 75 00 00
2026-02-20T16:40:50.148646,3.898,can0  204  [16]  4B 23 50 46 50 46 50 46 28 23 30 75 30 75 00 00
2026-02-20T16:40:50.244041,3.993,can0  204  [16]  4B 23 50 46 50 46 50 46 28 23 30 75 30 75 00 00
2026-02-20T16:40:50.244188,3.993,can0  041  [04]  10 01 06 00
2026-02-20T16:40:50.244322,3.994,can0  204  [16]  4B 23 50 46 50 46 50 46 28 23 30 75 30 75 00 00
2026-02-20T16:40:50.339413,4.089,can0  204  [16]  4B 23 50 46 50 46 50 46 28 23 30 75 30 75 00 00
2026-02-20T16:40:50.339530,4.089,can0  070  [20]  4F F8 4C 08 0E F6 61 03 68 BF 00 00 28 00 00 00 78 00 00 00
2026-02-20T16:40:50.339668,4.089,can0  204  [16]  4B 23 50 46 50 46 50 46 28 23 30 75 30 75 00 00
2026-02-20T16:40:50.435826,4.185,can0  070  [20]  4F F8 4C 08 0E F6 61 03 68 BF 00 00 28 00 00 00 79 00 00 00
2026-02-20T16:40:50.435961,4.185,can0  204  [16]  4B 23 50 46 50 46 50 46 28 23 30 75 30 75 00 00
2026-02-20T16:40:50.436120,4.185,can0  070  [20]  4F F8 4C 08 0E F6 61 03 68 BF 00 00 28 00 00 00 79 00 00 00
2026-02-20T16:40:50.436222,4.185,can0  204  [16]  4B 23 50 46 50 46 50 46 28 23 30 75 30 75 00 00
2026-02-20T16:40:50.436381,4.186,can0  206  [24]  7B 0C 80 07 7B 0C DA DC 84 07 83 0C 7B 0C 00 00 00 00 00 00 00 00 00 00
2026-02-20T16:40:50.558979,4.308,can0  060  [32]  00 00 00 00 00 00 00 00 00 00 00 00 00 00 00 00 00 00 00 00 00 00 00 00 00 00 00 00 00 00 00 00
2026-02-20T16:40:50.559547,4.309,can0  204  [16]  4B 23 50 46 50 46 50 46 28 23 30 75 30 75 00 00
2026-02-20T16:40:50.559708,4.309,can0  041  [04]  24 01 02 00
2026-02-20T16:40:50.559879,4.309,can0  204  [16]  4B 23 50 46 50 46 50 46 28 23 30 75 30 75 00 00
2026-02-20T16:40:50.646431,4.396,can0  204  [16]  4B 23 50 46 50 46 50 46 28 23 30 75 30 75 00 00
2026-02-20T16:40:50.646585,4.396,can0  204  [16]  4B 23 50 46 50 46 50 46 28 23 30 75 30 75 00 00
2026-02-20T16:40:50.744763,4.494,can0  204  [16]  4B 23 50 46 50 46 50 46 28 23 30 75 30 75 00 00
2026-02-20T16:40:50.842080,4.591,can0  204  [16]  4B 23 50 46 50 46 50 46 28 23 30 75 30 75 00 00
2026-02-20T16:40:50.842218,4.591,can0  041  [04]  3F 01 02 00
2026-02-20T16:40:50.842347,4.592,can0  204  [16]  4B 23 50 46 50 46 50 46 28 23 30 75 30 75 00 00
2026-02-20T16:40:50.845400,4.595,can0  204  [16]  4B 23 50 46 50 46 50 46 28 23 30 75 30 75 00 00
2026-02-20T16:40:50.941644,4.691,can0  204  [16]  4B 23 50 46 50 46 50 46 28 23 30 75 30 75 00 00
2026-02-20T16:40:50.941772,4.691,can0  070  [20]  4F F8 4C 08 0E F6 61 03 68 BF 00 00 28 00 00 00 79 00 00 00
2026-02-20T16:40:51.041397,4.791,can0  204  [16]  4B 23 50 46 50 46 50 46 28 23 30 75 30 75 00 00
2026-02-20T16:40:51.041478,4.791,can0  060  [32]  00 00 00 00 00 00 00 00 00 00 00 00 00 00 00 00 00 00 00 00 00 00 00 00 00 00 00 00 00 00 00 00
2026-02-20T16:40:51.041822,4.791,can0  204  [16]  4B 23 50 46 50 46 50 46 28 23 30 75 30 75 00 00
2026-02-20T16:40:51.041862,4.791,can0  060  [32]  00 00 00 00 4F F8 4C 08 63 4B B7 10 00 00 10 0E FF 01 80 00 00 00 00 00 01 00 00 00 00 00 00 00
2026-02-20T16:40:51.042184,4.791,can0  041  [04]  3F 01 00 00
2026-02-20T16:40:51.042296,4.791,can0  204  [16]  4B 23 50 46 50 46 50 46 28 23 30 75 30 75 00 00
2026-02-20T16:40:51.150711,4.900,can0  206  [24]  7F 0C 82 07 7B 0C 99 C6 84 07 7F 0C 77 0C 00 00 00 00 00 00 00 00 00 00
2026-02-20T16:40:51.150858,4.900,can0  204  [16]  4B 23 50 46 50 46 50 46 28 23 30 75 30 75 00 00
2026-02-20T16:40:51.250072,4.999,can0  204  [16]  4B 23 50 46 50 46 50 46 28 23 30 75 30 75 00 00
2026-02-20T16:40:51.250507,5.000,can0  100  [03]  45 53 04
2026-02-20T16:40:51.250819,5.000,can0  110  [02]  DE 1C
2026-02-20T16:40:51.250971,5.000,can0  204  [16]  4B 23 50 46 50 46 50 46 28 23 30 75 30 75 00 00
2026-02-20T16:40:51.350095,5.099,can0  204  [16]  4B 23 50 46 50 46 50 46 28 23 30 75 30 75 00 00
2026-02-20T16:40:51.350292,5.099,can0  041  [04]  5D 00 02 00
2026-02-20T16:40:51.350460,5.100,can0  204  [16]  4B 23 50 46 50 46 50 46 28 23 30 75 30 75 00 00
2026-02-20T16:40:51.350553,5.100,can0  070  [20]  4E F8 4C 08 0B F6 61 03 50 C3 00 00 28 00 00 00 83 00 00 00
2026-02-20T16:40:51.449782,5.199,can0  204  [16]  4B 23 50 46 50 46 50 46 28 23 30 75 30 75 00 00
2026-02-20T16:40:51.449963,5.199,can0  070  [20]  4E F8 4C 08 0B F6 61 03 50 C3 00 00 28 00 00 00 84 00 00 00
2026-02-20T16:40:51.453141,5.202,can0  204  [16]  4B 23 50 46 50 46 50 46 28 23 30 75 30 75 00 00
2026-02-20T16:40:51.551744,5.301,can0  204  [16]  4B 23 50 46 50 46 50 46 28 23 30 75 30 75 00 00
2026-02-20T16:40:51.551860,5.301,can0  070  [20]  4E F8 4C 08 0B F6 61 03 50 C3 00 00 28 00 00 00 84 00 00 00
2026-02-20T16:40:51.551954,5.301,can0  060  [32]  00 00 00 00 00 00 00 00 00 00 00 00 00 00 00 00 00 00 00 00 00 00 00 00 00 00 00 00 00 00 00 00
2026-02-20T16:40:51.552144,5.301,can0  204  [16]  4B 23 50 46 50 46 50 46 28 23 30 75 30 75 00 00
2026-02-20T16:40:51.638793,5.388,can0  204  [16]  4B 23 50 46 50 46 50 46 28 23 30 75 30 75 00 00
2026-02-20T16:40:51.639000,5.388,can0  041  [04]  5E 00 02 00
2026-02-20T16:40:51.639156,5.388,can0  204  [16]  4B 23 50 46 50 46 50 46 28 23 30 75 30 75 00 00
2026-02-20T16:40:51.739936,5.489,can0  204  [16]  4B 23 50 46 50 46 50 46 28 23 30 75 30 75 00 00
2026-02-20T16:40:51.740151,5.489,can0  204  [16]  4B 23 50 46 50 46 50 46 28 23 30 75 30 75 00 00
2026-02-20T16:40:51.740327,5.490,can0  206  [24]  93 0C 80 07 67 0C 99 C6 84 07 93 0C 6F 0C 00 00 00 00 00 00 00 00 00 00
2026-02-20T16:40:51.841809,5.591,can0  204  [16]  4B 23 50 46 50 46 50 46 28 23 30 75 30 75 00 00
2026-02-20T16:40:51.842027,5.591,can0  204  [16]  4B 23 50 46 50 46 50 46 28 23 30 75 30 75 00 00
2026-02-20T16:40:51.842145,5.591,can0  041  [04]  71 00 05 00
2026-02-20T16:40:51.959351,5.709,can0  204  [16]  4B 23 50 46 50 46 50 46 28 23 30 75 30 75 00 00
2026-02-20T16:40:51.959477,5.709,can0  204  [16]  4B 23 50 46 50 46 50 46 28 23 30 75 30 75 00 00
2026-02-20T16:40:51.962813,5.712,can0  070  [20]  4E F8 4C 08 0B F6 61 03 50 C3 00 00 28 00 00 00 84 00 00 00
2026-02-20T16:40:52.058881,5.808,can0  204  [16]  4B 23 50 46 50 46 50 46 28 23 30 75 30 75 00 00
2026-02-20T16:40:52.058996,5.808,can0  060  [32]  00 00 00 00 4E F8 4C 08 60 4B B7 10 00 00 10 0E FF 01 80 00 00 00 00 00 01 00 00 00 00 00 00 00
2026-02-20T16:40:52.062682,5.812,can0  204  [16]  4B 23 50 46 50 46 50 46 28 23 30 75 30 75 00 00
2026-02-20T16:40:52.138263,5.887,can0  204  [16]  4B 23 50 46 50 46 50 46 28 23 30 75 30 75 00 00
2026-02-20T16:40:52.138447,5.888,can0  041  [04]  5E 00 00 00
2026-02-20T16:40:52.138630,5.888,can0  204  [16]  4B 23 50 46 50 46 50 46 28 23 30 75 30 75 00 00
2026-02-20T16:40:52.258570,6.008,can0  204  [16]  4B 23 50 46 50 46 50 46 28 23 30 75 30 75 00 00
2026-02-20T16:40:52.258758,6.008,can0  204  [16]  4B 23 50 46 50 46 50 46 28 23 30 75 30 75 00 00
2026-02-20T16:40:52.359185,6.108,can0  204  [16]  4B 23 50 46 50 46 50 46 28 23 30 75 30 75 00 00
2026-02-20T16:40:52.359375,6.109,can0  204  [16]  4B 23 50 46 50 46 50 46 28 23 30 75 30 75 00 00
2026-02-20T16:40:52.362258,6.111,can0  070  [20]  4E F8 4C 08 09 F6 61 03 38 C7 00 00 28 00 00 00 21 00 00 00
2026-02-20T16:40:52.458995,6.208,can0  070  [20]  4E F8 4C 08 09 F6 61 03 38 C7 00 00 28 00 00 00 20 00 00 00
2026-02-20T16:40:52.459146,6.208,can0  041  [04]  7A 00 00 00
2026-02-20T16:40:52.459294,6.208,can0  204  [16]  4B 23 50 46 50 46 50 46 28 23 30 75 30 75 00 00
2026-02-20T16:40:52.459477,6.209,can0  206  [24]  7F 0C 77 07 77 0C B1 E0 82 07 87 0C 7F 0C 00 00 00 00 00 00 00 00 00 00
2026-02-20T16:40:52.459619,6.209,can0  204  [16]  4B 23 50 46 50 46 50 46 28 23 30 75 30 75 00 00
2026-02-20T16:40:52.459728,6.209,can0  070  [20]  4E F8 4C 08 09 F6 61 03 38 C7 00 00 28 00 00 00 20 00 00 00
2026-02-20T16:40:52.558719,6.308,can0  100  [03]  42 53 04
2026-02-20T16:40:52.558892,6.308,can0  204  [16]  4B 23 50 46 50 46 50 46 28 23 30 75 30 75 00 00
2026-02-20T16:40:52.558989,6.308,can0  060  [32]  00 00 00 00 00 00 00 00 00 00 00 00 00 00 00 00 00 00 00 00 00 00 00 00 00 00 00 00 00 00 00 00
2026-02-20T16:40:52.559286,6.308,can0  204  [16]  4B 23 50 46 50 46 50 46 28 23 30 75 30 75 00 00
2026-02-20T16:40:52.642997,6.392,can0  204  [16]  4B 23 50 46 50 46 50 46 28 23 30 75 30 75 00 00
2026-02-20T16:40:52.643137,6.392,can0  041  [04]  5E 00 00 00
2026-02-20T16:40:52.643274,6.392,can0  204  [16]  4B 23 50 46 50 46 50 46 28 23 30 75 30 75 00 00
2026-02-20T16:40:52.741465,6.491,can0  204  [16]  4B 23 50 46 50 46 50 46 28 23 30 75 30 75 00 00
2026-02-20T16:40:52.741592,6.491,can0  204  [16]  4B 23 50 46 50 46 50 46 28 23 30 75 30 75 00 00
2026-02-20T16:40:52.837736,6.587,can0  204  [16]  4B 23 50 46 50 46 50 46 28 23 30 75 30 75 00 00
2026-02-20T16:40:52.837860,6.587,can0  204  [16]  4B 23 50 46 50 46 50 46 28 23 30 75 30 75 00 00
2026-02-20T16:40:52.959470,6.709,can0  110  [02]  DE 1C
2026-02-20T16:40:52.959636,6.709,can0  204  [16]  4B 23 50 46 50 46 50 46 28 23 30 75 30 75 00 00
2026-02-20T16:40:52.959798,6.709,can0  041  [04]  8B 00 02 00
2026-02-20T16:40:52.959967,6.709,can0  204  [16]  4B 23 50 46 50 46 50 46 28 23 30 75 30 75 00 00
2026-02-20T16:40:52.960105,6.709,can0  070  [20]  4E F8 4C 08 09 F6 61 03 38 C7 00 00 28 00 00 00 20 00 00 00
2026-02-20T16:40:53.058536,6.808,can0  204  [16]  4B 23 50 46 50 46 50 46 28 23 30 75 30 75 00 00
2026-02-20T16:40:53.058826,6.808,can0  060  [32]  00 00 00 00 00 00 00 00 00 00 00 00 00 00 00 00 00 00 00 00 00 00 00 00 00 00 00 00 00 00 00 00
2026-02-20T16:40:53.058961,6.808,can0  060  [32]  00 00 00 00 4E F8 4C 08 5E 4B B7 10 00 00 10 0E FF 01 80 00 00 00 00 00 01 00 00 00 00 00 00 00
2026-02-20T16:40:53.059301,6.808,can0  204  [16]  4B 23 50 46 50 46 50 46 28 23 30 75 30 75 00 00
2026-02-20T16:40:53.059522,6.809,can0  206  [24]  73 0C 82 07 83 0C 99 C6 82 07 8F 0C 7F 0C 00 00 00 00 00 00 00 00 00 00
2026-02-20T16:40:53.140309,6.890,can0  204  [16]  4B 23 50 46 50 46 50 46 28 23 30 75 30 75 00 00
2026-02-20T16:40:53.140437,6.890,can0  204  [16]  4B 23 50 46 50 46 50 46 28 23 30 75 30 75 00 00
2026-02-20T16:40:53.240158,6.989,can0  041  [04]  71 00 02 00
2026-02-20T16:40:53.240298,6.989,can0  204  [16]  4B 23 50 46 50 46 50 46 28 23 30 75 30 75 00 00
2026-02-20T16:40:53.240433,6.990,can0  204  [16]  4B 23 50 46 50 46 50 46 28 23 30 75 30 75 00 00
2026-02-20T16:40:53.358366,7.108,can0  204  [16]  4B 23 50 46 50 46 50 46 28 23 30 75 30 75 00 00
2026-02-20T16:40:53.358488,7.108,can0  070  [20]  4C F8 4C 08 0B F6 61 03 20 CB 00 00 28 00 00 00 94 00 00 00
2026-02-20T16:40:53.459389,7.209,can0  204  [16]  4B 23 50 46 50 46 50 46 28 23 30 75 30 75 00 00
2026-02-20T16:40:53.459523,7.209,can0  070  [20]  4C F8 4C 08 0B F6 61 03 20 CB 00 00 28 00 00 00 94 00 00 00
2026-02-20T16:40:53.459666,7.209,can0  204  [16]  4B 23 50 46 50 46 50 46 28 23 30 75 30 75 00 00
2026-02-20T16:40:53.459805,7.209,can0  041  [04]  8B 00 05 00
2026-02-20T16:40:53.558372,7.308,can0  204  [16]  4B 23 50 46 50 46 50 46 28 23 30 75 30 75 00 00
2026-02-20T16:40:53.558536,7.308,can0  070  [20]  4C F8 4C 08 0B F6 61 03 20 CB 00 00 28 00 00 00 94 00 00 00
2026-02-20T16:40:53.558712,7.308,can0  204  [16]  4B 23 50 46 50 46 50 46 28 23 30 75 30 75 00 00
2026-02-20T16:40:53.558817,7.308,can0  060  [32]  00 00 00 00 00 00 00 00 00 00 00 00 00 00 00 00 00 00 00 00 00 00 00 00 00 00 00 00 00 00 00 00
2026-02-20T16:40:53.643516,7.393,can0  204  [16]  4B 23 50 46 50 46 50 46 28 23 30 75 30 75 00 00
2026-02-20T16:40:53.643651,7.393,can0  204  [16]  4B 23 50 46 50 46 50 46 28 23 30 75 30 75 00 00
2026-02-20T16:40:53.743591,7.493,can0  204  [16]  4B 23 50 46 50 46 50 46 28 23 30 75 30 75 00 00
2026-02-20T16:40:53.743847,7.493,can0  206  [24]  73 0C 7B 07 7B 0C 99 C6 82 07 8B 0C 83 0C 00 00 00 00 00 00 00 00 00 00
2026-02-20T16:40:53.743979,7.493,can0  041  [04]  A7 00 05 00
2026-02-20T16:40:53.744129,7.493,can0  204  [16]  4B 23 50 46 50 46 50 46 28 23 30 75 30 75 00 00
2026-02-20T16:40:53.744505,7.494,can0  100  [03]  3D 53 04
2026-02-20T16:40:53.843558,7.593,can0  204  [16]  4B 23 50 46 50 46 50 46 28 23 30 75 30 75 00 00
2026-02-20T16:40:53.843700,7.593,can0  204  [16]  4B 23 50 46 50 46 50 46 28 23 30 75 30 75 00 00
2026-02-20T16:40:53.941458,7.691,can0  204  [16]  4B 23 50 46 50 46 50 46 28 23 30 75 30 75 00 00
2026-02-20T16:40:53.941573,7.691,can0  070  [20]  4C F8 4C 08 0B F6 61 03 20 CB 00 00 28 00 00 00 94 00 00 00
2026-02-20T16:40:53.941705,7.691,can0  204  [16]  4B 23 50 46 50 46 50 46 28 23 30 75 30 75 00 00
2026-02-20T16:40:54.055043,7.804,can0  204  [16]  4B 23 50 46 50 46 50 46 28 23 30 75 30 75 00 00
2026-02-20T16:40:54.055237,7.804,can0  041  [04]  3F 01 06 00
2026-02-20T16:40:54.055415,7.805,can0  204  [16]  4B 23 50 46 50 46 50 46 28 23 30 75 30 75 00 00
2026-02-20T16:40:54.055539,7.805,can0  060  [32]  00 00 00 00 4C F8 4C 08 60 4B B7 10 00 00 10 0E FF 01 80 00 00 00 00 00 01 00 00 00 00 00 00 00
2026-02-20T16:40:54.163374,7.913,can0  204  [16]  4B 23 50 46 50 46 50 46 28 23 30 75 30 75 00 00
2026-02-20T16:40:54.163607,7.913,can0  204  [16]  4B 23 50 46 50 46 50 46 28 23 30 75 30 75 00 00
2026-02-20T16:40:54.254254,8.003,can0  204  [16]  4B 23 50 46 50 46 50 46 28 23 30 75 30 75 00 00
2026-02-20T16:40:54.254394,8.004,can0  204  [16]  4B 23 50 46 50 46 50 46 28 23 30 75 30 75 00 00
2026-02-20T16:40:54.254524,8.004,can0  041  [04]  5A 01 00 00
2026-02-20T16:40:54.354713,8.104,can0  204  [16]  4B 23 50 46 50 46 50 46 28 23 30 75 30 75 00 00
2026-02-20T16:40:54.354849,8.104,can0  204  [16]  4B 23 50 46 50 46 50 46 28 23 30 75 30 75 00 00
2026-02-20T16:40:54.355010,8.104,can0  206  [24]  77 0C 7B 07 77 0C 99 C6 86 07 8F 0C 83 0C 00 00 00 00 00 00 00 00 00 00
2026-02-20T16:40:54.456279,8.205,can0  070  [20]  4A F8 4C 08 0B F6 61 03 08 CF 00 00 28 00 00 00 25 00 00 00
2026-02-20T16:40:54.456422,8.206,can0  204  [16]  4B 23 50 46 50 46 50 46 28 23 30 75 30 75 00 00
2026-02-20T16:40:54.456743,8.206,can0  070  [20]  4A F8 4C 08 0B F6 61 03 08 CF 00 00 28 00 00 00 25 00 00 00
2026-02-20T16:40:54.456781,8.206,can0  204  [16]  4B 23 50 46 50 46 50 46 28 23 30 75 30 75 00 00
2026-02-20T16:40:54.554966,8.304,can0  070  [20]  4A F8 4C 08 0B F6 61 03 08 CF 00 00 28 00 00 00 25 00 00 00
2026-02-20T16:40:54.555125,8.304,can0  204  [16]  4B 23 50 46 50 46 50 46 28 23 30 75 30 75 00 00
2026-02-20T16:40:54.555268,8.304,can0  041  [04]  02 00 00 00
2026-02-20T16:40:54.555404,8.305,can0  204  [16]  4B 23 50 46 50 46 50 46 28 23 30 75 30 75 00 00
2026-02-20T16:40:54.555495,8.305,can0  060  [32]  00 00 00 00 00 00 00 00 00 00 00 00 00 00 00 00 00 00 00 00 00 00 00 00 00 00 00 00 00 00 00 00
2026-02-20T16:40:54.662890,8.412,can0  110  [02]  DE 1C
2026-02-20T16:40:54.663062,8.412,can0  204  [16]  4B 23 50 46 50 46 50 46 28 23 30 75 30 75 00 00
2026-02-20T16:40:54.663200,8.412,can0  204  [16]  4B 23 50 46 50 46 50 46 28 23 30 75 30 75 00 00
2026-02-20T16:40:54.758572,8.508,can0  204  [16]  4B 23 50 46 50 46 50 46 28 23 30 75 30 75 00 00
2026-02-20T16:40:54.758706,8.508,can0  204  [16]  4B 23 50 46 50 46 50 46 28 23 30 75 30 75 00 00
2026-02-20T16:40:54.858953,8.608,can0  041  [04]  B5 00 05 00
2026-02-20T16:40:54.859127,8.608,can0  204  [16]  4B 23 50 46 50 46 50 46 28 23 30 75 30 75 00 00
2026-02-20T16:40:54.862070,8.611,can0  204  [16]  4B 23 50 46 50 46 50 46 28 23 30 75 30 75 00 00
2026-02-20T16:40:54.959319,8.709,can0  204  [16]  4B 23 50 46 50 46 50 46 28 23 30 75 30 75 00 00
2026-02-20T16:40:54.963029,8.712,can0  204  [16]  4B 23 50 46 50 46 50 46 28 23 30 75 30 75 00 00
2026-02-20T16:40:54.963065,8.712,can0  070  [20]  4A F8 4C 08 0B F6 61 03 08 CF 00 00 28 00 00 00 25 00 00 00
2026-02-20T16:40:55.062217,8.811,can0  100  [03]  39 53 04
2026-02-20T16:40:55.069663,8.819,can0  204  [16]  4B 23 50 46 50 46 50 46 28 23 30 75 30 75 00 00
2026-02-20T16:40:55.070079,8.819,can0  206  [24]  77 0C 7B 07 7B 0C B1 E0 82 07 7F 0C 83 0C 00 00 00 00 00 00 00 00 00 00
2026-02-20T16:40:55.070345,8.820,can0  041  [04]  B5 00 02 00
2026-02-20T16:40:55.070471,8.820,can0  204  [16]  4B 23 50 46 50 46 50 46 28 23 30 75 30 75 00 00
2026-02-20T16:40:55.070564,8.820,can0  060  [32]  00 00 00 00 00 00 00 00 00 00 00 00 00 00 00 00 00 00 00 00 00 00 00 00 00 00 00 00 00 00 00 00
2026-02-20T16:40:55.156522,8.906,can0  060  [32]  00 00 00 00 4A F8 4C 08 60 4B B7 10 00 00 10 0E FF 01 80 00 00 00 00 00 01 00 00 00 00 00 00 00
2026-02-20T16:40:55.156991,8.906,can0  204  [16]  4B 23 50 46 50 46 50 46 28 23 30 75 30 75 00 00
2026-02-20T16:40:55.157135,8.906,can0  204  [16]  4B 23 50 46 50 46 50 46 28 23 30 75 30 75 00 00
2026-02-20T16:40:55.241089,8.990,can0  204  [16]  4B 23 50 46 50 46 50 46 28 23 30 75 30 75 00 00
2026-02-20T16:40:55.241219,8.990,can0  204  [16]  4B 23 50 46 50 46 50 46 28 23 30 75 30 75 00 00
2026-02-20T16:40:55.341774,9.091,can0  041  [04]  8B 00 02 00
2026-02-20T16:40:55.341897,9.091,can0  204  [16]  4B 23 50 46 50 46 50 46 28 23 30 75 30 75 00 00
2026-02-20T16:40:55.342014,9.091,can0  070  [20]  49 F8 4C 08 0B F6 61 03 F0 D2 00 00 28 00 00 00 41 00 00 00
2026-02-20T16:40:55.342146,9.091,can0  204  [16]  4B 23 50 46 50 46 50 46 28 23 30 75 30 75 00 00
2026-02-20T16:40:55.443890,9.193,can0  070  [20]  49 F8 4C 08 0B F6 61 03 F0 D2 00 00 28 00 00 00 41 00 00 00
2026-02-20T16:40:55.444093,9.193,can0  204  [16]  4B 23 50 46 50 46 50 46 28 23 30 75 30 75 00 00
2026-02-20T16:40:55.444273,9.193,can0  204  [16]  4B 23 50 46 50 46 50 46 28 23 30 75 30 75 00 00
2026-02-20T16:40:55.444420,9.194,can0  070  [20]  49 F8 4C 08 0B F6 61 03 F0 D2 00 00 28 00 00 00 41 00 00 00
2026-02-20T16:40:55.543156,9.292,can0  204  [16]  4B 23 50 46 50 46 50 46 28 23 30 75 30 75 00 00
2026-02-20T16:40:55.543343,9.293,can0  204  [16]  4B 23 50 46 50 46 50 46 28 23 30 75 30 75 00 00
2026-02-20T16:40:55.642340,9.392,can0  041  [04]  5D 00 05 00
2026-02-20T16:40:55.642463,9.392,can0  060  [32]  00 00 00 00 00 00 00 00 00 00 00 00 00 00 00 00 00 00 00 00 00 00 00 00 00 00 00 00 00 00 00 00
2026-02-20T16:40:55.642968,9.392,can0  204  [16]  4B 23 50 46 50 46 50 46 28 23 30 75 30 75 00 00
2026-02-20T16:40:55.643168,9.392,can0  206  [24]  83 0C 7B 07 77 0C 99 C6 80 07 93 0C 6F 0C 00 00 00 00 00 00 00 00 00 00
2026-02-20T16:40:55.646156,9.395,can0  204  [16]  4B 23 50 46 50 46 50 46 28 23 30 75 30 75 00 00
2026-02-20T16:40:55.752063,9.501,can0  204  [16]  4B 23 50 46 50 46 50 46 28 23 30 75 30 75 00 00
2026-02-20T16:40:55.752269,9.501,can0  204  [16]  4B 23 50 46 50 46 50 46 28 23 30 75 30 75 00 00
2026-02-20T16:40:55.852961,9.602,can0  204  [16]  4B 23 50 46 50 46 50 46 28 23 30 75 30 75 00 00
2026-02-20T16:40:55.853178,9.602,can0  041  [04]  8B 00 05 00
2026-02-20T16:40:55.853308,9.602,can0  204  [16]  4B 23 50 46 50 46 50 46 28 23 30 75 30 75 00 00
2026-02-20T16:40:55.953541,9.703,can0  204  [16]  4B 23 50 46 50 46 50 46 28 23 30 75 30 75 00 00
2026-02-20T16:40:55.953726,9.703,can0  070  [20]  49 F8 4C 08 0B F6 61 03 F0 D2 00 00 28 00 00 00 41 00 00 00
2026-02-20T16:40:55.953917,9.703,can0  204  [16]  4B 23 50 46 50 46 50 46 28 23 30 75 30 75 00 00
2026-02-20T16:40:56.053627,9.803,can0  204  [16]  4B 23 50 46 50 46 50 46 28 23 30 75 30 75 00 00
2026-02-20T16:40:56.053811,9.803,can0  204  [16]  4B 23 50 46 50 46 50 46 28 23 30 75 30 75 00 00
2026-02-20T16:40:56.153022,9.902,can0  060  [32]  00 00 00 00 49 F8 4C 08 60 4B B7 10 00 00 10 0E FF 01 80 00 00 00 00 00 01 00 00 00 00 00 00 00
2026-02-20T16:40:56.153565,9.903,can0  041  [04]  9F 00 05 00
2026-02-20T16:40:56.153727,9.903,can0  204  [16]  4B 23 50 46 50 46 50 46 28 23 30 75 30 75 00 00
2026-02-20T16:40:56.243315,9.993,can0  204  [16]  4B 23 50 46 50 46 50 46 28 23 30 75 30 75 00 00
2026-02-20T16:40:56.243898,9.993,can0  204  [16]  4B 23 50 46 50 46 50 46 28 23 30 75 30 75 00 00
2026-02-20T16:40:56.243940,9.993,can0  100  [03]  34 53 04
2026-02-20T16:40:56.244213,9.993,can0  110  [02]  DE 1C
2026-02-20T16:40:56.347795,10.097,can0  204  [16]  4B 23 50 46 50 46 50 46 28 23 30 75 30 75 00 00
2026-02-20T16:40:56.347971,10.097,can0  206  [24]  7B 0C 79 07 77 0C DA DC 82 07 87 0C 7B 0C 00 00 00 00 00 00 00 00 00 00
2026-02-20T16:40:56.348126,10.097,can0  204  [16]  4B 23 50 46 50 46 50 46 28 23 30 75 30 75 00 00
2026-02-20T16:40:56.348241,10.097,can0  070  [20]  49 F8 4C 08 0B F6 61 03 D8 D6 00 00 28 00 00 00 51 00 00 00
2026-02-20T16:40:56.348361,10.098,can0  041  [04]  B5 00 02 00
2026-02-20T16:40:56.453181,10.202,can0  070  [20]  49 F8 4C 08 0B F6 61 03 D8 D6 00 00 28 00 00 00 52 00 00 00
2026-02-20T16:40:56.453327,10.203,can0  204  [16]  4B 23 50 46 50 46 50 46 28 23 30 75 30 75 00 00
2026-02-20T16:40:56.453464,10.203,can0  204  [16]  4B 23 50 46 50 46 50 46 28 23 30 75 30 75 00 00
2026-02-20T16:40:56.554335,10.304,can0  070  [20]  49 F8 4C 08 0B F6 61 03 D8 D6 00 00 28 00 00 00 52 00 00 00
2026-02-20T16:40:56.554482,10.304,can0  204  [16]  4B 23 50 46 50 46 50 46 28 23 30 75 30 75 00 00
2026-02-20T16:40:56.554620,10.304,can0  204  [16]  4B 23 50 46 50 46 50 46 28 23 30 75 30 75 00 00
2026-02-20T16:40:56.655187,10.404,can0  060  [32]  00 00 00 00 00 00 00 00 00 00 00 00 00 00 00 00 00 00 00 00 00 00 00 00 00 00 00 00 00 00 00 00
2026-02-20T16:40:56.655685,10.405,can0  204  [16]  4B 23 50 46 50 46 50 46 28 23 30 75 30 75 00 00
2026-02-20T16:40:56.655741,10.405,can0  204  [16]  4B 23 50 46 50 46 50 46 28 23 30 75 30 75 00 00
2026-02-20T16:40:56.655921,10.405,can0  041  [04]  7A 00 00 00
2026-02-20T16:40:56.772704,10.522,can0  204  [16]  4B 23 50 46 50 46 50 46 28 23 30 75 30 75 00 00
2026-02-20T16:40:56.777410,10.527,can0  204  [16]  4B 23 50 46 50 46 50 46 28 23 30 75 30 75 00 00
2026-02-20T16:40:56.848592,10.598,can0  204  [16]  4B 23 50 46 50 46 50 46 28 23 30 75 30 75 00 00
2026-02-20T16:40:56.848751,10.598,can0  204  [16]  4B 23 50 46 50 46 50 46 28 23 30 75 30 75 00 00
2026-02-20T16:40:56.959819,10.709,can0  204  [16]  4B 23 50 46 50 46 50 46 28 23 30 75 30 75 00 00
2026-02-20T16:40:56.960071,10.709,can0  041  [04]  3F 01 00 00
2026-02-20T16:40:56.960200,10.709,can0  070  [20]  49 F8 4C 08 0B F6 61 03 D8 D6 00 00 28 00 00 00 52 00 00 00
2026-02-20T16:40:56.963062,10.712,can0  204  [16]  4B 23 50 46 50 46 50 46 28 23 30 75 30 75 00 00
2026-02-20T16:40:56.963090,10.712,can0  206  [24]  73 0C 7D 07 77 0C 99 C6 82 07 8F 0C 83 0C 00 00 00 00 00 00 00 00 00 00
2026-02-20T16:40:57.064413,10.814,can0  204  [16]  4B 23 50 46 50 46 50 46 28 23 30 75 30 75 00 00
2026-02-20T16:40:57.064606,10.814,can0  204  [16]  4B 23 50 46 50 46 50 46 28 23 30 75 30 75 00 00
2026-02-20T16:40:57.165703,10.915,can0  060  [32]  00 00 00 00 00 00 00 00 00 00 00 00 00 00 00 00 00 00 00 00 00 00 00 00 00 00 00 00 00 00 00 00
2026-02-20T16:40:57.166185,10.915,can0  204  [16]  4B 23 50 46 50 46 50 46 28 23 30 75 30 75 00 00
2026-02-20T16:40:57.166295,10.915,can0  060  [32]  00 00 00 00 49 F8 4C 08 60 4B B7 10 00 00 10 0E FF 01 80 00 00 00 00 00 01 00 00 00 00 00 00 00
2026-02-20T16:40:57.166739,10.916,can0  204  [16]  4B 23 50 46 50 46 50 46 28 23 30 75 30 75 00 00
2026-02-20T16:40:57.166892,10.916,can0  041  [04]  3F 01 00 00
2026-02-20T16:40:57.259977,11.009,can0  204  [16]  4B 23 50 46 50 46 50 46 28 23 30 75 30 75 00 00
2026-02-20T16:40:57.260192,11.009,can0  204  [16]  4B 23 50 46 50 46 50 46 28 23 30 75 30 75 00 00
2026-02-20T16:40:57.348291,11.097,can0  204  [16]  4B 23 50 46 50 46 50 46 28 23 30 75 30 75 00 00
2026-02-20T16:40:57.348460,11.098,can0  070  [20]  49 F8 4C 08 0D F6 61 03 C0 DA 00 00 28 00 00 00 E2 00 00 00
2026-02-20T16:40:57.350794,11.100,can0  204  [16]  4B 23 50 46 50 46 50 46 28 23 30 75 30 75 00 00
2026-02-20T16:40:57.454245,11.203,can0  070  [20]  49 F8 4C 08 0D F6 61 03 C0 DA 00 00 28 00 00 00 E2 00 00 00
2026-02-20T16:40:57.454404,11.204,can0  204  [16]  4B 23 50 46 50 46 50 46 28 23 30 75 30 75 00 00
2026-02-20T16:40:57.454548,11.204,can0  041  [04]  10 01 02 00
2026-02-20T16:40:57.454687,11.204,can0  204  [16]  4B 23 50 46 50 46 50 46 28 23 30 75 30 75 00 00
2026-02-20T16:40:57.454803,11.204,can0  070  [20]  49 F8 4C 08 0D F6 61 03 C0 DA 00 00 28 00 00 00 E2 00 00 00
2026-02-20T16:40:57.560145,11.309,can0  204  [16]  4B 23 50 46 50 46 50 46 28 23 30 75 30 75 00 00
2026-02-20T16:40:57.560535,11.310,can0  100  [03]  2E 53 04
2026-02-20T16:40:57.560698,11.310,can0  204  [16]  4B 23 50 46 50 46 50 46 28 23 30 75 30 75 00 00
2026-02-20T16:40:57.666826,11.416,can0  060  [32]  00 00 00 00 00 00 00 00 00 00 00 00 00 00 00 00 00 00 00 00 00 00 00 00 00 00 00 00 00 00 00 00
2026-02-20T16:40:57.667236,11.416,can0  206  [24]  7B 0C 79 07 7F 0C DA DC 82 07 83 0C 7B 0C 00 00 00 00 00 00 00 00 00 00
2026-02-20T16:40:57.667418,11.417,can0  204  [16]  4B 23 50 46 50 46 50 46 28 23 30 75 30 75 00 00
2026-02-20T16:40:57.667583,11.417,can0  204  [16]  4B 23 50 46 50 46 50 46 28 23 30 75 30 75 00 00
2026-02-20T16:40:57.767752,11.517,can0  041  [04]  10 01 00 00
2026-02-20T16:40:57.767947,11.517,can0  204  [16]  4B 23 50 46 50 46 50 46 28 23 30 75 30 75 00 00
2026-02-20T16:40:57.768127,11.517,can0  204  [16]  4B 23 50 46 50 46 50 46 28 23 30 75 30 75 00 00
2026-02-20T16:40:57.846062,11.595,can0  204  [16]  4B 23 50 46 50 46 50 46 28 23 30 75 30 75 00 00
2026-02-20T16:40:57.846268,11.595,can0  204  [16]  4B 23 50 46 50 46 50 46 28 23 30 75 30 75 00 00
2026-02-20T16:40:57.950269,11.699,can0  204  [16]  4B 23 50 46 50 46 50 46 28 23 30 75 30 75 00 00
2026-02-20T16:40:57.950386,11.700,can0  070  [20]  49 F8 4C 08 0D F6 61 03 C0 DA 00 00 28 00 00 00 E2 00 00 00
2026-02-20T16:40:57.950750,11.700,can0  110  [02]  E2 1C
2026-02-20T16:40:57.950902,11.700,can0  204  [16]  4B 23 50 46 50 46 50 46 28 23 30 75 30 75 00 00
2026-02-20T16:40:57.951031,11.700,can0  041  [04]  B5 00 02 00
2026-02-20T16:40:58.054791,11.804,can0  204  [16]  4B 23 50 46 50 46 50 46 28 23 30 75 30 75 00 00
2026-02-20T16:40:58.054918,11.804,can0  204  [16]  4B 23 50 46 50 46 50 46 28 23 30 75 30 75 00 00
2026-02-20T16:40:58.161415,11.911,can0  060  [32]  00 00 00 00 49 F8 4C 08 61 4B B7 10 01 00 10 0E FF 01 80 00 00 00 00 00 01 00 00 00 00 00 00 00
2026-02-20T16:40:58.161964,11.911,can0  204  [16]  4B 23 50 46 50 46 50 46 28 23 30 75 30 75 00 00
2026-02-20T16:40:58.162145,11.911,can0  204  [16]  4B 23 50 46 50 46 50 46 28 23 30 75 30 75 00 00
2026-02-20T16:40:58.283092,12.032,can0  204  [16]  4B 23 50 46 50 46 50 46 28 23 30 75 30 75 00 00
2026-02-20T16:40:58.286379,12.036,can0  041  [04]  02 00 05 00
2026-02-20T16:40:58.289392,12.039,can0  206  [24]  7F 0C 77 07 73 0C 3A DF 86 07 97 0C 7B 0C 00 00 00 00 00 00 00 00 00 00
2026-02-20T16:40:58.289496,12.039,can0  204  [16]  4B 23 50 46 50 46 50 46 28 23 30 75 30 75 00 00
2026-02-20T16:40:58.357508,12.107,can0  204  [16]  4B 23 50 46 50 46 50 46 28 23 30 75 30 75 00 00
2026-02-20T16:40:58.357631,12.107,can0  070  [20]  47 F8 4C 08 0D F6 61 03 A8 DE 00 00 28 00 00 00 6A 00 00 00
2026-02-20T16:40:58.357761,12.107,can0  070  [20]  47 F8 4C 08 0D F6 61 03 A8 DE 00 00 28 00 00 00 6A 00 00 00
2026-02-20T16:40:58.357874,12.107,can0  204  [16]  4B 23 50 46 50 46 50 46 28 23 30 75 30 75 00 00
2026-02-20T16:40:58.465592,12.215,can0  204  [16]  4B 23 50 46 50 46 50 46 28 23 30 75 30 75 00 00
2026-02-20T16:40:58.465710,12.215,can0  070  [20]  47 F8 4C 08 0D F6 61 03 A8 DE 00 00 28 00 00 00 6A 00 00 00
2026-02-20T16:40:58.465840,12.215,can0  204  [16]  4B 23 50 46 50 46 50 46 28 23 30 75 30 75 00 00
2026-02-20T16:40:58.545825,12.295,can0  041  [04]  02 00 06 00
2026-02-20T16:40:58.545965,12.295,can0  204  [16]  4B 23 50 46 50 46 50 46 28 23 30 75 30 75 00 00
2026-02-20T16:40:58.546103,12.295,can0  204  [16]  4B 23 50 46 50 46 50 46 28 23 30 75 30 75 00 00
2026-02-20T16:40:58.652796,12.402,can0  060  [32]  00 00 00 00 00 00 00 00 00 00 00 00 00 00 00 00 00 00 00 00 00 00 00 00 00 00 00 00 00 00 00 00
2026-02-20T16:40:58.653172,12.402,can0  204  [16]  4B 23 50 46 50 46 50 46 28 23 30 75 30 75 00 00
2026-02-20T16:40:58.770096,12.519,can0  204  [16]  4B 23 50 46 50 46 50 46 28 23 30 75 30 75 00 00
2026-02-20T16:40:58.770315,12.519,can0  204  [16]  4B 23 50 46 50 46 50 46 28 23 30 75 30 75 00 00
2026-02-20T16:40:58.770446,12.520,can0  041  [04]  02 00 06 00
2026-02-20T16:40:58.852606,12.602,can0  204  [16]  4B 23 50 46 50 46 50 46 28 23 30 75 30 75 00 00
2026-02-20T16:40:58.853010,12.602,can0  100  [03]  27 53 04
2026-02-20T16:40:58.853213,12.602,can0  204  [16]  4B 23 50 46 50 46 50 46 28 23 30 75 30 75 00 00
2026-02-20T16:40:58.962945,12.712,can0  204  [16]  4B 23 50 46 50 46 50 46 28 23 30 75 30 75 00 00
2026-02-20T16:40:58.963340,12.713,can0  206  [24]  7B 0C 7B 07 7B 0C DA DC 82 07 83 0C 7B 0C 00 00 00 00 00 00 00 00 00 00
2026-02-20T16:40:58.963390,12.713,can0  204  [16]  4B 23 50 46 50 46 50 46 28 23 30 75 30 75 00 00
2026-02-20T16:40:58.963651,12.713,can0  070  [20]  47 F8 4C 08 0D F6 61 03 A8 DE 00 00 28 00 00 00 6A 00 00 00
2026-02-20T16:40:59.053734,12.803,can0  204  [16]  4B 23 50 46 50 46 50 46 28 23 30 75 30 75 00 00
2026-02-20T16:40:59.053947,12.803,can0  204  [16]  4B 23 50 46 50 46 50 46 28 23 30 75 30 75 00 00
2026-02-20T16:40:59.054113,12.803,can0  041  [04]  0C 00 09 00
2026-02-20T16:40:59.162667,12.912,can0  204  [16]  4B 23 50 46 50 46 50 46 28 23 30 75 30 75 00 00
2026-02-20T16:40:59.162797,12.912,can0  060  [32]  00 00 00 00 00 00 00 00 00 00 00 00 00 00 00 00 00 00 00 00 00 00 00 00 00 00 00 00 00 00 00 00
2026-02-20T16:40:59.163136,12.912,can0  060  [32]  00 00 00 00 47 F8 4C 08 61 4B B7 10 00 00 10 0E FF 01 80 00 00 00 00 00 01 00 00 00 00 00 00 00
2026-02-20T16:40:59.163482,12.913,can0  204  [16]  4B 23 50 46 50 46 50 46 28 23 30 75 30 75 00 00
2026-02-20T16:40:59.252194,13.001,can0  204  [16]  4B 23 50 46 50 46 50 46 28 23 30 75 30 75 00 00
2026-02-20T16:40:59.252384,13.002,can0  204  [16]  4B 23 50 46 50 46 50 46 28 23 30 75 30 75 00 00
2026-02-20T16:40:59.363860,13.113,can0  204  [16]  4B 23 50 46 50 46 50 46 28 23 30 75 30 75 00 00
2026-02-20T16:40:59.364083,13.113,can0  041  [04]  2F 00 00 00
2026-02-20T16:40:59.364201,13.113,can0  204  [16]  4B 23 50 46 50 46 50 46 28 23 30 75 30 75 00 00
2026-02-20T16:40:59.367640,13.117,can0  070  [20]  47 F8 4C 08 0D F6 61 03 90 E2 00 00 28 00 00 00 4C 00 00 00
2026-02-20T16:40:59.447325,13.197,can0  204  [16]  4B 23 50 46 50 46 50 46 28 23 30 75 30 75 00 00
2026-02-20T16:40:59.447446,13.197,can0  070  [20]  47 F8 4C 08 0D F6 61 03 90 E2 00 00 28 00 00 00 4C 00 00 00
2026-02-20T16:40:59.447587,13.197,can0  204  [16]  4B 23 50 46 50 46 50 46 28 23 30 75 30 75 00 00
2026-02-20T16:40:59.556853,13.306,can0  204  [16]  4B 23 50 46 50 46 50 46 28 23 30 75 30 75 00 00
2026-02-20T16:40:59.556971,13.306,can0  070  [20]  47 F8 4C 08 0D F6 61 03 90 E2 00 00 28 00 00 00 4C 00 00 00
2026-02-20T16:40:59.557118,13.306,can0  204  [16]  4B 23 50 46 50 46 50 46 28 23 30 75 30 75 00 00
2026-02-20T16:40:59.557290,13.306,can0  206  [24]  87 0C 82 07 7B 0C 99 C6 84 07 8B 0C 73 0C 00 00 00 00 00 00 00 00 00 00
2026-02-20T16:40:59.560992,13.310,can0  041  [04]  8B 00 02 00
2026-02-20T16:40:59.666721,13.416,can0  204  [16]  4B 23 50 46 50 46 50 46 28 23 30 75 30 75 00 00
2026-02-20T16:40:59.666807,13.416,can0  060  [32]  00 00 00 00 00 00 00 00 00 00 00 00 00 00 00 00 00 00 00 00 00 00 00 00 00 00 00 00 00 00 00 00
2026-02-20T16:40:59.667347,13.417,can0  110  [02]  DE 1C
2026-02-20T16:40:59.670546,13.420,can0  204  [16]  4B 23 50 46 50 46 50 46 28 23 30 75 30 75 00 00
2026-02-20T16:40:59.759757,13.509,can0  204  [16]  4B 23 50 46 50 46 50 46 28 23 30 75 30 75 00 00
2026-02-20T16:40:59.759962,13.509,can0  204  [16]  4B 23 50 46 50 46 50 46 28 23 30 75 30 75 00 00
2026-02-20T16:40:59.873755,13.623,can0  204  [16]  4B 23 50 46 50 46 50 46 28 23 30 75 30 75 00 00
2026-02-20T16:40:59.873958,13.623,can0  041  [04]  91 00 07 00
2026-02-20T16:40:59.874154,13.623,can0  204  [16]  4B 23 50 46 50 46 50 46 28 23 30 75 30 75 00 00
2026-02-20T16:40:59.958435,13.708,can0  204  [16]  4B 23 50 46 50 46 50 46 28 23 30 75 30 75 00 00
2026-02-20T16:40:59.961956,13.711,can0  204  [16]  4B 23 50 46 50 46 50 46 28 23 30 75 30 75 00 00
2026-02-20T16:41:00.047847,13.797,can0  070  [20]  47 F8 4C 08 0D F6 61 03 90 E2 00 00 28 00 00 00 4C 00 00 00
2026-02-20T16:41:00.047977,13.797,can0  204  [16]  4B 23 50 46 50 46 50 46 28 23 30 75 30 75 00 00
2026-02-20T16:41:00.048373,13.798,can0  100  [03]  21 53 04
2026-02-20T16:41:00.048526,13.798,can0  204  [16]  4B 23 50 46 50 46 50 46 28 23 30 75 30 75 00 00
2026-02-20T16:41:00.159740,13.909,can0  041  [04]  9F 00 02 00
2026-02-20T16:41:00.167157,13.916,can0  204  [16]  4B 23 50 46 50 46 50 46 28 23 30 75 30 75 00 00
2026-02-20T16:41:00.167345,13.917,can0  060  [32]  00 00 00 00 47 F8 4C 08 61 4B B7 10 00 00 10 0E FF 01 80 00 00 00 00 00 01 00 00 00 00 00 00 00
2026-02-20T16:41:00.167860,13.917,can0  204  [16]  4B 23 50 46 50 46 50 46 28 23 30 75 30 75 00 00
2026-02-20T16:41:00.251906,14.001,can0  206  [24]  8B 0C 84 07 77 0C 99 C6 84 07 83 0C 6F 0C 00 00 00 00 00 00 00 00 00 00
2026-02-20T16:41:00.252120,14.001,can0  204  [16]  4B 23 50 46 50 46 50 46 28 23 30 75 30 75 00 00
2026-02-20T16:41:00.252314,14.001,can0  204  [16]  4B 23 50 46 50 46 50 46 28 23 30 75 30 75 00 00
2026-02-20T16:41:00.362617,14.112,can0  204  [16]  4B 23 50 46 50 46 50 46 28 23 30 75 30 75 00 00
2026-02-20T16:41:00.362773,14.112,can0  070  [20]  45 F8 4C 08 0D F6 61 03 78 E6 00 00 28 00 00 00 6A 00 00 00
2026-02-20T16:41:00.363125,14.112,can0  204  [16]  4B 23 50 46 50 46 50 46 28 23 30 75 30 75 00 00
2026-02-20T16:41:00.363165,14.112,can0  041  [04]  A7 00 05 00
2026-02-20T16:41:00.363321,14.113,can0  070  [20]  45 F8 4C 08 0D F6 61 03 78 E6 00 00 28 00 00 00 6A 00 00 00
2026-02-20T16:41:00.456785,14.206,can0  204  [16]  4B 23 50 46 50 46 50 46 28 23 30 75 30 75 00 00
2026-02-20T16:41:00.457090,14.206,can0  070  [20]  45 F8 4C 08 0D F6 61 03 78 E6 00 00 28 00 00 00 6A 00 00 00
2026-02-20T16:41:00.457137,14.206,can0  204  [16]  4B 23 50 46 50 46 50 46 28 23 30 75 30 75 00 00
2026-02-20T16:41:00.562623,14.312,can0  204  [16]  4B 23 50 46 50 46 50 46 28 23 30 75 30 75 00 00
2026-02-20T16:41:00.562757,14.312,can0  204  [16]  4B 23 50 46 50 46 50 46 28 23 30 75 30 75 00 00
2026-02-20T16:41:00.664197,14.413,can0  204  [16]  4B 23 50 46 50 46 50 46 28 23 30 75 30 75 00 00
2026-02-20T16:41:00.664283,14.413,can0  060  [32]  00 00 00 00 00 00 00 00 00 00 00 00 00 00 00 00 00 00 00 00 00 00 00 00 00 00 00 00 00 00 00 00
2026-02-20T16:41:00.664611,14.414,can0  041  [04]  A4 00 08 00
2026-02-20T16:41:00.664744,14.414,can0  204  [16]  4B 23 50 46 50 46 50 46 28 23 30 75 30 75 00 00
2026-02-20T16:41:00.750229,14.499,can0  204  [16]  4B 23 50 46 50 46 50 46 28 23 30 75 30 75 00 00
2026-02-20T16:41:00.750360,14.500,can0  204  [16]  4B 23 50 46 50 46 50 46 28 23 30 75 30 75 00 00
2026-02-20T16:41:00.872950,14.622,can0  204  [16]  4B 23 50 46 50 46 50 46 28 23 30 75 30 75 00 00
2026-02-20T16:41:00.873149,14.622,can0  206  [24]  7B 0C 7D 07 77 0C 99 C6 86 07 7F 0C 7F 0C 00 00 00 00 00 00 00 00 00 00
2026-02-20T16:41:00.873281,14.622,can0  204  [16]  4B 23 50 46 50 46 50 46 28 23 30 75 30 75 00 00
2026-02-20T16:41:00.950897,14.700,can0  041  [04]  9A 00 08 00
2026-02-20T16:41:00.951037,14.700,can0  204  [16]  4B 23 50 46 50 46 50 46 28 23 30 75 30 75 00 00
2026-02-20T16:41:00.951147,14.700,can0  070  [20]  45 F8 4C 08 0D F6 61 03 78 E6 00 00 28 00 00 00 6A 00 00 00
2026-02-20T16:41:00.954725,14.704,can0  204  [16]  4B 23 50 46 50 46 50 46 28 23 30 75 30 75 00 00
2026-02-20T16:41:01.052520,14.802,can0  204  [16]  4B 23 50 46 50 46 50 46 28 23 30 75 30 75 00 00
2026-02-20T16:41:01.052646,14.802,can0  204  [16]  4B 23 50 46 50 46 50 46 28 23 30 75 30 75 00 00
2026-02-20T16:41:01.154081,14.903,can0  204  [16]  4B 23 50 46 50 46 50 46 28 23 30 75 30 75 00 00
2026-02-20T16:41:01.154164,14.903,can0  060  [32]  00 00 00 00 00 00 00 00 00 00 00 00 00 00 00 00 00 00 00 00 00 00 00 00 00 00 00 00 00 00 00 00
2026-02-20T16:41:01.154509,14.904,can0  060  [32]  00 00 00 00 45 F8 4C 08 61 4B B7 10 00 00 10 0E FF 01 80 00 00 00 00 00 01 00 00 00 00 00 00 00
2026-02-20T16:41:01.154979,14.904,can0  041  [04]  8B 00 07 00
2026-02-20T16:41:01.267995,15.017,can0  204  [16]  4B 23 50 46 50 46 50 46 28 23 30 75 30 75 00 00
2026-02-20T16:41:01.268132,15.017,can0  204  [16]  4B 23 50 46 50 46 50 46 28 23 30 75 30 75 00 00
2026-02-20T16:41:01.368339,15.118,can0  204  [16]  4B 23 50 46 50 46 50 46 28 23 30 75 30 75 00 00
2026-02-20T16:41:01.368734,15.118,can0  100  [03]  1E 53 04
2026-02-20T16:41:01.369030,15.118,can0  110  [02]  DF 1C
2026-02-20T16:41:01.369175,15.118,can0  204  [16]  4B 23 50 46 50 46 50 46 28 23 30 75 30 75 00 00
2026-02-20T16:41:01.369298,15.118,can0  070  [20]  45 F8 4C 08 0B F6 61 03 00 00 00 00 29 00 00 00 45 00 00 00
2026-02-20T16:41:01.473159,15.222,can0  204  [16]  4B 23 50 46 50 46 50 46 28 23 30 75 30 75 00 00
2026-02-20T16:41:01.473279,15.222,can0  070  [20]  45 F8 4C 08 0B F6 61 03 00 00 00 00 29 00 00 00 45 00 00 00
2026-02-20T16:41:01.473402,15.223,can0  041  [04]  8B 00 06 00
2026-02-20T16:41:01.476804,15.226,can0  204  [16]  4B 23 50 46 50 46 50 46 28 23 30 75 30 75 00 00
2026-02-20T16:41:01.550046,15.299,can0  070  [20]  45 F8 4C 08 0B F6 61 03 00 00 00 00 29 00 00 00 45 00 00 00
2026-02-20T16:41:01.550183,15.299,can0  204  [16]  4B 23 50 46 50 46 50 46 28 23 30 75 30 75 00 00
2026-02-20T16:41:01.550350,15.300,can0  206  [24]  7F 0C 7B 07 7F 0C 99 C6 82 07 83 0C 73 0C 00 00 00 00 00 00 00 00 00 00
2026-02-20T16:41:01.550488,15.300,can0  204  [16]  4B 23 50 46 50 46 50 46 28 23 30 75 30 75 00 00
2026-02-20T16:41:01.653231,15.402,can0  204  [16]  4B 23 50 46 50 46 50 46 28 23 30 75 30 75 00 00
2026-02-20T16:41:01.653358,15.403,can0  204  [16]  4B 23 50 46 50 46 50 46 28 23 30 75 30 75 00 00
2026-02-20T16:41:01.653448,15.403,can0  060  [32]  00 00 00 00 00 00 00 00 00 00 00 00 00 00 00 00 00 00 00 00 00 00 00 00 00 00 00 00 00 00 00 00
2026-02-20T16:41:01.767597,15.517,can0  204  [16]  4B 23 50 46 50 46 50 46 28 23 30 75 30 75 00 00
2026-02-20T16:41:01.767729,15.517,can0  041  [04]  9A 00 08 00
2026-02-20T16:41:01.767864,15.517,can0  204  [16]  4B 23 50 46 50 46 50 46 28 23 30 75 30 75 00 00
2026-02-20T16:41:01.871876,15.621,can0  204  [16]  4B 23 50 46 50 46 50 46 28 23 30 75 30 75 00 00
2026-02-20T16:41:01.871999,15.621,can0  204  [16]  4B 23 50 46 50 46 50 46 28 23 30 75 30 75 00 00
2026-02-20T16:41:01.950546,15.700,can0  204  [16]  4B 23 50 46 50 46 50 46 28 23 30 75 30 75 00 00
2026-02-20T16:41:01.950664,15.700,can0  070  [20]  45 F8 4C 08 0B F6 61 03 00 00 00 00 29 00 00 00 45 00 00 00
2026-02-20T16:41:01.950799,15.700,can0  204  [16]  4B 23 50 46 50 46 50 46 28 23 30 75 30 75 00 00
2026-02-20T16:41:01.954459,15.704,can0  041  [04]  A4 00 06 00
2026-02-20T16:41:02.054136,15.803,can0  204  [16]  4B 23 50 46 50 46 50 46 28 23 30 75 30 75 00 00
2026-02-20T16:41:02.054267,15.803,can0  204  [16]  4B 23 50 46 50 46 50 46 28 23 30 75 30 75 00 00
2026-02-20T16:41:02.155797,15.905,can0  204  [16]  4B 23 50 46 50 46 50 46 28 23 30 75 30 75 00 00
2026-02-20T16:41:02.156016,15.905,can0  204  [16]  4B 23 50 46 50 46 50 46 28 23 30 75 30 75 00 00
2026-02-20T16:41:02.156198,15.905,can0  206  [24]  83 0C 82 07 8B 0C 99 C6 82 07 7B 0C 77 0C 00 00 00 00 00 00 00 00 00 00
2026-02-20T16:41:02.156290,15.905,can0  060  [32]  00 00 00 00 45 F8 4C 08 60 4B B7 10 00 00 10 0E FF 01 80 00 00 00 00 00 01 00 00 00 00 00 00 00
2026-02-20T16:41:02.267691,16.017,can0  204  [16]  4B 23 50 46 50 46 50 46 28 23 30 75 30 75 00 00
2026-02-20T16:41:02.267874,16.017,can0  041  [04]  B5 00 05 00
2026-02-20T16:41:02.268061,16.017,can0  204  [16]  4B 23 50 46 50 46 50 46 28 23 30 75 30 75 00 00
2026-02-20T16:41:02.369273,16.118,can0  204  [16]  4B 23 50 46 50 46 50 46 28 23 30 75 30 75 00 00
2026-02-20T16:41:02.369451,16.119,can0  070  [20]  45 F8 4C 08 0B F6 61 03 E8 03 00 00 29 00 00 00 80 00 00 00
2026-02-20T16:41:02.369641,16.119,can0  204  [16]  4B 23 50 46 50 46 50 46 28 23 30 75 30 75 00 00
2026-02-20T16:41:02.372749,16.122,can0  070  [20]  45 F8 4C 08 0B F6 61 03 E8 03 00 00 29 00 00 00 81 00 00 00
2026-02-20T16:41:02.472672,16.222,can0  204  [16]  4B 23 50 46 50 46 50 46 28 23 30 75 30 75 00 00
2026-02-20T16:41:02.472884,16.222,can0  204  [16]  4B 23 50 46 50 46 50 46 28 23 30 75 30 75 00 00
2026-02-20T16:41:02.473013,16.222,can0  070  [20]  45 F8 4C 08 0B F6 61 03 E8 03 00 00 29 00 00 00 81 00 00 00
2026-02-20T16:41:02.574101,16.323,can0  041  [04]  9F 00 05 00
2026-02-20T16:41:02.574295,16.323,can0  204  [16]  4B 23 50 46 50 46 50 46 28 23 30 75 30 75 00 00
2026-02-20T16:41:02.574465,16.324,can0  204  [16]  4B 23 50 46 50 46 50 46 28 23 30 75 30 75 00 00
2026-02-20T16:41:02.674368,16.424,can0  100  [03]  1C 53 04
2026-02-20T16:41:02.674573,16.424,can0  204  [16]  4B 23 50 46 50 46 50 46 28 23 30 75 30 75 00 00
2026-02-20T16:41:02.674692,16.424,can0  060  [32]  00 00 00 00 00 00 00 00 00 00 00 00 00 00 00 00 00 00 00 00 00 00 00 00 00 00 00 00 00 00 00 00
2026-02-20T16:41:02.674969,16.424,can0  204  [16]  4B 23 50 46 50 46 50 46 28 23 30 75 30 75 00 00
2026-02-20T16:41:02.762123,16.511,can0  204  [16]  4B 23 50 46 50 46 50 46 28 23 30 75 30 75 00 00
2026-02-20T16:41:02.762341,16.512,can0  204  [16]  4B 23 50 46 50 46 50 46 28 23 30 75 30 75 00 00
2026-02-20T16:41:02.762526,16.512,can0  041  [04]  8B 00 02 00
2026-02-20T16:41:02.866457,16.616,can0  206  [24]  83 0C 7D 07 6B 0C 99 C6 84 07 8F 0C 7B 0C 00 00 00 00 00 00 00 00 00 00
2026-02-20T16:41:02.866672,16.616,can0  204  [16]  4B 23 50 46 50 46 50 46 28 23 30 75 30 75 00 00
2026-02-20T16:41:02.866857,16.616,can0  204  [16]  4B 23 50 46 50 46 50 46 28 23 30 75 30 75 00 00
2026-02-20T16:41:02.974519,16.724,can0  204  [16]  4B 23 50 46 50 46 50 46 28 23 30 75 30 75 00 00
2026-02-20T16:41:02.974693,16.724,can0  070  [20]  45 F8 4C 08 0B F6 61 03 E8 03 00 00 29 00 00 00 81 00 00 00
2026-02-20T16:41:02.978503,16.728,can0  204  [16]  4B 23 50 46 50 46 50 46 28 23 30 75 30 75 00 00
2026-02-20T16:41:03.052339,16.802,can0  110  [02]  E0 1C
2026-02-20T16:41:03.052554,16.802,can0  204  [16]  4B 23 50 46 50 46 50 46 28 23 30 75 30 75 00 00
2026-02-20T16:41:03.052737,16.802,can0  041  [04]  5E 00 05 00
2026-02-20T16:41:03.052931,16.802,can0  204  [16]  4B 23 50 46 50 46 50 46 28 23 30 75 30 75 00 00
2026-02-20T16:41:03.153510,16.903,can0  204  [16]  4B 23 50 46 50 46 50 46 28 23 30 75 30 75 00 00
2026-02-20T16:41:03.153628,16.903,can0  060  [32]  00 00 00 00 00 00 00 00 00 00 00 00 00 00 00 00 00 00 00 00 00 00 00 00 00 00 00 00 00 00 00 00
2026-02-20T16:41:03.263849,17.013,can0  204  [16]  4B 23 50 46 50 46 50 46 28 23 30 75 30 75 00 00
2026-02-20T16:41:03.263970,17.013,can0  060  [32]  00 00 00 00 45 F8 4C 08 60 4B B7 10 00 00 10 0E FF 01 80 00 00 00 00 00 01 00 00 00 00 00 00 00
2026-02-20T16:41:03.264419,17.014,can0  204  [16]  4B 23 50 46 50 46 50 46 28 23 30 75 30 75 00 00
2026-02-20T16:41:03.374104,17.123,can0  204  [16]  4B 23 50 46 50 46 50 46 28 23 30 75 30 75 00 00
2026-02-20T16:41:03.374262,17.123,can0  041  [04]  9F 00 05 00
2026-02-20T16:41:03.374449,17.124,can0  204  [16]  4B 23 50 46 50 46 50 46 28 23 30 75 30 75 00 00
2026-02-20T16:41:03.374601,17.124,can0  070  [20]  45 F8 4C 08 09 F6 61 03 D0 07 00 00 29 00 00 00 C2 00 00 00
2026-02-20T16:41:03.374740,17.124,can0  070  [20]  45 F8 4C 08 09 F6 61 03 D0 07 00 00 29 00 00 00 C2 00 00 00
2026-02-20T16:41:03.374911,17.124,can0  204  [16]  4B 23 50 46 50 46 50 46 28 23 30 75 30 75 00 00
2026-02-20T16:41:03.475394,17.225,can0  204  [16]  4B 23 50 46 50 46 50 46 28 23 30 75 30 75 00 00
2026-02-20T16:41:03.475617,17.225,can0  206  [24]  7B 0C 80 07 73 0C 99 C6 84 07 93 0C 7B 0C 00 00 00 00 00 00 00 00 00 00
2026-02-20T16:41:03.475797,17.225,can0  204  [16]  4B 23 50 46 50 46 50 46 28 23 30 75 30 75 00 00
2026-02-20T16:41:03.552652,17.302,can0  070  [20]  45 F8 4C 08 09 F6 61 03 D0 07 00 00 29 00 00 00 C2 00 00 00
2026-02-20T16:41:03.552855,17.302,can0  204  [16]  4B 23 50 46 50 46 50 46 28 23 30 75 30 75 00 00
2026-02-20T16:41:03.553012,17.302,can0  041  [04]  8B 00 05 00
2026-02-20T16:41:03.556195,17.305,can0  204  [16]  4B 23 50 46 50 46 50 46 28 23 30 75 30 75 00 00
2026-02-20T16:41:03.655932,17.405,can0  204  [16]  4B 23 50 46 50 46 50 46 28 23 30 75 30 75 00 00
2026-02-20T16:41:03.656056,17.405,can0  060  [32]  00 00 00 00 00 00 00 00 00 00 00 00 00 00 00 00 00 00 00 00 00 00 00 00 00 00 00 00 00 00 00 00
2026-02-20T16:41:03.656365,17.406,can0  204  [16]  4B 23 50 46 50 46 50 46 28 23 30 75 30 75 00 00
2026-02-20T16:41:03.767377,17.517,can0  204  [16]  4B 23 50 46 50 46 50 46 28 23 30 75 30 75 00 00
2026-02-20T16:41:03.866448,17.616,can0  204  [16]  4B 23 50 46 50 46 50 46 28 23 30 75 30 75 00 00
2026-02-20T16:41:03.866660,17.616,can0  041  [04]  A7 00 05 00
2026-02-20T16:41:03.866860,17.616,can0  204  [16]  4B 23 50 46 50 46 50 46 28 23 30 75 30 75 00 00
2026-02-20T16:41:03.867269,17.616,can0  100  [03]  18 53 04
2026-02-20T16:41:03.973257,17.722,can0  204  [16]  4B 23 50 46 50 46 50 46 28 23 30 75 30 75 00 00
2026-02-20T16:41:03.973486,17.723,can0  204  [16]  4B 23 50 46 50 46 50 46 28 23 30 75 30 75 00 00
2026-02-20T16:41:03.973673,17.723,can0  070  [20]  45 F8 4C 08 09 F6 61 03 D0 07 00 00 29 00 00 00 C2 00 00 00
2026-02-20T16:41:04.057442,17.807,can0  204  [16]  4B 23 50 46 50 46 50 46 28 23 30 75 30 75 00 00
2026-02-20T16:41:04.057572,17.807,can0  204  [16]  4B 23 50 46 50 46 50 46 28 23 30 75 30 75 00 00
2026-02-20T16:41:04.156922,17.906,can0  204  [16]  4B 23 50 46 50 46 50 46 28 23 30 75 30 75 00 00
2026-02-20T16:41:04.157055,17.906,can0  041  [04]  B5 00 05 00
2026-02-20T16:41:04.157223,17.906,can0  206  [24]  63 0C 7B 07 83 0C 99 C6 80 07 87 0C 8F 0C 00 00 00 00 00 00 00 00 00 00
2026-02-20T16:41:04.157354,17.907,can0  204  [16]  4B 23 50 46 50 46 50 46 28 23 30 75 30 75 00 00
2026-02-20T16:41:04.259097,18.008,can0  060  [32]  00 00 00 00 45 F8 4C 08 5E 4B B7 10 01 00 10 0E FF 01 80 00 00 00 00 00 01 00 00 00 00 00 00 00
2026-02-20T16:41:04.259625,18.009,can0  204  [16]  4B 23 50 46 50 46 50 46 28 23 30 75 30 75 00 00
2026-02-20T16:41:04.259783,18.009,can0  204  [16]  4B 23 50 46 50 46 50 46 28 23 30 75 30 75 00 00
2026-02-20T16:41:04.369072,18.118,can0  204  [16]  4B 23 50 46 50 46 50 46 28 23 30 75 30 75 00 00
2026-02-20T16:41:04.369280,18.118,can0  204  [16]  4B 23 50 46 50 46 50 46 28 23 30 75 30 75 00 00
2026-02-20T16:41:04.369439,18.119,can0  041  [04]  2F 00 00 00
2026-02-20T16:41:04.369590,18.119,can0  070  [20]  45 F8 4C 08 08 F6 61 03 B8 0B 00 00 29 00 00 00 38 00 00 00
2026-02-20T16:41:04.474232,18.223,can0  204  [16]  4B 23 50 46 50 46 50 46 28 23 30 75 30 75 00 00
2026-02-20T16:41:04.474394,18.224,can0  070  [20]  45 F8 4C 08 08 F6 61 03 B8 0B 00 00 29 00 00 00 37 00 00 00
2026-02-20T16:41:04.474565,18.224,can0  204  [16]  4B 23 50 46 50 46 50 46 28 23 30 75 30 75 00 00
2026-02-20T16:41:04.580219,18.329,can0  070  [20]  45 F8 4C 08 08 F6 61 03 B8 0B 00 00 29 00 00 00 37 00 00 00
2026-02-20T16:41:04.580431,18.330,can0  204  [16]  4B 23 50 46 50 46 50 46 28 23 30 75 30 75 00 00
2026-02-20T16:41:04.580614,18.330,can0  204  [16]  4B 23 50 46 50 46 50 46 28 23 30 75 30 75 00 00
2026-02-20T16:41:04.659395,18.409,can0  204  [16]  4B 23 50 46 50 46 50 46 28 23 30 75 30 75 00 00
2026-02-20T16:41:04.659575,18.409,can0  041  [04]  5D 00 02 00
2026-02-20T16:41:04.659759,18.409,can0  204  [16]  4B 23 50 46 50 46 50 46 28 23 30 75 30 75 00 00
2026-02-20T16:41:04.762955,18.512,can0  060  [32]  00 00 00 00 00 00 00 00 00 00 00 00 00 00 00 00 00 00 00 00 00 00 00 00 00 00 00 00 00 00 00 00
2026-02-20T16:41:04.763554,18.513,can0  110  [02]  E0 1C
2026-02-20T16:41:04.763724,18.513,can0  204  [16]  4B 23 50 46 50 46 50 46 28 23 30 75 30 75 00 00
2026-02-20T16:41:04.763926,18.513,can0  206  [24]  7B 0C 7B 07 5F 0C B1 E0 86 07 93 0C 7F 0C 00 00 00 00 00 00 00 00 00 00
2026-02-20T16:41:04.764078,18.513,can0  204  [16]  4B 23 50 46 50 46 50 46 28 23 30 75 30 75 00 00
2026-02-20T16:41:04.876457,18.626,can0  204  [16]  4B 23 50 46 50 46 50 46 28 23 30 75 30 75 00 00
2026-02-20T16:41:04.876595,18.626,can0  204  [16]  4B 23 50 46 50 46 50 46 28 23 30 75 30 75 00 00
2026-02-20T16:41:04.955312,18.705,can0  041  [04]  5D 00 02 00
2026-02-20T16:41:04.955460,18.705,can0  204  [16]  4B 23 50 46 50 46 50 46 28 23 30 75 30 75 00 00
2026-02-20T16:41:04.955595,18.705,can0  204  [16]  4B 23 50 46 50 46 50 46 28 23 30 75 30 75 00 00
2026-02-20T16:41:04.955718,18.705,can0  070  [20]  45 F8 4C 08 08 F6 61 03 B8 0B 00 00 29 00 00 00 37 00 00 00
2026-02-20T16:41:05.065062,18.814,can0  204  [16]  4B 23 50 46 50 46 50 46 28 23 30 75 30 75 00 00
2026-02-20T16:41:05.065195,18.814,can0  204  [16]  4B 23 50 46 50 46 50 46 28 23 30 75 30 75 00 00
2026-02-20T16:41:05.166919,18.916,can0  100  [03]  16 53 04
2026-02-20T16:41:05.174426,18.924,can0  204  [16]  4B 23 50 46 50 46 50 46 28 23 30 75 30 75 00 00
2026-02-20T16:41:05.174630,18.924,can0  041  [04]  1B 00 02 00
2026-02-20T16:41:05.174841,18.924,can0  204  [16]  4B 23 50 46 50 46 50 46 28 23 30 75 30 75 00 00
2026-02-20T16:41:05.255935,19.005,can0  060  [32]  00 00 00 00 00 00 00 00 00 00 00 00 00 00 00 00 00 00 00 00 00 00 00 00 00 00 00 00 00 00 00 00
2026-02-20T16:41:05.256307,19.005,can0  060  [32]  00 00 00 00 45 F8 4C 08 5C 4B B7 10 00 00 10 0E FF 01 80 00 00 00 00 00 01 00 00 00 00 00 00 00
2026-02-20T16:41:05.256615,19.006,can0  204  [16]  4B 23 50 46 50 46 50 46 28 23 30 75 30 75 00 00
2026-02-20T16:41:05.256745,19.006,can0  204  [16]  4B 23 50 46 50 46 50 46 28 23 30 75 30 75 00 00
2026-02-20T16:41:05.369201,19.118,can0  204  [16]  4B 23 50 46 50 46 50 46 28 23 30 75 30 75 00 00
2026-02-20T16:41:05.369327,19.119,can0  070  [20]  45 F8 4C 08 08 F6 61 03 A0 0F 00 00 29 00 00 00 FA 00 00 00
2026-02-20T16:41:05.369464,19.119,can0  204  [16]  4B 23 50 46 50 46 50 46 28 23 30 75 30 75 00 00
2026-02-20T16:41:05.373140,19.122,can0  070  [20]  45 F8 4C 08 08 F6 61 03 A0 0F 00 00 29 00 00 00 FA 00 00 00
2026-02-20T16:41:05.472260,19.221,can0  206  [24]  87 0C 79 07 6F 0C 99 C6 86 07 87 0C 73 0C 00 00 00 00 00 00 00 00 00 00
2026-02-20T16:41:05.472407,19.222,can0  204  [16]  4B 23 50 46 50 46 50 46 28 23 30 75 30 75 00 00
2026-02-20T16:41:05.472537,19.222,can0  041  [04]  5E 00 05 00
2026-02-20T16:41:05.472654,19.222,can0  070  [20]  45 F8 4C 08 08 F6 61 03 A0 0F 00 00 29 00 00 00 FA 00 00 00
2026-02-20T16:41:05.476326,19.226,can0  204  [16]  4B 23 50 46 50 46 50 46 28 23 30 75 30 75 00 00
2026-02-20T16:41:05.558471,19.308,can0  204  [16]  4B 23 50 46 50 46 50 46 28 23 30 75 30 75 00 00
2026-02-20T16:41:05.558603,19.308,can0  204  [16]  4B 23 50 46 50 46 50 46 28 23 30 75 30 75 00 00
2026-02-20T16:41:05.661786,19.411,can0  204  [16]  4B 23 50 46 50 46 50 46 28 23 30 75 30 75 00 00
2026-02-20T16:41:05.661917,19.411,can0  204  [16]  4B 23 50 46 50 46 50 46 28 23 30 75 30 75 00 00
2026-02-20T16:41:05.766482,19.516,can0  041  [04]  2F 00 05 00
2026-02-20T16:41:05.766607,19.516,can0  060  [32]  00 00 00 00 00 00 00 00 00 00 00 00 00 00 00 00 00 00 00 00 00 00 00 00 00 00 00 00 00 00 00 00
2026-02-20T16:41:05.766939,19.516,can0  204  [16]  4B 23 50 46 50 46 50 46 28 23 30 75 30 75 00 00
2026-02-20T16:41:05.767122,19.516,can0  204  [16]  4B 23 50 46 50 46 50 46 28 23 30 75 30 75 00 00
2026-02-20T16:41:05.879193,19.628,can0  204  [16]  4B 23 50 46 50 46 50 46 28 23 30 75 30 75 00 00
2026-02-20T16:41:05.957169,19.706,can0  204  [16]  4B 23 50 46 50 46 50 46 28 23 30 75 30 75 00 00
2026-02-20T16:41:05.957299,19.706,can0  204  [16]  4B 23 50 46 50 46 50 46 28 23 30 75 30 75 00 00
2026-02-20T16:41:05.957413,19.707,can0  070  [20]  45 F8 4C 08 08 F6 61 03 A0 0F 00 00 29 00 00 00 FA 00 00 00
2026-02-20T16:41:05.957563,19.707,can0  041  [04]  71 00 06 00
2026-02-20T16:41:05.957671,19.707,can0  204  [16]  4B 23 50 46 50 46 50 46 28 23 30 75 30 75 00 00
2026-02-20T16:41:06.061861,19.811,can0  204  [16]  4B 23 50 46 50 46 50 46 28 23 30 75 30 75 00 00
2026-02-20T16:41:06.062234,19.811,can0  206  [24]  7B 0C 7B 07 7B 0C 99 C6 84 07 87 0C 7B 0C 00 00 00 00 00 00 00 00 00 00
2026-02-20T16:41:06.062276,19.811,can0  204  [16]  4B 23 50 46 50 46 50 46 28 23 30 75 30 75 00 00
2026-02-20T16:41:06.170341,19.920,can0  204  [16]  4B 23 50 46 50 46 50 46 28 23 30 75 30 75 00 00
2026-02-20T16:41:06.276899,20.026,can0  204  [16]  4B 23 50 46 50 46 50 46 28 23 30 75 30 75 00 00
2026-02-20T16:41:06.276983,20.026,can0  060  [32]  00 00 00 00 45 F8 4C 08 5C 4B B7 10 01 00 10 0E FF 01 80 00 00 00 00 00 01 00 00 00 00 00 00 00
2026-02-20T16:41:06.277446,20.027,can0  041  [04]  9F 00 08 00
2026-02-20T16:41:06.277597,20.027,can0  204  [16]  4B 23 50 46 50 46 50 46 28 23 30 75 30 75 00 00
2026-02-20T16:41:06.369406,20.119,can0  204  [16]  4B 23 50 46 50 46 50 46 28 23 30 75 30 75 00 00
2026-02-20T16:41:06.369539,20.119,can0  204  [16]  4B 23 50 46 50 46 50 46 28 23 30 75 30 75 00 00
2026-02-20T16:41:06.369654,20.119,can0  070  [20]  45 F8 4C 08 09 F6 61 03 88 13 00 00 29 00 00 00 B5 00 00 00
2026-02-20T16:41:06.370052,20.119,can0  100  [03]  12 53 04
2026-02-20T16:41:06.370342,20.120,can0  110  [02]  E1 1C
2026-02-20T16:41:06.370461,20.120,can0  070  [20]  45 F8 4C 08 09 F6 61 03 88 13 00 00 29 00 00 00 B6 00 00 00
2026-02-20T16:41:06.482457,20.232,can0  204  [16]  4B 23 50 46 50 46 50 46 28 23 30 75 30 75 00 00
2026-02-20T16:41:06.482587,20.232,can0  204  [16]  4B 23 50 46 50 46 50 46 28 23 30 75 30 75 00 00
2026-02-20T16:41:06.482708,20.232,can0  070  [20]  45 F8 4C 08 09 F6 61 03 88 13 00 00 29 00 00 00 B6 00 00 00
2026-02-20T16:41:06.486573,20.236,can0  041  [04]  3F 01 00 00
2026-02-20T16:41:06.565042,20.314,can0  204  [16]  4B 23 50 46 50 46 50 46 28 23 30 75 30 75 00 00
2026-02-20T16:41:06.565185,20.314,can0  204  [16]  4B 23 50 46 50 46 50 46 28 23 30 75 30 75 00 00
2026-02-20T16:41:06.672091,20.421,can0  204  [16]  4B 23 50 46 50 46 50 46 28 23 30 75 30 75 00 00
2026-02-20T16:41:06.672222,20.421,can0  204  [16]  4B 23 50 46 50 46 50 46 28 23 30 75 30 75 00 00
2026-02-20T16:41:06.776394,20.526,can0  204  [16]  4B 23 50 46 50 46 50 46 28 23 30 75 30 75 00 00
2026-02-20T16:41:06.776583,20.526,can0  206  [24]  73 0C 80 07 83 0C 99 C6 82 07 83 0C 7F 0C 00 00 00 00 00 00 00 00 00 00
2026-02-20T16:41:06.776671,20.526,can0  060  [32]  00 00 00 00 00 00 00 00 00 00 00 00 00 00 00 00 00 00 00 00 00 00 00 00 00 00 00 00 00 00 00 00
2026-02-20T16:41:06.777049,20.526,can0  204  [16]  4B 23 50 46 50 46 50 46 28 23 30 75 30 75 00 00
2026-02-20T16:41:06.777086,20.526,can0  041  [04]  3F 01 00 00
2026-02-20T16:41:06.868571,20.618,can0  204  [16]  4B 23 50 46 50 46 50 46 28 23 30 75 30 75 00 00
2026-02-20T16:41:06.868703,20.618,can0  204  [16]  4B 23 50 46 50 46 50 46 28 23 30 75 30 75 00 00
2026-02-20T16:41:06.973220,20.722,can0  204  [16]  4B 23 50 46 50 46 50 46 28 23 30 75 30 75 00 00
2026-02-20T16:41:06.973352,20.723,can0  204  [16]  4B 23 50 46 50 46 50 46 28 23 30 75 30 75 00 00
2026-02-20T16:41:06.973475,20.723,can0  070  [20]  45 F8 4C 08 09 F6 61 03 88 13 00 00 29 00 00 00 B6 00 00 00
2026-02-20T16:41:07.081786,20.831,can0  204  [16]  4B 23 50 46 50 46 50 46 28 23 30 75 30 75 00 00
2026-02-20T16:41:07.081916,20.831,can0  041  [04]  B5 00 00 00
2026-02-20T16:41:07.082061,20.831,can0  204  [16]  4B 23 50 46 50 46 50 46 28 23 30 75 30 75 00 00
2026-02-20T16:41:07.162525,20.912,can0  204  [16]  4B 23 50 46 50 46 50 46 28 23 30 75 30 75 00 00
2026-02-20T16:41:07.162659,20.912,can0  204  [16]  4B 23 50 46 50 46 50 46 28 23 30 75 30 75 00 00
2026-02-20T16:41:07.269144,21.018,can0  204  [16]  4B 23 50 46 50 46 50 46 28 23 30 75 30 75 00 00
2026-02-20T16:41:07.269238,21.018,can0  060  [32]  00 00 00 00 00 00 00 00 00 00 00 00 00 00 00 00 00 00 00 00 00 00 00 00 00 00 00 00 00 00 00 00
2026-02-20T16:41:07.269380,21.019,can0  060  [32]  00 00 00 00 45 F8 4C 08 5E 4B B7 10 00 00 10 0E FF 01 80 00 00 00 00 00 01 00 00 00 00 00 00 00
2026-02-20T16:41:07.269831,21.019,can0  204  [16]  4B 23 50 46 50 46 50 46 28 23 30 75 30 75 00 00
2026-02-20T16:41:07.269970,21.019,can0  041  [04]  3F 01 00 00
2026-02-20T16:41:07.366352,21.116,can0  204  [16]  4B 23 50 46 50 46 50 46 28 23 30 75 30 75 00 00
2026-02-20T16:41:07.366476,21.116,can0  070  [20]  47 F8 4C 08 09 F6 61 03 70 17 00 00 29 00 00 00 53 00 00 00
2026-02-20T16:41:07.366661,21.116,can0  206  [24]  93 0C 79 07 6F 0C 99 C6 82 07 87 0C 6B 0C 00 00 00 00 00 00 00 00 00 00
2026-02-20T16:41:07.366793,21.116,can0  204  [16]  4B 23 50 46 50 46 50 46 28 23 30 75 30 75 00 00
2026-02-20T16:41:07.366903,21.116,can0  070  [20]  47 F8 4C 08 09 F6 61 03 70 17 00 00 29 00 00 00 54 00 00 00
2026-02-20T16:41:07.473362,21.223,can0  204  [16]  4B 23 50 46 50 46 50 46 28 23 30 75 30 75 00 00
2026-02-20T16:41:07.473502,21.223,can0  204  [16]  4B 23 50 46 50 46 50 46 28 23 30 75 30 75 00 00
2026-02-20T16:41:07.473623,21.223,can0  070  [20]  47 F8 4C 08 09 F6 61 03 70 17 00 00 29 00 00 00 54 00 00 00
2026-02-20T16:41:07.577605,21.327,can0  204  [16]  4B 23 50 46 50 46 50 46 28 23 30 75 30 75 00 00
2026-02-20T16:41:07.577733,21.327,can0  041  [04]  B5 00 02 00
2026-02-20T16:41:07.577868,21.327,can0  204  [16]  4B 23 50 46 50 46 50 46 28 23 30 75 30 75 00 00
2026-02-20T16:41:07.659444,21.409,can0  204  [16]  4B 23 50 46 50 46 50 46 28 23 30 75 30 75 00 00
2026-02-20T16:41:07.659836,21.409,can0  100  [03]  0D 53 04
2026-02-20T16:41:07.659984,21.409,can0  204  [16]  4B 23 50 46 50 46 50 46 28 23 30 75 30 75 00 00
2026-02-20T16:41:07.766647,21.516,can0  204  [16]  4B 23 50 46 50 46 50 46 28 23 30 75 30 75 00 00
2026-02-20T16:41:07.766727,21.516,can0  060  [32]  00 00 00 00 00 00 00 00 00 00 00 00 00 00 00 00 00 00 00 00 00 00 00 00 00 00 00 00 00 00 00 00
2026-02-20T16:41:07.767014,21.516,can0  204  [16]  4B 23 50 46 50 46 50 46 28 23 30 75 30 75 00 00
2026-02-20T16:41:07.881352,21.631,can0  204  [16]  4B 23 50 46 50 46 50 46 28 23 30 75 30 75 00 00
2026-02-20T16:41:07.881537,21.631,can0  041  [04]  E4 00 00 00
2026-02-20T16:41:07.881719,21.631,can0  204  [16]  4B 23 50 46 50 46 50 46 28 23 30 75 30 75 00 00
2026-02-20T16:41:07.961095,21.710,can0  204  [16]  4B 23 50 46 50 46 50 46 28 23 30 75 30 75 00 00
2026-02-20T16:41:07.961257,21.710,can0  070  [20]  47 F8 4C 08 09 F6 61 03 70 17 00 00 29 00 00 00 54 00 00 00
2026-02-20T16:41:07.961462,21.711,can0  204  [16]  4B 23 50 46 50 46 50 46 28 23 30 75 30 75 00 00
2026-02-20T16:41:08.075990,21.825,can0  206  [24]  7B 0C 79 07 7B 0C DA DC 88 07 8B 0C 7B 0C 00 00 00 00 00 00 00 00 00 00
2026-02-20T16:41:08.076134,21.825,can0  204  [16]  4B 23 50 46 50 46 50 46 28 23 30 75 30 75 00 00
2026-02-20T16:41:08.076529,21.826,can0  110  [02]  DF 1C
2026-02-20T16:41:08.076680,21.826,can0  204  [16]  4B 23 50 46 50 46 50 46 28 23 30 75 30 75 00 00
2026-02-20T16:41:08.076812,21.826,can0  041  [04]  B5 00 02 00
2026-02-20T16:41:08.185823,21.935,can0  204  [16]  4B 23 50 46 50 46 50 46 28 23 30 75 30 75 00 00
2026-02-20T16:41:08.185948,21.935,can0  204  [16]  4B 23 50 46 50 46 50 46 28 23 30 75 30 75 00 00
2026-02-20T16:41:08.268242,22.017,can0  204  [16]  4B 23 50 46 50 46 50 46 28 23 30 75 30 75 00 00
2026-02-20T16:41:08.268329,22.018,can0  060  [32]  00 00 00 00 47 F8 4C 08 5E 4B B7 10 00 00 10 0E FF 01 80 00 00 00 00 00 01 00 00 00 00 00 00 00
2026-02-20T16:41:08.272281,22.021,can0  204  [16]  4B 23 50 46 50 46 50 46 28 23 30 75 30 75 00 00
2026-02-20T16:41:08.361891,22.111,can0  204  [16]  4B 23 50 46 50 46 50 46 28 23 30 75 30 75 00 00
2026-02-20T16:41:08.362008,22.111,can0  070  [20]  47 F8 4C 08 08 F6 61 03 58 1B 00 00 29 00 00 00 7E 00 00 00
2026-02-20T16:41:08.362143,22.111,can0  041  [04]  10 01 06 00
2026-02-20T16:41:08.362267,22.111,can0  070  [20]  47 F8 4C 08 08 F6 61 03 58 1B 00 00 29 00 00 00 7E 00 00 00
2026-02-20T16:41:08.362381,22.112,can0  204  [16]  4B 23 50 46 50 46 50 46 28 23 30 75 30 75 00 00
2026-02-20T16:41:08.472761,22.222,can0  204  [16]  4B 23 50 46 50 46 50 46 28 23 30 75 30 75 00 00
2026-02-20T16:41:08.472878,22.222,can0  070  [20]  47 F8 4C 08 08 F6 61 03 58 1B 00 00 29 00 00 00 7E 00 00 00
2026-02-20T16:41:08.473006,22.222,can0  204  [16]  4B 23 50 46 50 46 50 46 28 23 30 75 30 75 00 00
2026-02-20T16:41:08.580249,22.329,can0  204  [16]  4B 23 50 46 50 46 50 46 28 23 30 75 30 75 00 00
2026-02-20T16:41:08.580387,22.330,can0  204  [16]  4B 23 50 46 50 46 50 46 28 23 30 75 30 75 00 00
2026-02-20T16:41:08.660725,22.410,can0  041  [04]  10 01 09 00
2026-02-20T16:41:08.660866,22.410,can0  204  [16]  4B 23 50 46 50 46 50 46 28 23 30 75 30 75 00 00
2026-02-20T16:41:08.661026,22.410,can0  206  [24]  87 0C 84 07 7F 0C 99 C6 82 07 87 0C 6F 0C 00 00 00 00 00 00 00 00 00 00
2026-02-20T16:41:08.661161,22.410,can0  204  [16]  4B 23 50 46 50 46 50 46 28 23 30 75 30 75 00 00
2026-02-20T16:41:08.770292,22.519,can0  060  [32]  00 00 00 00 00 00 00 00 00 00 00 00 00 00 00 00 00 00 00 00 00 00 00 00 00 00 00 00 00 00 00 00
2026-02-20T16:41:08.770649,22.520,can0  204  [16]  4B 23 50 46 50 46 50 46 28 23 30 75 30 75 00 00
2026-02-20T16:41:08.770819,22.520,can0  204  [16]  4B 23 50 46 50 46 50 46 28 23 30 75 30 75 00 00
2026-02-20T16:41:08.862862,22.612,can0  204  [16]  4B 23 50 46 50 46 50 46 28 23 30 75 30 75 00 00
2026-02-20T16:41:08.863032,22.612,can0  041  [04]  B5 00 08 00
2026-02-20T16:41:08.977825,22.727,can0  204  [16]  4B 23 50 46 50 46 50 46 28 23 30 75 30 75 00 00
2026-02-20T16:41:08.978501,22.728,can0  100  [03]  03 53 04
2026-02-20T16:41:08.978887,22.728,can0  204  [16]  4B 23 50 46 50 46 50 46 28 23 30 75 30 75 00 00
2026-02-20T16:41:08.979217,22.728,can0  070  [20]  47 F8 4C 08 08 F6 61 03 58 1B 00 00 29 00 00 00 7E 00 00 00
2026-02-20T16:41:09.072794,22.822,can0  204  [16]  4B 23 50 46 50 46 50 46 28 23 30 75 30 75 00 00
2026-02-20T16:41:09.072990,22.822,can0  204  [16]  4B 23 50 46 50 46 50 46 28 23 30 75 30 75 00 00
2026-02-20T16:41:09.178705,22.928,can0  204  [16]  4B 23 50 46 50 46 50 46 28 23 30 75 30 75 00 00
2026-02-20T16:41:09.178827,22.928,can0  204  [16]  4B 23 50 46 50 46 50 46 28 23 30 75 30 75 00 00
2026-02-20T16:41:09.178961,22.928,can0  041  [04]  B5 00 06 00
2026-02-20T16:41:09.262068,23.011,can0  204  [16]  4B 23 50 46 50 46 50 46 28 23 30 75 30 75 00 00
2026-02-20T16:41:09.263457,23.013,can0  060  [32]  00 00 00 00 00 00 00 00 00 00 00 00 00 00 00 00 00 00 00 00 00 00 00 00 00 00 00 00 00 00 00 00
2026-02-20T16:41:09.263503,23.013,can0  204  [16]  4B 23 50 46 50 46 50 46 28 23 30 75 30 75 00 00
2026-02-20T16:41:09.263539,23.013,can0  060  [32]  00 00 00 00 47 F8 4C 08 5C 4B B7 10 00 00 10 0E FF 01 80 00 00 00 00 00 01 00 00 00 00 00 00 00
2026-02-20T16:41:09.386200,23.135,can0  206  [24]  7B 0C 82 07 87 0C 99 C6 84 07 87 0C 73 0C 00 00 00 00 00 00 00 00 00 00
2026-02-20T16:41:09.386351,23.136,can0  204  [16]  4B 23 50 46 50 46 50 46 28 23 30 75 30 75 00 00
2026-02-20T16:41:09.386481,23.136,can0  204  [16]  4B 23 50 46 50 46 50 46 28 23 30 75 30 75 00 00
2026-02-20T16:41:09.386596,23.136,can0  070  [20]  47 F8 4C 08 09 F6 61 03 40 1F 00 00 29 00 00 00 B7 00 00 00
2026-02-20T16:41:09.469394,23.219,can0  070  [20]  47 F8 4C 08 09 F6 61 03 40 1F 00 00 29 00 00 00 B7 00 00 00
2026-02-20T16:41:09.469544,23.219,can0  204  [16]  4B 23 50 46 50 46 50 46 28 23 30 75 30 75 00 00
2026-02-20T16:41:09.469678,23.219,can0  041  [04]  A7 00 05 00
2026-02-20T16:41:09.469807,23.219,can0  204  [16]  4B 23 50 46 50 46 50 46 28 23 30 75 30 75 00 00
2026-02-20T16:41:09.473501,23.223,can0  070  [20]  47 F8 4C 08 09 F6 61 03 40 1F 00 00 29 00 00 00 B7 00 00 00
2026-02-20T16:41:09.579837,23.329,can0  204  [16]  4B 23 50 46 50 46 50 46 28 23 30 75 30 75 00 00
2026-02-20T16:41:09.579964,23.329,can0  204  [16]  4B 23 50 46 50 46 50 46 28 23 30 75 30 75 00 00
2026-02-20T16:41:09.660625,23.410,can0  204  [16]  4B 23 50 46 50 46 50 46 28 23 30 75 30 75 00 00
2026-02-20T16:41:09.660757,23.410,can0  204  [16]  4B 23 50 46 50 46 50 46 28 23 30 75 30 75 00 00
2026-02-20T16:41:09.660892,23.410,can0  041  [04]  97 00 06 00
2026-02-20T16:41:09.771182,23.520,can0  204  [16]  4B 23 50 46 50 46 50 46 28 23 30 75 30 75 00 00
2026-02-20T16:41:09.771564,23.521,can0  110  [02]  DE 1C
2026-02-20T16:41:09.771728,23.521,can0  204  [16]  4B 23 50 46 50 46 50 46 28 23 30 75 30 75 00 00
2026-02-20T16:41:09.771827,23.521,can0  060  [32]  00 00 00 00 00 00 00 00 00 00 00 00 00 00 00 00 00 00 00 00 00 00 00 00 00 00 00 00 00 00 00 00
2026-02-20T16:41:09.861023,23.610,can0  204  [16]  4B 23 50 46 50 46 50 46 28 23 30 75 30 75 00 00
2026-02-20T16:41:09.861160,23.610,can0  204  [16]  4B 23 50 46 50 46 50 46 28 23 30 75 30 75 00 00
2026-02-20T16:41:09.977430,23.727,can0  204  [16]  4B 23 50 46 50 46 50 46 28 23 30 75 30 75 00 00
2026-02-20T16:41:09.977557,23.727,can0  041  [04]  93 00 07 00
2026-02-20T16:41:09.977717,23.727,can0  206  [24]  83 0C 80 07 73 0C DA DC 86 07 7F 0C 7B 0C 00 00 00 00 00 00 00 00 00 00
2026-02-20T16:41:09.977844,23.727,can0  204  [16]  4B 23 50 46 50 46 50 46 28 23 30 75 30 75 00 00
2026-02-20T16:41:09.981452,23.731,can0  070  [20]  47 F8 4C 08 09 F6 61 03 40 1F 00 00 29 00 00 00 B7 00 00 00
2026-02-20T16:41:10.066746,23.816,can0  204  [16]  4B 23 50 46 50 46 50 46 28 23 30 75 30 75 00 00
2026-02-20T16:41:10.071227,23.820,can0  204  [16]  4B 23 50 46 50 46 50 46 28 23 30 75 30 75 00 00
2026-02-20T16:41:10.177553,23.927,can0  204  [16]  4B 23 50 46 50 46 50 46 28 23 30 75 30 75 00 00
2026-02-20T16:41:10.185047,23.934,can0  100  [03]  FA 52 04
2026-02-20T16:41:10.185366,23.935,can0  204  [16]  4B 23 50 46 50 46 50 46 28 23 30 75 30 75 00 00
2026-02-20T16:41:10.272033,24.021,can0  041  [04]  97 00 05 00
2026-02-20T16:41:10.272372,24.022,can0  204  [16]  4B 23 50 46 50 46 50 46 28 23 30 75 30 75 00 00
2026-02-20T16:41:10.272414,24.022,can0  060  [32]  00 00 00 00 47 F8 4C 08 5E 4B B7 10 00 00 10 0E FF 01 80 00 00 00 00 00 01 00 00 00 00 00 00 00
2026-02-20T16:41:10.272843,24.022,can0  204  [16]  4B 23 50 46 50 46 50 46 28 23 30 75 30 75 00 00
2026-02-20T16:41:10.383252,24.132,can0  204  [16]  4B 23 50 46 50 46 50 46 28 23 30 75 30 75 00 00
2026-02-20T16:41:10.383373,24.133,can0  070  [20]  47 F8 4C 08 09 F6 61 03 28 23 00 00 29 00 00 00 80 00 00 00
2026-02-20T16:41:10.383501,24.133,can0  070  [20]  47 F8 4C 08 09 F6 61 03 28 23 00 00 29 00 00 00 7F 00 00 00
2026-02-20T16:41:10.387525,24.137,can0  204  [16]  4B 23 50 46 50 46 50 46 28 23 30 75 30 75 00 00
2026-02-20T16:41:10.482406,24.232,can0  204  [16]  4B 23 50 46 50 46 50 46 28 23 30 75 30 75 00 00
2026-02-20T16:41:10.482470,24.232,can0  070  [20]  47 F8 4C 08 09 F6 61 03 28 23 00 00 29 00 00 00 7F 00 00 00
2026-02-20T16:41:10.482506,24.232,can0  204  [16]  4B 23 50 46 50 46 50 46 28 23 30 75 30 75 00 00
2026-02-20T16:41:10.482545,24.232,can0  041  [04]  5E 00 00 00
2026-02-20T16:41:10.580402,24.330,can0  204  [16]  4B 23 50 46 50 46 50 46 28 23 30 75 30 75 00 00
2026-02-20T16:41:10.580539,24.330,can0  204  [16]  4B 23 50 46 50 46 50 46 28 23 30 75 30 75 00 00
2026-02-20T16:41:10.679804,24.429,can0  206  [24]  77 0C 80 07 7B 0C 99 C6 82 07 8F 0C 7B 0C 00 00 00 00 00 00 00 00 00 00
2026-02-20T16:41:10.679942,24.429,can0  204  [16]  4B 23 50 46 50 46 50 46 28 23 30 75 30 75 00 00
2026-02-20T16:41:10.683798,24.433,can0  204  [16]  4B 23 50 46 50 46 50 46 28 23 30 75 30 75 00 00
2026-02-20T16:41:10.783359,24.533,can0  204  [16]  4B 23 50 46 50 46 50 46 28 23 30 75 30 75 00 00
2026-02-20T16:41:10.783490,24.533,can0  041  [04]  8B 00 00 00
2026-02-20T16:41:10.783592,24.533,can0  060  [32]  00 00 00 00 00 00 00 00 00 00 00 00 00 00 00 00 00 00 00 00 00 00 00 00 00 00 00 00 00 00 00 00
2026-02-20T16:41:10.787689,24.537,can0  204  [16]  4B 23 50 46 50 46 50 46 28 23 30 75 30 75 00 00
2026-02-20T16:41:10.912694,24.662,can0  204  [16]  4B 23 50 46 50 46 50 46 28 23 30 75 30 75 00 00
2026-02-20T16:41:10.912915,24.662,can0  204  [16]  4B 23 50 46 50 46 50 46 28 23 30 75 30 75 00 00
2026-02-20T16:41:10.974513,24.724,can0  204  [16]  4B 23 50 46 50 46 50 46 28 23 30 75 30 75 00 00
2026-02-20T16:41:10.974640,24.724,can0  070  [20]  47 F8 4C 08 09 F6 61 03 28 23 00 00 29 00 00 00 7F 00 00 00
2026-02-20T16:41:10.974777,24.724,can0  204  [16]  4B 23 50 46 50 46 50 46 28 23 30 75 30 75 00 00
2026-02-20T16:41:11.076120,24.825,can0  041  [04]  3F 01 02 00
2026-02-20T16:41:11.076312,24.825,can0  204  [16]  4B 23 50 46 50 46 50 46 28 23 30 75 30 75 00 00
2026-02-20T16:41:11.076486,24.826,can0  204  [16]  4B 23 50 46 50 46 50 46 28 23 30 75 30 75 00 00
2026-02-20T16:41:11.174273,24.923,can0  204  [16]  4B 23 50 46 50 46 50 46 28 23 30 75 30 75 00 00
2026-02-20T16:41:11.174510,24.924,can0  204  [16]  4B 23 50 46 50 46 50 46 28 23 30 75 30 75 00 00
2026-02-20T16:41:11.273731,25.023,can0  204  [16]  4B 23 50 46 50 46 50 46 28 23 30 75 30 75 00 00
2026-02-20T16:41:11.273944,25.023,can0  206  [24]  73 0C 79 07 73 0C 99 C6 84 07 93 0C 83 0C 00 00 00 00 00 00 00 00 00 00
2026-02-20T16:41:11.274061,25.023,can0  060  [32]  00 00 00 00 00 00 00 00 00 00 00 00 00 00 00 00 00 00 00 00 00 00 00 00 00 00 00 00 00 00 00 00
2026-02-20T16:41:11.274326,25.024,can0  041  [04]  3F 01 04 00
2026-02-20T16:41:11.274455,25.024,can0  060  [32]  00 00 00 00 47 F8 4C 08 5E 4B B7 10 00 00 10 0E FF 01 80 00 00 00 00 00 01 00 00 00 00 00 00 00
2026-02-20T16:41:11.388455,25.138,can0  204  [16]  4B 23 50 46 50 46 50 46 28 23 30 75 30 75 00 00
2026-02-20T16:41:11.388611,25.138,can0  070  [20]  49 F8 4C 08 08 F6 61 03 10 27 00 00 29 00 00 00 68 00 00 00
2026-02-20T16:41:11.388784,25.138,can0  204  [16]  4B 23 50 46 50 46 50 46 28 23 30 75 30 75 00 00
2026-02-20T16:41:11.388915,25.138,can0  070  [20]  49 F8 4C 08 08 F6 61 03 10 27 00 00 29 00 00 00 67 00 00 00
2026-02-20T16:41:11.389121,25.138,can0  204  [16]  4B 23 50 46 50 46 50 46 28 23 30 75 30 75 00 00
2026-02-20T16:41:11.467781,25.217,can0  100  [03]  F5 52 04
2026-02-20T16:41:11.468625,25.218,can0  110  [02]  E1 1C
2026-02-20T16:41:11.468859,25.218,can0  204  [16]  4B 23 50 46 50 46 50 46 28 23 30 75 30 75 00 00
2026-02-20T16:41:11.469030,25.218,can0  070  [20]  49 F8 4C 08 08 F6 61 03 10 27 00 00 29 00 00 00 67 00 00 00
2026-02-20T16:41:11.571056,25.320,can0  204  [16]  4B 23 50 46 50 46 50 46 28 23 30 75 30 75 00 00
2026-02-20T16:41:11.571248,25.320,can0  041  [04]  47 01 06 00
2026-02-20T16:41:11.571482,25.321,can0  204  [16]  4B 23 50 46 50 46 50 46 28 23 30 75 30 75 00 00
2026-02-20T16:41:11.678419,25.428,can0  204  [16]  4B 23 50 46 50 46 50 46 28 23 30 75 30 75 00 00
2026-02-20T16:41:11.678652,25.428,can0  204  [16]  4B 23 50 46 50 46 50 46 28 23 30 75 30 75 00 00
2026-02-20T16:41:11.781054,25.530,can0  204  [16]  4B 23 50 46 50 46 50 46 28 23 30 75 30 75 00 00
2026-02-20T16:41:11.781329,25.531,can0  204  [16]  4B 23 50 46 50 46 50 46 28 23 30 75 30 75 00 00
2026-02-20T16:41:11.781367,25.531,can0  060  [32]  00 00 00 00 00 00 00 00 00 00 00 00 00 00 00 00 00 00 00 00 00 00 00 00 00 00 00 00 00 00 00 00
2026-02-20T16:41:11.889532,25.639,can0  204  [16]  4B 23 50 46 50 46 50 46 28 23 30 75 30 75 00 00
2026-02-20T16:41:11.889919,25.639,can0  041  [04]  52 01 04 00
2026-02-20T16:41:11.889951,25.639,can0  204  [16]  4B 23 50 46 50 46 50 46 28 23 30 75 30 75 00 00
2026-02-20T16:41:11.988377,25.738,can0  206  [24]  77 0C 7D 07 6F 0C 99 C6 80 07 8F 0C 83 0C 00 00 00 00 00 00 00 00 00 00
2026-02-20T16:41:11.988586,25.738,can0  204  [16]  4B 23 50 46 50 46 50 46 28 23 30 75 30 75 00 00
2026-02-20T16:41:11.988778,25.738,can0  070  [20]  49 F8 4C 08 08 F6 61 03 10 27 00 00 29 00 00 00 67 00 00 00
2026-02-20T16:41:11.992273,25.741,can0  204  [16]  4B 23 50 46 50 46 50 46 28 23 30 75 30 75 00 00
2026-02-20T16:41:12.089047,25.838,can0  204  [16]  4B 23 50 46 50 46 50 46 28 23 30 75 30 75 00 00
2026-02-20T16:41:12.089236,25.838,can0  204  [16]  4B 23 50 46 50 46 50 46 28 23 30 75 30 75 00 00
2026-02-20T16:41:12.089405,25.839,can0  041  [04]  3F 01 02 00
2026-02-20T16:41:12.189932,25.939,can0  204  [16]  4B 23 50 46 50 46 50 46 28 23 30 75 30 75 00 00
2026-02-20T16:41:12.193445,25.943,can0  204  [16]  4B 23 50 46 50 46 50 46 28 23 30 75 30 75 00 00
2026-02-20T16:41:12.289395,26.039,can0  204  [16]  4B 23 50 46 50 46 50 46 28 23 30 75 30 75 00 00
2026-02-20T16:41:12.289593,26.039,can0  204  [16]  4B 23 50 46 50 46 50 46 28 23 30 75 30 75 00 00
2026-02-20T16:41:12.289706,26.039,can0  060  [32]  00 00 00 00 49 F8 4C 08 5C 4B B7 10 00 00 10 0E FF 01 80 00 00 00 00 00 01 00 00 00 00 00 00 00
2026-02-20T16:41:12.374731,26.124,can0  204  [16]  4B 23 50 46 50 46 50 46 28 23 30 75 30 75 00 00
2026-02-20T16:41:12.374908,26.124,can0  041  [04]  02 00 00 00
2026-02-20T16:41:12.375084,26.124,can0  070  [20]  49 F8 4C 08 08 F6 61 03 F8 2A 00 00 29 00 00 00 7C 00 00 00
2026-02-20T16:41:12.375262,26.124,can0  204  [16]  4B 23 50 46 50 46 50 46 28 23 30 75 30 75 00 00
2026-02-20T16:41:12.375404,26.125,can0  070  [20]  49 F8 4C 08 08 F6 61 03 F8 2A 00 00 29 00 00 00 7D 00 00 00
2026-02-20T16:41:12.478285,26.227,can0  204  [16]  4B 23 50 46 50 46 50 46 28 23 30 75 30 75 00 00
2026-02-20T16:41:12.478455,26.228,can0  070  [20]  49 F8 4C 08 08 F6 61 03 F8 2A 00 00 29 00 00 00 7D 00 00 00
2026-02-20T16:41:12.478647,26.228,can0  204  [16]  4B 23 50 46 50 46 50 46 28 23 30 75 30 75 00 00
2026-02-20T16:41:12.579583,26.329,can0  204  [16]  4B 23 50 46 50 46 50 46 28 23 30 75 30 75 00 00
2026-02-20T16:41:12.579811,26.329,can0  206  [24]  7B 0C 7D 07 77 0C 99 C6 7D 07 83 0C 7F 0C 00 00 00 00 00 00 00 00 00 00
2026-02-20T16:41:12.580001,26.329,can0  204  [16]  4B 23 50 46 50 46 50 46 28 23 30 75 30 75 00 00
2026-02-20T16:41:12.680292,26.429,can0  041  [04]  02 00 00 00
2026-02-20T16:41:12.680491,26.430,can0  204  [16]  4B 23 50 46 50 46 50 46 28 23 30 75 30 75 00 00
2026-02-20T16:41:12.681035,26.430,can0  204  [16]  4B 23 50 46 50 46 50 46 28 23 30 75 30 75 00 00
2026-02-20T16:41:12.681063,26.430,can0  100  [03]  EE 52 04
2026-02-20T16:41:12.785172,26.534,can0  204  [16]  4B 23 50 46 50 46 50 46 28 23 30 75 30 75 00 00
2026-02-20T16:41:12.785361,26.535,can0  204  [16]  4B 23 50 46 50 46 50 46 28 23 30 75 30 75 00 00
2026-02-20T16:41:12.785482,26.535,can0  060  [32]  00 00 00 00 00 00 00 00 00 00 00 00 00 00 00 00 00 00 00 00 00 00 00 00 00 00 00 00 00 00 00 00
2026-02-20T16:41:12.869232,26.618,can0  204  [16]  4B 23 50 46 50 46 50 46 28 23 30 75 30 75 00 00
2026-02-20T16:41:12.869608,26.619,can0  204  [16]  4B 23 50 46 50 46 50 46 28 23 30 75 30 75 00 00
2026-02-20T16:41:12.869652,26.619,can0  041  [04]  02 00 02 00
2026-02-20T16:41:12.973233,26.722,can0  204  [16]  4B 23 50 46 50 46 50 46 28 23 30 75 30 75 00 00
2026-02-20T16:41:12.973362,26.723,can0  070  [20]  49 F8 4C 08 08 F6 61 03 F8 2A 00 00 29 00 00 00 7D 00 00 00
2026-02-20T16:41:12.973498,26.723,can0  204  [16]  4B 23 50 46 50 46 50 46 28 23 30 75 30 75 00 00
2026-02-20T16:41:13.074952,26.824,can0  204  [16]  4B 23 50 46 50 46 50 46 28 23 30 75 30 75 00 00
2026-02-20T16:41:13.078594,26.828,can0  204  [16]  4B 23 50 46 50 46 50 46 28 23 30 75 30 75 00 00
2026-02-20T16:41:13.176318,26.926,can0  110  [02]  E3 1C
2026-02-20T16:41:13.176473,26.926,can0  204  [16]  4B 23 50 46 50 46 50 46 28 23 30 75 30 75 00 00
2026-02-20T16:41:13.176616,26.926,can0  041  [04]  8B 00 02 00
2026-02-20T16:41:13.176753,26.926,can0  204  [16]  4B 23 50 46 50 46 50 46 28 23 30 75 30 75 00 00
2026-02-20T16:41:13.282128,27.031,can0  206  [24]  9F 0C 7B 07 73 0C 99 C6 82 07 8F 0C 56 0C 00 00 00 00 00 00 00 00 00 00
2026-02-20T16:41:13.282278,27.031,can0  204  [16]  4B 23 50 46 50 46 50 46 28 23 30 75 30 75 00 00
2026-02-20T16:41:13.282414,27.032,can0  204  [16]  4B 23 50 46 50 46 50 46 28 23 30 75 30 75 00 00
2026-02-20T16:41:13.282509,27.032,can0  060  [32]  00 00 00 00 00 00 00 00 00 00 00 00 00 00 00 00 00 00 00 00 00 00 00 00 00 00 00 00 00 00 00 00
2026-02-20T16:41:13.393058,27.142,can0  060  [32]  00 00 00 00 49 F8 4C 08 5C 4B B7 10 00 00 10 0E FF 01 80 00 00 00 00 00 01 00 00 00 00 00 00 00
2026-02-20T16:41:13.393589,27.143,can0  070  [20]  49 F8 4C 08 06 F6 61 03 E0 2E 00 00 29 00 00 00 83 01 00 00
2026-02-20T16:41:13.393751,27.143,can0  204  [16]  4B 23 50 46 50 46 50 46 28 23 30 75 30 75 00 00
2026-02-20T16:41:13.393906,27.143,can0  070  [20]  49 F8 4C 08 06 F6 61 03 E0 2E 00 00 29 00 00 00 84 01 00 00
2026-02-20T16:41:13.397319,27.147,can0  204  [16]  4B 23 50 46 50 46 50 46 28 23 30 75 30 75 00 00
2026-02-20T16:41:13.481487,27.231,can0  041  [04]  8B 00 02 00
2026-02-20T16:41:13.481688,27.231,can0  204  [16]  4B 23 50 46 50 46 50 46 28 23 30 75 30 75 00 00
2026-02-20T16:41:13.481891,27.231,can0  070  [20]  49 F8 4C 08 06 F6 61 03 E0 2E 00 00 29 00 00 00 84 01 00 00
2026-02-20T16:41:13.482007,27.231,can0  204  [16]  4B 23 50 46 50 46 50 46 28 23 30 75 30 75 00 00
2026-02-20T16:41:13.585723,27.335,can0  204  [16]  4B 23 50 46 50 46 50 46 28 23 30 75 30 75 00 00
2026-02-20T16:41:13.585848,27.335,can0  204  [16]  4B 23 50 46 50 46 50 46 28 23 30 75 30 75 00 00
2026-02-20T16:41:13.687599,27.437,can0  204  [16]  4B 23 50 46 50 46 50 46 28 23 30 75 30 75 00 00
2026-02-20T16:41:13.687966,27.437,can0  041  [04]  9F 00 02 00
2026-02-20T16:41:13.688039,27.437,can0  204  [16]  4B 23 50 46 50 46 50 46 28 23 30 75 30 75 00 00
2026-02-20T16:41:13.792556,27.542,can0  204  [16]  4B 23 50 46 50 46 50 46 28 23 30 75 30 75 00 00
2026-02-20T16:41:13.792694,27.542,can0  204  [16]  4B 23 50 46 50 46 50 46 28 23 30 75 30 75 00 00
2026-02-20T16:41:13.872256,27.621,can0  060  [32]  00 00 00 00 00 00 00 00 00 00 00 00 00 00 00 00 00 00 00 00 00 00 00 00 00 00 00 00 00 00 00 00
2026-02-20T16:41:13.872613,27.622,can0  204  [16]  4B 23 50 46 50 46 50 46 28 23 30 75 30 75 00 00
2026-02-20T16:41:13.872799,27.622,can0  206  [24]  7B 0C 80 07 77 0C DA DC 82 07 8B 0C 7B 0C 00 00 00 00 00 00 00 00 00 00
2026-02-20T16:41:13.872967,27.622,can0  204  [16]  4B 23 50 46 50 46 50 46 28 23 30 75 30 75 00 00
2026-02-20T16:41:13.995788,27.745,can0  204  [16]  4B 23 50 46 50 46 50 46 28 23 30 75 30 75 00 00
2026-02-20T16:41:13.996100,27.745,can0  041  [04]  B5 00 00 00
2026-02-20T16:41:13.996136,27.745,can0  070  [20]  49 F8 4C 08 06 F6 61 03 E0 2E 00 00 29 00 00 00 84 01 00 00
2026-02-20T16:41:14.000199,27.749,can0  100  [03]  EA 52 04
2026-02-20T16:41:14.000281,27.749,can0  204  [16]  4B 23 50 46 50 46 50 46 28 23 30 75 30 75 00 00
2026-02-20T16:41:14.078150,27.827,can0  204  [16]  4B 23 50 46 50 46 50 46 28 23 30 75 30 75 00 00
2026-02-20T16:41:14.078371,27.828,can0  204  [16]  4B 23 50 46 50 46 50 46 28 23 30 75 30 75 00 00
2026-02-20T16:41:14.179393,27.929,can0  204  [16]  4B 23 50 46 50 46 50 46 28 23 30 75 30 75 00 00
2026-02-20T16:41:14.283046,28.032,can0  204  [16]  4B 23 50 46 50 46 50 46 28 23 30 75 30 75 00 00
2026-02-20T16:41:14.283360,28.033,can0  041  [04]  2F 00 02 00
2026-02-20T16:41:14.283388,28.033,can0  204  [16]  4B 23 50 46 50 46 50 46 28 23 30 75 30 75 00 00
2026-02-20T16:41:14.388349,28.138,can0  204  [16]  4B 23 50 46 50 46 50 46 28 23 30 75 30 75 00 00
2026-02-20T16:41:14.388645,28.138,can0  060  [32]  00 00 00 00 49 F8 4C 08 5B 4B B7 10 02 00 10 0E FF 01 80 00 00 00 00 00 01 00 00 00 00 00 00 00
2026-02-20T16:41:14.389462,28.139,can0  204  [16]  4B 23 50 46 50 46 50 46 28 23 30 75 30 75 00 00
2026-02-20T16:41:14.389644,28.139,can0  070  [20]  47 F8 4C 08 04 F6 61 03 C8 32 00 00 29 00 00 00 A9 00 00 00
2026-02-20T16:41:14.478656,28.228,can0  070  [20]  47 F8 4C 08 04 F6 61 03 C8 32 00 00 29 00 00 00 A9 00 00 00
2026-02-20T16:41:14.478873,28.228,can0  204  [16]  4B 23 50 46 50 46 50 46 28 23 30 75 30 75 00 00
2026-02-20T16:41:14.479003,28.228,can0  204  [16]  4B 23 50 46 50 46 50 46 28 23 30 75 30 75 00 00
2026-02-20T16:41:14.479136,28.228,can0  041  [04]  10 01 02 00
2026-02-20T16:41:14.482845,28.232,can0  070  [20]  47 F8 4C 08 04 F6 61 03 C8 32 00 00 29 00 00 00 A9 00 00 00
2026-02-20T16:41:14.583318,28.333,can0  206  [24]  7B 0C 7D 07 7B 0C 99 C6 84 07 87 0C 7B 0C 00 00 00 00 00 00 00 00 00 00
2026-02-20T16:41:14.583457,28.333,can0  204  [16]  4B 23 50 46 50 46 50 46 28 23 30 75 30 75 00 00
2026-02-20T16:41:14.583593,28.333,can0  204  [16]  4B 23 50 46 50 46 50 46 28 23 30 75 30 75 00 00
2026-02-20T16:41:14.687182,28.436,can0  204  [16]  4B 23 50 46 50 46 50 46 28 23 30 75 30 75 00 00
2026-02-20T16:41:14.687557,28.437,can0  204  [16]  4B 23 50 46 50 46 50 46 28 23 30 75 30 75 00 00
2026-02-20T16:41:14.790986,28.540,can0  204  [16]  4B 23 50 46 50 46 50 46 28 23 30 75 30 75 00 00
2026-02-20T16:41:14.791204,28.540,can0  041  [04]  B5 00 00 00
2026-02-20T16:41:14.791327,28.541,can0  204  [16]  4B 23 50 46 50 46 50 46 28 23 30 75 30 75 00 00
2026-02-20T16:41:14.791704,28.541,can0  110  [02]  E0 1C
2026-02-20T16:41:14.897579,28.647,can0  204  [16]  4B 23 50 46 50 46 50 46 28 23 30 75 30 75 00 00
2026-02-20T16:41:14.897666,28.647,can0  060  [32]  00 00 00 00 00 00 00 00 00 00 00 00 00 00 00 00 00 00 00 00 00 00 00 00 00 00 00 00 00 00 00 00
2026-02-20T16:41:14.901354,28.651,can0  204  [16]  4B 23 50 46 50 46 50 46 28 23 30 75 30 75 00 00
2026-02-20T16:41:14.986950,28.736,can0  204  [16]  4B 23 50 46 50 46 50 46 28 23 30 75 30 75 00 00
2026-02-20T16:41:14.987089,28.736,can0  204  [16]  4B 23 50 46 50 46 50 46 28 23 30 75 30 75 00 00
2026-02-20T16:41:14.987209,28.736,can0  070  [20]  47 F8 4C 08 04 F6 61 03 C8 32 00 00 29 00 00 00 A9 00 00 00
2026-02-20T16:41:15.092542,28.842,can0  041  [04]  9A 00 05 00
2026-02-20T16:41:15.092668,28.842,can0  070  [20]  47 F8 4C 08 04 F6 61 03 C8 32 00 00 29 00 00 00 A9 00 00 00
2026-02-20T16:41:15.092804,28.842,can0  204  [16]  4B 23 50 46 50 46 50 46 28 23 30 75 30 75 00 00
2026-02-20T16:41:15.096446,28.846,can0  204  [16]  4B 23 50 46 50 46 50 46 28 23 30 75 30 75 00 00
2026-02-20T16:41:15.194180,28.943,can0  204  [16]  4B 23 50 46 50 46 50 46 28 23 30 75 30 75 00 00
2026-02-20T16:41:15.201959,28.951,can0  206  [24]  77 0C 7B 07 6B 0C DA DC 86 07 8F 0C 83 0C 00 00 00 00 00 00 00 00 00 00
2026-02-20T16:41:15.202178,28.951,can0  204  [16]  4B 23 50 46 50 46 50 46 28 23 30 75 30 75 00 00
2026-02-20T16:41:15.279439,29.029,can0  100  [03]  E7 52 04
2026-02-20T16:41:15.279597,29.029,can0  204  [16]  4B 23 50 46 50 46 50 46 28 23 30 75 30 75 00 00
2026-02-20T16:41:15.279730,29.029,can0  041  [04]  8B 00 02 00
2026-02-20T16:41:15.279872,29.029,can0  204  [16]  4B 23 50 46 50 46 50 46 28 23 30 75 30 75 00 00
2026-02-20T16:41:15.384193,29.133,can0  060  [32]  00 00 00 00 00 00 00 00 00 00 00 00 00 00 00 00 00 00 00 00 00 00 00 00 00 00 00 00 00 00 00 00
2026-02-20T16:41:15.384517,29.134,can0  204  [16]  4B 23 50 46 50 46 50 46 28 23 30 75 30 75 00 00
2026-02-20T16:41:15.384656,29.134,can0  060  [32]  00 00 00 00 47 F8 4C 08 59 4B B7 10 00 00 10 0E FF 01 80 00 00 00 00 00 01 00 00 00 00 00 00 00
2026-02-20T16:41:15.385089,29.134,can0  070  [20]  47 F8 4C 08 04 F6 61 03 B0 36 00 00 29 00 00 00 43 00 00 00
2026-02-20T16:41:15.385231,29.134,can0  204  [16]  4B 23 50 46 50 46 50 46 28 23 30 75 30 75 00 00
2026-02-20T16:41:15.385341,29.135,can0  070  [20]  47 F8 4C 08 04 F6 61 03 B0 36 00 00 29 00 00 00 42 00 00 00
2026-02-20T16:41:15.498775,29.248,can0  204  [16]  4B 23 50 46 50 46 50 46 28 23 30 75 30 75 00 00
2026-02-20T16:41:15.498896,29.248,can0  070  [20]  47 F8 4C 08 04 F6 61 03 B0 36 00 00 29 00 00 00 42 00 00 00
2026-02-20T16:41:15.499037,29.248,can0  204  [16]  4B 23 50 46 50 46 50 46 28 23 30 75 30 75 00 00
2026-02-20T16:41:15.578433,29.328,can0  204  [16]  4B 23 50 46 50 46 50 46 28 23 30 75 30 75 00 00
2026-02-20T16:41:15.578568,29.328,can0  041  [04]  10 01 00 00
2026-02-20T16:41:15.578703,29.328,can0  204  [16]  4B 23 50 46 50 46 50 46 28 23 30 75 30 75 00 00
2026-02-20T16:41:15.683500,29.433,can0  204  [16]  4B 23 50 46 50 46 50 46 28 23 30 75 30 75 00 00
2026-02-20T16:41:15.683635,29.433,can0  204  [16]  4B 23 50 46 50 46 50 46 28 23 30 75 30 75 00 00
2026-02-20T16:41:15.787360,29.537,can0  204  [16]  4B 23 50 46 50 46 50 46 28 23 30 75 30 75 00 00
2026-02-20T16:41:15.787500,29.537,can0  204  [16]  4B 23 50 46 50 46 50 46 28 23 30 75 30 75 00 00
2026-02-20T16:41:15.787673,29.537,can0  206  [24]  7B 0C 80 07 7B 0C 99 C6 82 07 83 0C 7B 0C 00 00 00 00 00 00 00 00 00 00
2026-02-20T16:41:15.895175,29.644,can0  041  [04]  24 01 02 00
2026-02-20T16:41:15.895325,29.645,can0  204  [16]  4B 23 50 46 50 46 50 46 28 23 30 75 30 75 00 00
2026-02-20T16:41:15.895422,29.645,can0  060  [32]  00 00 00 00 00 00 00 00 00 00 00 00 00 00 00 00 00 00 00 00 00 00 00 00 00 00 00 00 00 00 00 00
2026-02-20T16:41:15.899161,29.648,can0  204  [16]  4B 23 50 46 50 46 50 46 28 23 30 75 30 75 00 00
2026-02-20T16:41:15.982973,29.732,can0  204  [16]  4B 23 50 46 50 46 50 46 28 23 30 75 30 75 00 00
2026-02-20T16:41:15.983144,29.732,can0  070  [20]  47 F8 4C 08 04 F6 61 03 B0 36 00 00 29 00 00 00 42 00 00 00
2026-02-20T16:41:15.986935,29.736,can0  204  [16]  4B 23 50 46 50 46 50 46 28 23 30 75 30 75 00 00
2026-02-20T16:41:16.088330,29.838,can0  204  [16]  4B 23 50 46 50 46 50 46 28 23 30 75 30 75 00 00
2026-02-20T16:41:16.088463,29.838,can0  041  [04]  10 01 02 00
2026-02-20T16:41:16.088596,29.838,can0  204  [16]  4B 23 50 46 50 46 50 46 28 23 30 75 30 75 00 00
2026-02-20T16:41:16.193453,29.943,can0  204  [16]  4B 23 50 46 50 46 50 46 28 23 30 75 30 75 00 00
2026-02-20T16:41:16.193602,29.943,can0  204  [16]  4B 23 50 46 50 46 50 46 28 23 30 75 30 75 00 00
2026-02-20T16:41:16.297727,30.047,can0  204  [16]  4B 23 50 46 50 46 50 46 28 23 30 75 30 75 00 00
2026-02-20T16:41:16.297854,30.047,can0  204  [16]  4B 23 50 46 50 46 50 46 28 23 30 75 30 75 00 00
2026-02-20T16:41:16.376056,30.125,can0  041  [04]  10 01 00 00
2026-02-20T16:41:16.376144,30.125,can0  060  [32]  00 00 00 00 47 F8 4C 08 59 4B B7 10 00 00 10 0E FF 01 80 00 00 00 00 00 01 00 00 00 00 00 00 00
2026-02-20T16:41:16.376590,30.126,can0  204  [16]  4B 23 50 46 50 46 50 46 28 23 30 75 30 75 00 00
2026-02-20T16:41:16.376723,30.126,can0  070  [20]  47 F8 4C 08 04 F6 61 03 98 3A 00 00 29 00 00 00 78 00 00 00
2026-02-20T16:41:16.376839,30.126,can0  070  [20]  47 F8 4C 08 04 F6 61 03 98 3A 00 00 29 00 00 00 79 00 00 00
2026-02-20T16:41:16.376974,30.126,can0  204  [16]  4B 23 50 46 50 46 50 46 28 23 30 75 30 75 00 00
2026-02-20T16:41:16.491882,30.241,can0  206  [24]  73 0C 7B 07 77 0C 99 C6 86 07 8F 0C 83 0C 00 00 00 00 00 00 00 00 00 00
2026-02-20T16:41:16.492006,30.241,can0  070  [20]  47 F8 4C 08 04 F6 61 03 98 3A 00 00 29 00 00 00 79 00 00 00
2026-02-20T16:41:16.492155,30.241,can0  204  [16]  4B 23 50 46 50 46 50 46 28 23 30 75 30 75 00 00
2026-02-20T16:41:16.492555,30.242,can0  100  [03]  E6 52 04
2026-02-20T16:41:16.492866,30.242,can0  110  [02]  E2 1C
2026-02-20T16:41:16.493026,30.242,can0  204  [16]  4B 23 50 46 50 46 50 46 28 23 30 75 30 75 00 00
2026-02-20T16:41:16.597555,30.347,can0  204  [16]  4B 23 50 46 50 46 50 46 28 23 30 75 30 75 00 00
2026-02-20T16:41:16.597694,30.347,can0  041  [04]  02 00 05 00
2026-02-20T16:41:16.676460,30.426,can0  204  [16]  4B 23 50 46 50 46 50 46 28 23 30 75 30 75 00 00
2026-02-20T16:41:16.676615,30.426,can0  204  [16]  4B 23 50 46 50 46 50 46 28 23 30 75 30 75 00 00
2026-02-20T16:41:16.778820,30.528,can0  204  [16]  4B 23 50 46 50 46 50 46 28 23 30 75 30 75 00 00
2026-02-20T16:41:16.778950,30.528,can0  204  [16]  4B 23 50 46 50 46 50 46 28 23 30 75 30 75 00 00
2026-02-20T16:41:16.779085,30.528,can0  204  [16]  4B 23 50 46 50 46 50 46 28 23 30 75 30 75 00 00
2026-02-20T16:41:16.881334,30.631,can0  060  [32]  00 00 00 00 00 00 00 00 00 00 00 00 00 00 00 00 00 00 00 00 00 00 00 00 00 00 00 00 00 00 00 00
2026-02-20T16:41:16.881684,30.631,can0  204  [16]  4B 23 50 46 50 46 50 46 28 23 30 75 30 75 00 00
2026-02-20T16:41:16.881894,30.631,can0  041  [04]  5D 00 06 00
2026-02-20T16:41:16.995712,30.745,can0  204  [16]  4B 23 50 46 50 46 50 46 28 23 30 75 30 75 00 00
2026-02-20T16:41:16.995912,30.745,can0  070  [20]  47 F8 4C 08 04 F6 61 03 98 3A 00 00 29 00 00 00 79 00 00 00
2026-02-20T16:41:16.996105,30.745,can0  204  [16]  4B 23 50 46 50 46 50 46 28 23 30 75 30 75 00 00
2026-02-20T16:41:16.999638,30.749,can0  070  [20]  47 F8 4C 08 04 F6 61 03 98 3A 00 00 29 00 00 00 79 00 00 00
2026-02-20T16:41:17.100630,30.850,can0  204  [16]  4B 23 50 46 50 46 50 46 28 23 30 75 30 75 00 00
2026-02-20T16:41:17.100830,30.850,can0  204  [16]  4B 23 50 46 50 46 50 46 28 23 30 75 30 75 00 00
2026-02-20T16:41:17.101032,30.850,can0  206  [24]  7F 0C 80 07 77 0C 99 C6 82 07 87 0C 7F 0C 00 00 00 00 00 00 00 00 00 00
2026-02-20T16:41:17.178773,30.928,can0  204  [16]  4B 23 50 46 50 46 50 46 28 23 30 75 30 75 00 00
2026-02-20T16:41:17.182408,30.932,can0  041  [04]  2F 00 02 00
2026-02-20T16:41:17.182449,30.932,can0  204  [16]  4B 23 50 46 50 46 50 46 28 23 30 75 30 75 00 00
2026-02-20T16:41:17.283886,31.033,can0  204  [16]  4B 23 50 46 50 46 50 46 28 23 30 75 30 75 00 00
2026-02-20T16:41:17.284210,31.033,can0  204  [16]  4B 23 50 46 50 46 50 46 28 23 30 75 30 75 00 00
2026-02-20T16:41:17.386250,31.135,can0  204  [16]  4B 23 50 46 50 46 50 46 28 23 30 75 30 75 00 00
2026-02-20T16:41:17.386368,31.136,can0  060  [32]  00 00 00 00 00 00 00 00 00 00 00 00 00 00 00 00 00 00 00 00 00 00 00 00 00 00 00 00 00 00 00 00
2026-02-20T16:41:17.386572,31.136,can0  060  [32]  00 00 00 00 47 F8 4C 08 59 4B B7 10 00 00 10 0E FF 01 80 00 00 00 00 00 01 00 00 00 00 00 00 00
2026-02-20T16:41:17.386967,31.136,can0  204  [16]  4B 23 50 46 50 46 50 46 28 23 30 75 30 75 00 00
2026-02-20T16:41:17.390460,31.140,can0  041  [04]  5E 00 02 00
