Timestamp,Elapsed_Time_s,CAN_Message
2026-02-20T16:59:36.831893,0.855,can0  204  [16]  6E 23 50 46 50 46 50 46 25 23 30 75 30 75 00 00
2026-02-20T16:59:36.835045,0.858,can0  204  [16]  6E 23 50 46 50 46 50 46 25 23 30 75 30 75 00 00
2026-02-20T16:59:36.923038,0.946,can0  204  [16]  6E 23 50 46 50 46 50 46 25 23 30 75 30 75 00 00
2026-02-20T16:59:36.923246,0.946,can0  204  [16]  6E 23 50 46 50 46 50 46 25 23 30 75 30 75 00 00
2026-02-20T16:59:37.026790,1.050,can0  041  [04]  60 01 07 00
2026-02-20T16:59:37.026961,1.050,can0  204  [16]  6E 23 50 46 50 46 50 46 25 23 30 75 30 75 00 00
2026-02-20T16:59:37.027120,1.050,can0  204  [16]  6E 23 50 46 50 46 50 46 25 23 30 75 30 75 00 00
2026-02-20T16:59:37.125644,1.149,can0  204  [16]  6E 23 50 46 50 46 50 46 25 23 30 75 30 75 00 00
2026-02-20T16:59:37.125830,1.149,can0  204  [16]  6E 23 50 46 50 46 50 46 25 23 30 75 30 75 00 00
2026-02-20T16:59:37.225101,1.248,can0  204  [16]  6E 23 50 46 50 46 50 46 25 23 30 75 30 75 00 00
2026-02-20T16:59:37.225272,1.248,can0  041  [04]  02 00 05 00
2026-02-20T16:59:37.226510,1.250,can0  204  [16]  6E 23 50 46 50 46 50 46 25 23 30 75 30 75 00 00
2026-02-20T16:59:37.323475,1.347,can0  204  [16]  6E 23 50 46 50 46 50 46 25 23 30 75 30 75 00 00
2026-02-20T16:59:37.325495,1.349,can0  204  [16]  6E 23 50 46 50 46 50 46 25 23 30 75 30 75 00 00
2026-02-20T16:59:37.425748,1.449,can0  206  [24]  7B 0C 5F 07 7F 0C 99 C6 73 07 7B 0C 73 0C 00 00 00 00 00 00 00 00 00 00
2026-02-20T16:59:37.425902,1.449,can0  204  [16]  6E 23 50 46 50 46 50 46 25 23 30 75 30 75 00 00
2026-02-20T16:59:37.531614,1.555,can0  204  [16]  6E 23 50 46 50 46 50 46 25 23 30 75 30 75 00 00
2026-02-20T16:59:37.531746,1.555,can0  041  [04]  2F 00 00 00
2026-02-20T16:59:37.531875,1.555,can0  204  [16]  6E 23 50 46 50 46 50 46 25 23 30 75 30 75 00 00
2026-02-20T16:59:37.532289,1.555,can0  100  [03]  79 45 04
2026-02-20T16:59:37.532603,1.556,can0  110  [02]  24 1D
2026-02-20T16:59:37.639036,1.662,can0  204  [16]  6E 23 50 46 50 46 50 46 25 23 30 75 30 75 00 00
2026-02-20T16:59:37.643268,1.666,can0  204  [16]  6E 23 50 46 50 46 50 46 25 23 30 75 30 75 00 00
2026-02-20T16:59:37.737116,1.760,can0  204  [16]  6E 23 50 46 50 46 50 46 25 23 30 75 30 75 00 00
2026-02-20T16:59:37.737334,1.760,can0  204  [16]  6E 23 50 46 50 46 50 46 25 23 30 75 30 75 00 00
2026-02-20T16:59:37.737534,1.761,can0  041  [04]  10 01 02 00
2026-02-20T16:59:37.843006,1.866,can0  204  [16]  6E 23 50 46 50 46 50 46 25 23 30 75 30 75 00 00
2026-02-20T16:59:37.843205,1.866,can0  204  [16]  6E 23 50 46 50 46 50 46 25 23 30 75 30 75 00 00
2026-02-20T16:59:37.930400,1.953,can0  204  [16]  6E 23 50 46 50 46 50 46 25 23 30 75 30 75 00 00
2026-02-20T16:59:37.930536,1.954,can0  204  [16]  6E 23 50 46 50 46 50 46 25 23 30 75 30 75 00 00
2026-02-20T16:59:38.015504,2.039,can0  204  [16]  6E 23 50 46 50 46 50 46 25 23 30 75 30 75 00 00
2026-02-20T16:59:38.015760,2.039,can0  204  [16]  6E 23 50 46 50 46 50 46 25 23 30 75 30 75 00 00
2026-02-20T16:59:38.015919,2.039,can0  041  [04]  10 01 02 00
2026-02-20T16:59:38.019023,2.042,can0  206  [24]  83 0C 64 07 67 0C 99 C6 77 07 7B 0C 6F 0C 00 00 00 00 00 00 00 00 00 00
2026-02-20T16:59:38.129444,2.152,can0  204  [16]  6E 23 50 46 50 46 50 46 25 23 30 75 30 75 00 00
2026-02-20T16:59:38.129774,2.153,can0  204  [16]  6E 23 50 46 50 46 50 46 25 23 30 75 30 75 00 00
2026-02-20T16:59:38.236262,2.259,can0  204  [16]  6E 23 50 46 50 46 50 46 25 23 30 75 30 75 00 00
2026-02-20T16:59:38.236452,2.259,can0  204  [16]  6E 23 50 46 50 46 50 46 25 23 30 75 30 75 00 00
2026-02-20T16:59:38.339832,2.363,can0  204  [16]  6E 23 50 46 50 46 50 46 25 23 30 75 30 75 00 00
2026-02-20T16:59:38.339993,2.363,can0  041  [04]  10 01 02 00
2026-02-20T16:59:38.342982,2.366,can0  204  [16]  6E 23 50 46 50 46 50 46 25 23 30 75 30 75 00 00
2026-02-20T16:59:38.414645,2.438,can0  204  [16]  6E 23 50 46 50 46 50 46 25 23 30 75 30 75 00 00
2026-02-20T16:59:38.414830,2.438,can0  204  [16]  6E 23 50 46 50 46 50 46 25 23 30 75 30 75 00 00
2026-02-20T16:59:38.526664,2.550,can0  204  [16]  6E 23 50 46 50 46 50 46 25 23 30 75 30 75 00 00
2026-02-20T16:59:38.526856,2.550,can0  204  [16]  6E 23 50 46 50 46 50 46 25 23 30 75 30 75 00 00
2026-02-20T16:59:38.626545,2.650,can0  041  [04]  B5 00 05 00
2026-02-20T16:59:38.626746,2.650,can0  204  [16]  6E 23 50 46 50 46 50 46 25 23 30 75 30 75 00 00
2026-02-20T16:59:38.629547,2.653,can0  204  [16]  6E 23 50 46 50 46 50 46 25 23 30 75 30 75 00 00
2026-02-20T16:59:38.728605,2.752,can0  204  [16]  6E 23 50 46 50 46 50 46 25 23 30 75 30 75 00 00
2026-02-20T16:59:38.728827,2.752,can0  206  [24]  7B 0C 5F 07 73 0C 3A DF 7D 07 73 0C 73 0C 00 00 00 00 00 00 00 00 00 00
2026-02-20T16:59:38.729006,2.752,can0  204  [16]  6E 23 50 46 50 46 50 46 25 23 30 75 30 75 00 00
2026-02-20T16:59:38.832647,2.856,can0  204  [16]  6E 23 50 46 50 46 50 46 25 23 30 75 30 75 00 00
2026-02-20T16:59:38.833039,2.856,can0  100  [03]  78 45 04
2026-02-20T16:59:38.833223,2.856,can0  041  [04]  8B 00 00 00
2026-02-20T16:59:38.833500,2.857,can0  204  [16]  6E 23 50 46 50 46 50 46 25 23 30 75 30 75 00 00
2026-02-20T16:59:38.916869,2.940,can0  204  [16]  6E 23 50 46 50 46 50 46 25 23 30 75 30 75 00 00
2026-02-20T16:59:38.917184,2.940,can0  204  [16]  6E 23 50 46 50 46 50 46 25 23 30 75 30 75 00 00
2026-02-20T16:59:39.023008,3.046,can0  204  [16]  6E 23 50 46 50 46 50 46 25 23 30 75 30 75 00 00
2026-02-20T16:59:39.023075,3.046,can0  204  [16]  6E 23 50 46 50 46 50 46 25 23 30 75 30 75 00 00
2026-02-20T16:59:39.124240,3.147,can0  204  [16]  6E 23 50 46 50 46 50 46 25 23 30 75 30 75 00 00
2026-02-20T16:59:39.124428,3.147,can0  041  [04]  9F 00 02 00
2026-02-20T16:59:39.124626,3.148,can0  204  [16]  6E 23 50 46 50 46 50 46 25 23 30 75 30 75 00 00
2026-02-20T16:59:39.223107,3.246,can0  204  [16]  6E 23 50 46 50 46 50 46 25 23 30 75 30 75 00 00
2026-02-20T16:59:39.223187,3.246,can0  204  [16]  6E 23 50 46 50 46 50 46 25 23 30 75 30 75 00 00
2026-02-20T16:59:39.223212,3.246,can0  110  [02]  24 1D
2026-02-20T16:59:39.318513,3.342,can0  204  [16]  6E 23 50 46 50 46 50 46 25 23 30 75 30 75 00 00
2026-02-20T16:59:39.318700,3.342,can0  206  [24]  77 0C 64 07 7B 0C 99 C6 75 07 93 0C 77 0C 00 00 00 00 00 00 00 00 00 00
2026-02-20T16:59:39.318841,3.342,can0  204  [16]  6E 23 50 46 50 46 50 46 25 23 30 75 30 75 00 00
2026-02-20T16:59:39.318964,3.342,can0  041  [04]  8B 00 02 00
2026-02-20T16:59:39.413433,3.436,can0  204  [16]  6E 23 50 46 50 46 50 46 25 23 30 75 30 75 00 00
2026-02-20T16:59:39.413558,3.437,can0  204  [16]  6E 23 50 46 50 46 50 46 25 23 30 75 30 75 00 00
2026-02-20T16:59:39.514433,3.537,can0  204  [16]  6E 23 50 46 50 46 50 46 25 23 30 75 30 75 00 00
2026-02-20T16:59:39.514574,3.538,can0  204  [16]  6E 23 50 46 50 46 50 46 25 23 30 75 30 75 00 00
2026-02-20T16:59:39.632661,3.656,can0  204  [16]  6E 23 50 46 50 46 50 46 25 23 30 75 30 75 00 00
2026-02-20T16:59:39.632809,3.656,can0  041  [04]  71 00 05 00
2026-02-20T16:59:39.632948,3.656,can0  204  [16]  6E 23 50 46 50 46 50 46 25 23 30 75 30 75 00 00
2026-02-20T16:59:39.731493,3.755,can0  204  [16]  6E 23 50 46 50 46 50 46 25 23 30 75 30 75 00 00
2026-02-20T16:59:39.734783,3.758,can0  204  [16]  6E 23 50 46 50 46 50 46 25 23 30 75 30 75 00 00
2026-02-20T16:59:39.831113,3.854,can0  204  [16]  6E 23 50 46 50 46 50 46 25 23 30 75 30 75 00 00
2026-02-20T16:59:39.831266,3.854,can0  204  [16]  6E 23 50 46 50 46 50 46 25 23 30 75 30 75 00 00
2026-02-20T16:59:39.931256,3.954,can0  041  [04]  5E 00 02 00
2026-02-20T16:59:39.931393,3.954,can0  204  [16]  6E 23 50 46 50 46 50 46 25 23 30 75 30 75 00 00
2026-02-20T16:59:39.931527,3.955,can0  204  [16]  6E 23 50 46 50 46 50 46 25 23 30 75 30 75 00 00
2026-02-20T16:59:39.964889,3.988,can0   00  [04]  0d 85 30 10 0
2026-02-20T16:59:40.031543,4.055,can0  206  [24]  7F 0C 66 07 73 0C 99 C6 77 07 87 0C 6F 0C 00 00 00 00 00 00 00 00 00 00
2026-02-20T16:59:40.031690,4.055,can0  204  [16]  6E 23 50 46 50 46 50 46 25 23 30 75 30 75 00 00
2026-02-20T16:59:40.031755,4.055,can0  002  [04]  D8 53 01 00
2026-02-20T16:59:40.035067,4.058,can0  204  [16]  6E 23 50 46 50 46 50 46 25 23 30 75 30 75 00 00
2026-02-20T16:59:40.138441,4.161,can0  100  [03]  78 45 04
2026-02-20T16:59:40.138677,4.162,can0  204  [16]  6E 23 50 46 50 46 50 46 25 23 30 75 30 75 00 00
2026-02-20T16:59:40.138818,4.162,can0  041  [04]  8B 00 00 00
2026-02-20T16:59:40.138958,4.162,can0  204  [16]  6E 23 50 46 50 46 50 46 25 23 30 75 30 75 00 00
2026-02-20T16:59:40.232214,4.255,can0  204  [16]  6E 23 50 46 50 46 50 46 25 23 30 75 30 75 00 00
2026-02-20T16:59:40.236207,4.259,can0  204  [16]  6E 23 50 46 50 46 50 46 25 23 30 75 30 75 00 00
2026-02-20T16:59:40.334305,4.357,can0  204  [16]  6E 23 50 46 50 46 50 46 25 23 30 75 30 75 00 00
2026-02-20T16:59:40.334444,4.357,can0  204  [16]  6E 23 50 46 50 46 50 46 25 23 30 75 30 75 00 00
2026-02-20T16:59:40.434395,4.457,can0  204  [16]  6E 23 50 46 50 46 50 46 25 23 30 75 30 75 00 00
2026-02-20T16:59:40.434530,4.458,can0  041  [04]  9F 00 00 00
2026-02-20T16:59:40.471835,4.495,can0   00  [04]  09 05 f0 10 0
2026-02-20T16:59:40.537084,4.560,can0  204  [16]  6E 23 50 46 50 46 50 46 25 23 30 75 30 75 00 00
2026-02-20T16:59:40.537149,4.560,can0  002  [04]  90 5F 01 00
2026-02-20T16:59:40.541043,4.564,can0  204  [16]  6E 23 50 46 50 46 50 46 25 23 30 75 30 75 00 00
2026-02-20T16:59:40.648357,4.671,can0  204  [16]  6E 23 50 46 50 46 50 46 25 23 30 75 30 75 00 00
2026-02-20T16:59:40.648558,4.672,can0  204  [16]  6E 23 50 46 50 46 50 46 25 23 30 75 30 75 00 00
2026-02-20T16:59:40.648785,4.672,can0  206  [24]  6F 0C 6C 07 7B 0C 99 C6 79 07 77 0C 83 0C 00 00 00 00 00 00 00 00 00 00
2026-02-20T16:59:40.722963,4.746,can0  204  [16]  6E 23 50 46 50 46 50 46 25 23 30 75 30 75 00 00
2026-02-20T16:59:40.723133,4.746,can0  041  [04]  B5 00 02 00
2026-02-20T16:59:40.723306,4.746,can0  204  [16]  6E 23 50 46 50 46 50 46 25 23 30 75 30 75 00 00
2026-02-20T16:59:40.822264,4.845,can0  204  [16]  6E 23 50 46 50 46 50 46 25 23 30 75 30 75 00 00
2026-02-20T16:59:40.822452,4.845,can0  204  [16]  6E 23 50 46 50 46 50 46 25 23 30 75 30 75 00 00
2026-02-20T16:59:40.921748,4.945,can0  204  [16]  6E 23 50 46 50 46 50 46 25 23 30 75 30 75 00 00
2026-02-20T16:59:40.922129,4.945,can0  110  [02]  24 1D
2026-02-20T16:59:40.922333,4.945,can0  204  [16]  6E 23 50 46 50 46 50 46 25 23 30 75 30 75 00 00
2026-02-20T16:59:40.922475,4.946,can0  041  [04]  B5 00 02 00
2026-02-20T16:59:41.021645,5.045,can0  204  [16]  6E 23 50 46 50 46 50 46 25 23 30 75 30 75 00 00
2026-02-20T16:59:41.024750,5.048,can0  204  [16]  6E 23 50 46 50 46 50 46 25 23 30 75 30 75 00 00
2026-02-20T16:59:41.135867,5.159,can0  204  [16]  6E 23 50 46 50 46 50 46 25 23 30 75 30 75 00 00
2026-02-20T16:59:41.139164,5.162,can0  204  [16]  6E 23 50 46 50 46 50 46 25 23 30 75 30 75 00 00
2026-02-20T16:59:41.223582,5.247,can0  204  [16]  6E 23 50 46 50 46 50 46 25 23 30 75 30 75 00 00
2026-02-20T16:59:41.223716,5.247,can0  041  [04]  E4 00 06 00
2026-02-20T16:59:41.223856,5.247,can0  204  [16]  6E 23 50 46 50 46 50 46 25 23 30 75 30 75 00 00
2026-02-20T16:59:41.342073,5.365,can0  204  [16]  6E 23 50 46 50 46 50 46 25 23 30 75 30 75 00 00
2026-02-20T16:59:41.342290,5.365,can0  206  [24]  77 0C 61 07 77 0C 99 C6 77 07 8F 0C 7B 0C 00 00 00 00 00 00 00 00 00 00
2026-02-20T16:59:41.342742,5.366,can0  204  [16]  6E 23 50 46 50 46 50 46 25 23 30 75 30 75 00 00
2026-02-20T16:59:41.342772,5.366,can0  100  [03]  78 45 04
2026-02-20T16:59:41.414714,5.438,can0   00  [05]  0d 85 30 10 08 0
2026-02-20T16:59:41.436356,5.459,can0  204  [16]  6E 23 50 46 50 46 50 46 25 23 30 75 30 75 00 00
2026-02-20T16:59:41.436534,5.460,can0  204  [16]  6E 23 50 46 50 46 50 46 25 23 30 75 30 75 00 00
2026-02-20T16:59:41.436615,5.460,can0  001  [05]  D8 53 01 00 80
2026-02-20T16:59:41.534138,5.557,can0  041  [04]  B5 00 05 00
2026-02-20T16:59:41.534348,5.557,can0  204  [16]  6E 23 50 46 50 46 50 46 FC 21 30 75 30 75 00 00
2026-02-20T16:59:41.534531,5.558,can0  204  [16]  6E 23 50 46 50 46 50 46 FC 21 30 75 30 75 00 00
2026-02-20T16:59:41.637725,5.661,can0  204  [16]  6E 23 50 46 50 46 50 46 FC 21 30 75 30 75 00 00
2026-02-20T16:59:41.637921,5.661,can0  204  [16]  6E 23 50 46 50 46 50 46 FC 21 30 75 30 75 00 00
2026-02-20T16:59:41.733198,5.756,can0  204  [16]  6E 23 50 46 50 46 50 46 FC 21 30 75 30 75 00 00
2026-02-20T16:59:41.736102,5.759,can0  204  [16]  4B 23 50 46 50 46 50 46 FC 21 30 75 30 75 00 00
2026-02-20T16:59:41.736138,5.759,can0  041  [04]  8B 00 00 00
2026-02-20T16:59:41.831095,5.854,can0  204  [16]  4B 23 50 46 50 46 50 46 FC 21 30 75 30 75 00 00
2026-02-20T16:59:41.831295,5.854,can0  204  [16]  28 23 50 46 50 46 50 46 FC 21 30 75 30 75 00 00
2026-02-20T16:59:41.931201,5.954,can0  204  [16]  28 23 50 46 50 46 50 46 FC 21 30 75 30 75 00 00
2026-02-20T16:59:41.931432,5.954,can0  206  [24]  67 0C 5F 07 67 0C 3A DF 79 07 8F 0C 83 0C 00 00 00 00 00 00 00 00 00 00
2026-02-20T16:59:41.934694,5.958,can0  204  [16]  04 23 50 46 50 46 50 46 FC 21 30 75 30 75 00 00
2026-02-20T16:59:42.040926,6.064,can0  204  [16]  04 23 50 46 50 46 50 46 FC 21 30 75 30 75 00 00
2026-02-20T16:59:42.041096,6.064,can0  041  [04]  8B 00 05 00
2026-02-20T16:59:42.043696,6.067,can0  204  [16]  E1 22 50 46 50 46 50 46 FC 21 30 75 30 75 00 00
2026-02-20T16:59:42.125836,6.149,can0  204  [16]  E1 22 50 46 50 46 50 46 FC 21 30 75 30 75 00 00
2026-02-20T16:59:42.126018,6.149,can0  204  [16]  BE 22 50 46 50 46 50 46 FC 21 30 75 30 75 00 00
2026-02-20T16:59:42.137138,6.160,can0   00  [05]  02 04 80 10 08 0
2026-02-20T16:59:42.235257,6.258,can0  001  [05]  20 48 01 00 80
2026-02-20T16:59:42.235706,6.259,can0  204  [16]  BE 22 50 46 50 46 50 46 D0 20 30 75 30 75 00 00
2026-02-20T16:59:42.235854,6.259,can0  204  [16]  BE 22 50 46 50 46 50 46 D0 20 30 75 30 75 00 00
2026-02-20T16:59:42.326565,6.350,can0  041  [04]  B5 00 02 00
2026-02-20T16:59:42.326787,6.350,can0  204  [16]  9B 22 50 46 50 46 50 46 D0 20 30 75 30 75 00 00
2026-02-20T16:59:42.326968,6.350,can0  204  [16]  78 22 50 46 50 46 50 46 D0 20 30 75 30 75 00 00
2026-02-20T16:59:42.417139,6.440,can0   00  [05]  06 83 c0 10 08 0
2026-02-20T16:59:42.425936,6.449,can0  204  [16]  55 22 50 46 50 46 50 46 D0 20 30 75 30 75 00 00
2026-02-20T16:59:42.426173,6.449,can0  204  [16]  31 22 50 46 50 46 50 46 D0 20 30 75 30 75 00 00
2026-02-20T16:59:42.426246,6.449,can0  001  [05]  68 3C 01 00 80
2026-02-20T16:59:42.534527,6.558,can0  204  [16]  31 22 50 46 50 46 50 46 A4 1F 30 75 30 75 00 00
2026-02-20T16:59:42.534670,6.558,can0  041  [04]  B5 00 05 00
2026-02-20T16:59:42.534822,6.558,can0  204  [16]  EB 21 50 46 50 46 50 46 A4 1F 30 75 30 75 00 00
2026-02-20T16:59:42.632524,6.656,can0  206  [24]  7F 0C 5D 07 67 0C 3A DF 75 07 6F 0C 6B 0C 00 00 00 00 00 00 00 00 00 00
2026-02-20T16:59:42.632954,6.656,can0  100  [03]  7B 45 04
2026-02-20T16:59:42.633280,6.656,can0  110  [02]  23 1D
2026-02-20T16:59:42.633475,6.657,can0  204  [16]  EB 21 50 46 50 46 50 46 A4 1F 30 75 30 75 00 00
2026-02-20T16:59:42.633657,6.657,can0  204  [16]  A5 21 50 46 50 46 50 46 A4 1F 30 75 30 75 00 00
2026-02-20T16:59:42.733621,6.757,can0  204  [16]  A5 21 50 46 50 46 50 46 A4 1F 30 75 30 75 00 00
2026-02-20T16:59:42.733824,6.757,can0  204  [16]  5E 21 50 46 50 46 50 46 A4 1F 30 75 30 75 00 00
2026-02-20T16:59:42.830561,6.854,can0  041  [04]  9F 00 02 00
2026-02-20T16:59:42.830831,6.854,can0  204  [16]  5E 21 50 46 50 46 50 46 A4 1F 30 75 30 75 00 00
2026-02-20T16:59:42.930771,6.954,can0  204  [16]  3B 21 50 46 50 46 50 46 A4 1F 30 75 30 75 00 00
2026-02-20T16:59:42.931017,6.954,can0  204  [16]  18 21 50 46 50 46 50 46 A4 1F 30 75 30 75 00 00
2026-02-20T16:59:43.041107,7.064,can0  204  [16]  F5 20 50 46 50 46 50 46 A4 1F 30 75 30 75 00 00
2026-02-20T16:59:43.048567,7.072,can0  204  [16]  F5 20 50 46 50 46 50 46 A4 1F 30 75 30 75 00 00
2026-02-20T16:59:43.130354,7.153,can0  204  [16]  D2 20 50 46 50 46 50 46 A4 1F 30 75 30 75 00 00
2026-02-20T16:59:43.130594,7.154,can0  041  [04]  8B 00 05 00
2026-02-20T16:59:43.131712,7.155,can0  204  [16]  AF 20 50 46 50 46 50 46 A4 1F 30 75 30 75 00 00
2026-02-20T16:59:43.238034,7.261,can0  204  [16]  AF 20 50 46 50 46 50 46 A4 1F 30 75 30 75 00 00
2026-02-20T16:59:43.238473,7.262,can0  204  [16]  8C 20 50 46 50 46 50 46 A4 1F 30 75 30 75 00 00
2026-02-20T16:59:43.238534,7.262,can0  206  [24]  87 0C 64 07 67 0C 99 C6 79 07 83 0C 6B 0C 00 00 00 00 00 00 00 00 00 00
2026-02-20T16:59:43.320249,7.343,can0  204  [16]  8C 20 50 46 50 46 50 46 A4 1F 30 75 30 75 00 00
2026-02-20T16:59:43.320438,7.343,can0  204  [16]  68 20 50 46 50 46 50 46 A4 1F 30 75 30 75 00 00
2026-02-20T16:59:43.320560,7.344,can0  041  [04]  5E 00 05 00
2026-02-20T16:59:43.415804,7.439,can0   00  [05]  02 04 80 10 08 0
2026-02-20T16:59:43.431377,7.454,can0  204  [16]  68 20 50 46 50 46 50 46 A4 1F 30 75 30 75 00 00
2026-02-20T16:59:43.431458,7.455,can0  204  [16]  45 20 50 46 50 46 50 46 A4 1F 30 75 30 75 00 00
2026-02-20T16:59:43.527907,7.551,can0  001  [05]  20 48 01 00 80
2026-02-20T16:59:43.528406,7.551,can0  204  [16]  45 20 50 46 50 46 50 46 D0 20 30 75 30 75 00 00
2026-02-20T16:59:43.528442,7.551,can0  204  [16]  45 20 50 46 50 46 50 46 D0 20 30 75 30 75 00 00
2026-02-20T16:59:43.644492,7.668,can0  204  [16]  45 20 50 46 50 46 50 46 D0 20 30 75 30 75 00 00
2026-02-20T16:59:43.644829,7.668,can0  041  [04]  5D 00 06 00
2026-02-20T16:59:43.644869,7.668,can0  204  [16]  45 20 50 46 50 46 50 46 D0 20 30 75 30 75 00 00
2026-02-20T16:59:43.741008,7.764,can0  204  [16]  45 20 50 46 50 46 50 46 D0 20 30 75 30 75 00 00
2026-02-20T16:59:43.741132,7.764,can0  204  [16]  45 20 50 46 50 46 50 46 D0 20 30 75 30 75 00 00
2026-02-20T16:59:43.838711,7.862,can0  204  [16]  45 20 50 46 50 46 50 46 D0 20 30 75 30 75 00 00
2026-02-20T16:59:43.838844,7.862,can0  204  [16]  45 20 50 46 50 46 50 46 D0 20 30 75 30 75 00 00
2026-02-20T16:59:43.937488,7.961,can0  100  [03]  78 45 04
2026-02-20T16:59:43.937617,7.961,can0  041  [04]  8B 00 06 00
2026-02-20T16:59:43.937794,7.961,can0  206  [24]  7B 0C 61 07 73 0C 99 C6 79 07 87 0C 6F 0C 00 00 00 00 00 00 00 00 00 00
2026-02-20T16:59:43.937938,7.961,can0  204  [16]  45 20 50 46 50 46 50 46 D0 20 30 75 30 75 00 00
2026-02-20T16:59:43.938067,7.961,can0  204  [16]  45 20 50 46 50 46 50 46 D0 20 30 75 30 75 00 00
2026-02-20T16:59:44.035918,8.059,can0  204  [16]  45 20 50 46 50 46 50 46 D0 20 30 75 30 75 00 00
2026-02-20T16:59:44.039475,8.063,can0  204  [16]  45 20 50 46 50 46 50 46 D0 20 30 75 30 75 00 00
2026-02-20T16:59:44.147527,8.171,can0  204  [16]  45 20 50 46 50 46 50 46 D0 20 30 75 30 75 00 00
2026-02-20T16:59:44.147594,8.171,can0  204  [16]  45 20 50 46 50 46 50 46 D0 20 30 75 30 75 00 00
2026-02-20T16:59:44.147686,8.171,can0  041  [04]  C9 00 06 00
2026-02-20T16:59:44.156935,8.180,can0   00  [05]  0d 85 30 10 08 0
2026-02-20T16:59:44.230432,8.253,can0  204  [16]  45 20 50 46 50 46 50 46 D0 20 30 75 30 75 00 00
2026-02-20T16:59:44.231232,8.254,can0  001  [05]  D8 53 01 00 80
2026-02-20T16:59:44.231484,8.255,can0  204  [16]  45 20 50 46 50 46 50 46 FC 21 30 75 30 75 00 00
2026-02-20T16:59:44.343754,8.367,can0  204  [16]  45 20 50 46 50 46 50 46 FC 21 30 75 30 75 00 00
2026-02-20T16:59:44.344123,8.367,can0  110  [02]  22 1D
2026-02-20T16:59:44.344297,8.367,can0  204  [16]  45 20 50 46 50 46 50 46 FC 21 30 75 30 75 00 00
2026-02-20T16:59:44.441798,8.465,can0  204  [16]  45 20 50 46 50 46 50 46 FC 21 30 75 30 75 00 00
2026-02-20T16:59:44.441928,8.465,can0  041  [04]  B5 00 05 00
2026-02-20T16:59:44.442051,8.465,can0  204  [16]  45 20 50 46 50 46 50 46 FC 21 30 75 30 75 00 00
2026-02-20T16:59:44.522364,8.545,can0  204  [16]  45 20 50 46 50 46 50 46 FC 21 30 75 30 75 00 00
2026-02-20T16:59:44.522549,8.546,can0  206  [24]  7B 0C 5F 07 67 0C C5 E1 77 07 8B 0C 6F 0C 00 00 00 00 00 00 00 00 00 00
2026-02-20T16:59:44.522687,8.546,can0  204  [16]  45 20 50 46 50 46 50 46 FC 21 30 75 30 75 00 00
2026-02-20T16:59:44.621389,8.644,can0  204  [16]  45 20 50 46 50 46 50 46 FC 21 30 75 30 75 00 00
2026-02-20T16:59:44.621540,8.645,can0  204  [16]  68 20 50 46 50 46 50 46 FC 21 30 75 30 75 00 00
2026-02-20T16:59:44.747089,8.770,can0  041  [04]  E4 00 04 00
2026-02-20T16:59:44.747196,8.770,can0  204  [16]  68 20 50 46 50 46 50 46 FC 21 30 75 30 75 00 00
2026-02-20T16:59:44.753601,8.777,can0  204  [16]  68 20 50 46 50 46 50 46 FC 21 30 75 30 75 00 00
2026-02-20T16:59:44.837873,8.861,can0  204  [16]  68 20 50 46 50 46 50 46 FC 21 30 75 30 75 00 00
2026-02-20T16:59:44.837940,8.861,can0  204  [16]  68 20 50 46 50 46 50 46 FC 21 30 75 30 75 00 00
2026-02-20T16:59:44.945357,8.968,can0  204  [16]  68 20 50 46 50 46 50 46 FC 21 30 75 30 75 00 00
2026-02-20T16:59:44.945676,8.969,can0  041  [04]  B5 00 06 00
2026-02-20T16:59:44.945705,8.969,can0  204  [16]  68 20 50 46 50 46 50 46 FC 21 30 75 30 75 00 00
2026-02-20T16:59:45.032588,9.056,can0  204  [16]  68 20 50 46 50 46 50 46 FC 21 30 75 30 75 00 00
2026-02-20T16:59:45.036976,9.060,can0  204  [16]  68 20 50 46 50 46 50 46 FC 21 30 75 30 75 00 00
2026-02-20T16:59:45.103269,9.126,can0   00  [05]  09 05 f0 10 08 0
2026-02-20T16:59:45.123465,9.147,can0  204  [16]  68 20 50 46 50 46 50 46 FC 21 30 75 30 75 00 00
2026-02-20T16:59:45.123886,9.147,can0  100  [03]  75 45 04
2026-02-20T16:59:45.123983,9.147,can0  001  [05]  90 5F 01 00 80
2026-02-20T16:59:45.124283,9.147,can0  204  [16]  68 20 50 46 50 46 50 46 28 23 30 75 30 75 00 00
2026-02-20T16:59:45.243496,9.267,can0  206  [24]  73 0C 64 07 7B 0C B1 E0 75 07 73 0C 6B 0C 00 00 00 00 00 00 00 00 00 00
2026-02-20T16:59:45.243688,9.267,can0  041  [04]  B5 00 05 00
2026-02-20T16:59:45.243886,9.267,can0  204  [16]  68 20 50 46 50 46 50 46 28 23 30 75 30 75 00 00
2026-02-20T16:59:45.246827,9.270,can0  204  [16]  8C 20 50 46 50 46 50 46 28 23 30 75 30 75 00 00
2026-02-20T16:59:45.343758,9.367,can0  204  [16]  8C 20 50 46 50 46 50 46 28 23 30 75 30 75 00 00
2026-02-20T16:59:45.343938,9.367,can0  204  [16]  8C 20 50 46 50 46 50 46 28 23 30 75 30 75 00 00
2026-02-20T16:59:45.444861,9.468,can0  204  [16]  8C 20 50 46 50 46 50 46 28 23 30 75 30 75 00 00
2026-02-20T16:59:45.538429,9.561,can0  041  [04]  B5 00 05 00
2026-02-20T16:59:45.538642,9.562,can0  204  [16]  AF 20 50 46 50 46 50 46 28 23 30 75 30 75 00 00
2026-02-20T16:59:45.538824,9.562,can0  204  [16]  F5 20 50 46 50 46 50 46 28 23 30 75 30 75 00 00
2026-02-20T16:59:45.644757,9.668,can0  204  [16]  18 21 50 46 50 46 50 46 28 23 30 75 30 75 00 00
2026-02-20T16:59:45.644955,9.668,can0  204  [16]  3B 21 50 46 50 46 50 46 28 23 30 75 30 75 00 00
2026-02-20T16:59:45.733639,9.757,can0  204  [16]  5E 21 50 46 50 46 50 46 28 23 30 75 30 75 00 00
2026-02-20T16:59:45.734077,9.757,can0  204  [16]  82 21 50 46 50 46 50 46 28 23 30 75 30 75 00 00
2026-02-20T16:59:45.734270,9.757,can0  041  [04]  B5 00 02 00
2026-02-20T16:59:45.848923,9.872,can0  204  [16]  82 21 50 46 50 46 50 46 28 23 30 75 30 75 00 00
2026-02-20T16:59:45.848980,9.872,can0  204  [16]  A5 21 50 46 50 46 50 46 28 23 30 75 30 75 00 00
2026-02-20T16:59:45.852920,9.876,can0  206  [24]  67 0C 5D 07 6B 0C 99 C6 71 07 7F 0C 7F 0C 00 00 00 00 00 00 00 00 00 00
2026-02-20T16:59:45.940209,9.963,can0  204  [16]  C8 21 50 46 50 46 50 46 28 23 30 75 30 75 00 00
2026-02-20T16:59:45.940381,9.963,can0  204  [16]  EB 21 50 46 50 46 50 46 28 23 30 75 30 75 00 00
2026-02-20T16:59:46.027459,10.051,can0  204  [16]  EB 21 50 46 50 46 50 46 28 23 30 75 30 75 00 00
2026-02-20T16:59:46.027839,10.051,can0  110  [02]  20 1D
2026-02-20T16:59:46.027990,10.051,can0  041  [04]  9F 00 02 00
2026-02-20T16:59:46.028128,10.051,can0  204  [16]  0E 22 50 46 50 46 50 46 28 23 30 75 30 75 00 00
2026-02-20T16:59:46.146328,10.169,can0  204  [16]  31 22 50 46 50 46 50 46 28 23 30 75 30 75 00 00
2026-02-20T16:59:46.146463,10.170,can0  204  [16]  31 22 50 46 50 46 50 46 28 23 30 75 30 75 00 00
2026-02-20T16:59:46.247211,10.270,can0  204  [16]  55 22 50 46 50 46 50 46 28 23 30 75 30 75 00 00
2026-02-20T16:59:46.247350,10.270,can0  204  [16]  55 22 50 46 50 46 50 46 28 23 30 75 30 75 00 00
2026-02-20T16:59:46.337558,10.361,can0  041  [04]  B5 00 00 00
2026-02-20T16:59:46.337733,10.361,can0  204  [16]  78 22 50 46 50 46 50 46 28 23 30 75 30 75 00 00
2026-02-20T16:59:46.338998,10.362,can0  204  [16]  78 22 50 46 50 46 50 46 28 23 30 75 30 75 00 00
2026-02-20T16:59:46.428242,10.451,can0  204  [16]  9B 22 50 46 50 46 50 46 28 23 30 75 30 75 00 00
2026-02-20T16:59:46.428622,10.452,can0  100  [03]  75 45 04
2026-02-20T16:59:46.428795,10.452,can0  204  [16]  9B 22 50 46 50 46 50 46 28 23 30 75 30 75 00 00
2026-02-20T16:59:46.539000,10.562,can0  206  [24]  73 0C 61 07 6F 0C 99 C6 77 07 73 0C 7B 0C 00 00 00 00 00 00 00 00 00 00
2026-02-20T16:59:46.539200,10.562,can0  204  [16]  9B 22 50 46 50 46 50 46 28 23 30 75 30 75 00 00
2026-02-20T16:59:46.539391,10.562,can0  041  [04]  B5 00 00 00
2026-02-20T16:59:46.539517,10.563,can0  204  [16]  BE 22 50 46 50 46 50 46 28 23 30 75 30 75 00 00
2026-02-20T16:59:46.630578,10.654,can0   00  [05]  04 86 b0 10 08 0
2026-02-20T16:59:46.647324,10.670,can0  204  [16]  BE 22 50 46 50 46 50 46 28 23 30 75 30 75 00 00
2026-02-20T16:59:46.647460,10.671,can0  204  [16]  BE 22 50 46 50 46 50 46 28 23 30 75 30 75 00 00
2026-02-20T16:59:46.727454,10.751,can0  001  [05]  48 6B 01 00 80
2026-02-20T16:59:46.727822,10.751,can0  204  [16]  BE 22 50 46 50 46 50 46 54 24 30 75 30 75 00 00
2026-02-20T16:59:46.731359,10.754,can0  204  [16]  E1 22 50 46 50 46 50 46 54 24 30 75 30 75 00 00
2026-02-20T16:59:46.853083,10.876,can0  204  [16]  E1 22 50 46 50 46 50 46 54 24 30 75 30 75 00 00
2026-02-20T16:59:46.853267,10.876,can0  041  [04]  C9 00 02 00
2026-02-20T16:59:46.853926,10.877,can0  204  [16]  04 23 50 46 50 46 50 46 54 24 30 75 30 75 00 00
2026-02-20T16:59:46.934991,10.958,can0  204  [16]  28 23 50 46 50 46 50 46 54 24 30 75 30 75 00 00
2026-02-20T16:59:46.936066,10.959,can0  204  [16]  28 23 50 46 50 46 50 46 54 24 30 75 30 75 00 00
2026-02-20T16:59:47.040827,11.064,can0  204  [16]  4B 23 50 46 50 46 50 46 54 24 30 75 30 75 00 00
2026-02-20T16:59:47.040961,11.064,can0  204  [16]  4B 23 50 46 50 46 50 46 54 24 30 75 30 75 00 00
2026-02-20T16:59:47.041085,11.064,can0  041  [04]  B5 00 00 00
2026-02-20T16:59:47.146675,11.170,can0  204  [16]  6E 23 50 46 50 46 50 46 54 24 30 75 30 75 00 00
2026-02-20T16:59:47.146852,11.170,can0  206  [24]  73 0C 5D 07 77 0C 99 C6 82 07 7B 0C 6F 0C 00 00 00 00 00 00 00 00 00 00
2026-02-20T16:59:47.146988,11.170,can0  204  [16]  6E 23 50 46 50 46 50 46 54 24 30 75 30 75 00 00
2026-02-20T16:59:47.226994,11.250,can0  204  [16]  91 23 50 46 50 46 50 46 54 24 30 75 30 75 00 00
2026-02-20T16:59:47.227126,11.250,can0  204  [16]  91 23 50 46 50 46 50 46 54 24 30 75 30 75 00 00
2026-02-20T16:59:47.348028,11.371,can0  204  [16]  B4 23 50 46 50 46 50 46 54 24 30 75 30 75 00 00
2026-02-20T16:59:47.348153,11.371,can0  041  [04]  D1 00 02 00
2026-02-20T16:59:47.348288,11.371,can0  204  [16]  B4 23 50 46 50 46 50 46 54 24 30 75 30 75 00 00
2026-02-20T16:59:47.440567,11.464,can0  204  [16]  B4 23 50 46 50 46 50 46 54 24 30 75 30 75 00 00
2026-02-20T16:59:47.440713,11.464,can0  204  [16]  D7 23 50 46 50 46 50 46 54 24 30 75 30 75 00 00
2026-02-20T16:59:47.531718,11.555,can0  204  [16]  D7 23 50 46 50 46 50 46 54 24 30 75 30 75 00 00
2026-02-20T16:59:47.531841,11.555,can0  204  [16]  D7 23 50 46 50 46 50 46 54 24 30 75 30 75 00 00
2026-02-20T16:59:47.653466,11.677,can0  041  [04]  E4 00 00 00
2026-02-20T16:59:47.653660,11.677,can0  204  [16]  FA 23 50 46 50 46 50 46 54 24 30 75 30 75 00 00
2026-02-20T16:59:47.654121,11.677,can0  100  [03]  72 45 04
2026-02-20T16:59:47.654356,11.677,can0  204  [16]  FA 23 50 46 50 46 50 46 54 24 30 75 30 75 00 00
2026-02-20T16:59:47.658752,11.682,can0  110  [02]  24 1D
2026-02-20T16:59:47.696135,11.719,can0   00  [05]  00 07 70 10 08 0
2026-02-20T16:59:47.749535,11.773,can0  204  [16]  FA 23 50 46 50 46 50 46 54 24 30 75 30 75 00 00
2026-02-20T16:59:47.749610,11.773,can0  001  [05]  00 77 01 00 80
2026-02-20T16:59:47.749935,11.773,can0  204  [16]  FA 23 50 46 50 46 50 46 80 25 30 75 30 75 00 00
2026-02-20T16:59:47.849714,11.873,can0  206  [24]  73 0C 68 07 6F 0C DA DC 7D 07 7B 0C 7B 0C 00 00 00 00 00 00 00 00 00 00
2026-02-20T16:59:47.849916,11.873,can0  204  [16]  FA 23 50 46 50 46 50 46 80 25 30 75 30 75 00 00
2026-02-20T16:59:47.850073,11.873,can0  041  [04]  10 01 00 00
2026-02-20T16:59:47.930973,11.954,can0  204  [16]  FA 23 50 46 50 46 50 46 80 25 30 75 30 75 00 00
2026-02-20T16:59:47.931165,11.954,can0  204  [16]  FA 23 50 46 50 46 50 46 80 25 30 75 30 75 00 00
2026-02-20T16:59:47.931355,11.954,can0  204  [16]  1E 24 50 46 50 46 50 46 80 25 30 75 30 75 00 00
2026-02-20T16:59:48.039851,12.063,can0  204  [16]  41 24 50 46 50 46 50 46 80 25 30 75 30 75 00 00
2026-02-20T16:59:48.149423,12.172,can0  204  [16]  41 24 50 46 50 46 50 46 80 25 30 75 30 75 00 00
2026-02-20T16:59:48.157138,12.180,can0  204  [16]  64 24 50 46 50 46 50 46 80 25 30 75 30 75 00 00
2026-02-20T16:59:48.157620,12.181,can0  041  [04]  10 01 00 00
2026-02-20T16:59:48.240225,12.263,can0  204  [16]  64 24 50 46 50 46 50 46 80 25 30 75 30 75 00 00
2026-02-20T16:59:48.240429,12.263,can0  204  [16]  87 24 50 46 50 46 50 46 80 25 30 75 30 75 00 00
2026-02-20T16:59:48.332008,12.355,can0  204  [16]  87 24 50 46 50 46 50 46 80 25 30 75 30 75 00 00
2026-02-20T16:59:48.332203,12.355,can0  204  [16]  AA 24 50 46 50 46 50 46 80 25 30 75 30 75 00 00
2026-02-20T16:59:48.426587,12.450,can0  204  [16]  AA 24 50 46 50 46 50 46 80 25 30 75 30 75 00 00
2026-02-20T16:59:48.426823,12.450,can0  041  [04]  2B 01 02 00
2026-02-20T16:59:48.427035,12.450,can0  206  [24]  87 0C 5B 07 73 0C 99 C6 75 07 7F 0C 67 0C 00 00 00 00 00 00 00 00 00 00
2026-02-20T16:59:48.427242,12.450,can0  204  [16]  CD 24 50 46 50 46 50 46 80 25 30 75 30 75 00 00
2026-02-20T16:59:48.535363,12.558,can0  204  [16]  CD 24 50 46 50 46 50 46 80 25 30 75 30 75 00 00
2026-02-20T16:59:48.535744,12.559,can0  204  [16]  CD 24 50 46 50 46 50 46 80 25 30 75 30 75 00 00
2026-02-20T16:59:48.579314,12.602,can0   00  [05]  0b 88 20 10 08 0
2026-02-20T16:59:48.631346,12.654,can0  204  [16]  F1 24 50 46 50 46 50 46 80 25 30 75 30 75 00 00
2026-02-20T16:59:48.631431,12.654,can0  001  [05]  B8 82 01 00 80
2026-02-20T16:59:48.631833,12.655,can0  204  [16]  F1 24 50 46 50 46 50 46 AC 26 30 75 30 75 00 00
2026-02-20T16:59:48.631872,12.655,can0  041  [04]  FF 00 02 00
2026-02-20T16:59:48.731488,12.755,can0  204  [16]  F1 24 50 46 50 46 50 46 AC 26 30 75 30 75 00 00
2026-02-20T16:59:48.731701,12.755,can0  204  [16]  14 25 50 46 50 46 50 46 AC 26 30 75 30 75 00 00
2026-02-20T16:59:48.839537,12.863,can0  204  [16]  37 25 50 46 50 46 50 46 AC 26 30 75 30 75 00 00
2026-02-20T16:59:48.839737,12.863,can0  204  [16]  5A 25 50 46 50 46 50 46 AC 26 30 75 30 75 00 00
2026-02-20T16:59:48.949119,12.972,can0  204  [16]  5A 25 50 46 50 46 50 46 AC 26 30 75 30 75 00 00
2026-02-20T16:59:48.949562,12.973,can0  100  [03]  74 45 04
2026-02-20T16:59:48.949776,12.973,can0  041  [04]  E4 00 02 00
2026-02-20T16:59:48.949971,12.973,can0  204  [16]  7D 25 50 46 50 46 50 46 AC 26 30 75 30 75 00 00
2026-02-20T16:59:49.032562,13.056,can0  204  [16]  A0 25 50 46 50 46 50 46 AC 26 30 75 30 75 00 00
2026-02-20T16:59:49.032802,13.056,can0  204  [16]  A0 25 50 46 50 46 50 46 AC 26 30 75 30 75 00 00
2026-02-20T16:59:49.144378,13.167,can0  206  [24]  77 0C 68 07 67 0C 99 C6 79 07 7B 0C 77 0C 00 00 00 00 00 00 00 00 00 00
2026-02-20T16:59:49.144790,13.168,can0  204  [16]  C3 25 50 46 50 46 50 46 AC 26 30 75 30 75 00 00
2026-02-20T16:59:49.145005,13.168,can0  204  [16]  C3 25 50 46 50 46 50 46 AC 26 30 75 30 75 00 00
2026-02-20T16:59:49.243542,13.267,can0  204  [16]  E7 25 50 46 50 46 50 46 AC 26 30 75 30 75 00 00
2026-02-20T16:59:49.243841,13.267,can0  041  [04]  E4 00 04 00
2026-02-20T16:59:49.243881,13.267,can0  204  [16]  E7 25 50 46 50 46 50 46 AC 26 30 75 30 75 00 00
2026-02-20T16:59:49.338696,13.362,can0  204  [16]  0A 26 50 46 50 46 50 46 AC 26 30 75 30 75 00 00
2026-02-20T16:59:49.338928,13.362,can0  204  [16]  2D 26 50 46 50 46 50 46 AC 26 30 75 30 75 00 00
2026-02-20T16:59:49.343104,13.366,can0  110  [02]  24 1D
2026-02-20T16:59:49.437983,13.461,can0  204  [16]  2D 26 50 46 50 46 50 46 AC 26 30 75 30 75 00 00
2026-02-20T16:59:49.438309,13.461,can0  204  [16]  50 26 50 46 50 46 50 46 AC 26 30 75 30 75 00 00
2026-02-20T16:59:49.438352,13.461,can0  041  [04]  E4 00 00 00
2026-02-20T16:59:49.546090,13.569,can0  204  [16]  50 26 50 46 50 46 50 46 AC 26 30 75 30 75 00 00
2026-02-20T16:59:49.546231,13.569,can0  204  [16]  50 26 50 46 50 46 50 46 AC 26 30 75 30 75 00 00
2026-02-20T16:59:49.644853,13.668,can0  204  [16]  73 26 50 46 50 46 50 46 AC 26 30 75 30 75 00 00
2026-02-20T16:59:49.645030,13.668,can0  204  [16]  73 26 50 46 50 46 50 46 AC 26 30 75 30 75 00 00
2026-02-20T16:59:49.741572,13.765,can0  204  [16]  73 26 50 46 50 46 50 46 AC 26 30 75 30 75 00 00
2026-02-20T16:59:49.741652,13.765,can0  206  [24]  77 0C 64 07 6B 0C 99 C6 7D 07 97 0C 7B 0C 00 00 00 00 00 00 00 00 00 00
2026-02-20T16:59:49.741702,13.765,can0  041  [04]  10 01 02 00
2026-02-20T16:59:49.741861,13.765,can0  204  [16]  73 26 50 46 50 46 50 46 AC 26 30 75 30 75 00 00
2026-02-20T16:59:49.843819,13.867,can0  204  [16]  73 26 50 46 50 46 50 46 AC 26 30 75 30 75 00 00
2026-02-20T16:59:49.847291,13.870,can0  204  [16]  73 26 50 46 50 46 50 46 AC 26 30 75 30 75 00 00
2026-02-20T16:59:49.936757,13.960,can0  204  [16]  73 26 50 46 50 46 50 46 AC 26 30 75 30 75 00 00
2026-02-20T16:59:49.936950,13.960,can0  204  [16]  73 26 50 46 50 46 50 46 AC 26 30 75 30 75 00 00
2026-02-20T16:59:50.051421,14.074,can0  041  [04]  B5 00 02 00
2026-02-20T16:59:50.051617,14.075,can0  204  [16]  73 26 50 46 50 46 50 46 AC 26 30 75 30 75 00 00
2026-02-20T16:59:50.054052,14.077,can0  204  [16]  73 26 50 46 50 46 50 46 AC 26 30 75 30 75 00 00
2026-02-20T16:59:50.135829,14.159,can0  204  [16]  73 26 50 46 50 46 50 46 AC 26 30 75 30 75 00 00
2026-02-20T16:59:50.135955,14.159,can0  204  [16]  73 26 50 46 50 46 50 46 AC 26 30 75 30 75 00 00
2026-02-20T16:59:50.249615,14.273,can0  100  [03]  75 45 04
2026-02-20T16:59:50.249773,14.273,can0  204  [16]  73 26 50 46 50 46 50 46 AC 26 30 75 30 75 00 00
2026-02-20T16:59:50.249905,14.273,can0  041  [04]  7A 00 00 00
2026-02-20T16:59:50.250041,14.273,can0  204  [16]  73 26 50 46 50 46 50 46 AC 26 30 75 30 75 00 00
2026-02-20T16:59:50.336584,14.360,can0  204  [16]  73 26 50 46 50 46 50 46 AC 26 30 75 30 75 00 00
2026-02-20T16:59:50.336720,14.360,can0  204  [16]  73 26 50 46 50 46 50 46 AC 26 30 75 30 75 00 00
2026-02-20T16:59:50.442382,14.465,can0  206  [24]  7F 0C 61 07 6F 0C DA DC 7B 07 8F 0C 6F 0C 00 00 00 00 00 00 00 00 00 00
2026-02-20T16:59:50.442582,14.466,can0  204  [16]  73 26 50 46 50 46 50 46 AC 26 30 75 30 75 00 00
2026-02-20T16:59:50.544571,14.568,can0  204  [16]  73 26 50 46 50 46 50 46 AC 26 30 75 30 75 00 00
2026-02-20T16:59:50.544770,14.568,can0  204  [16]  73 26 50 46 50 46 50 46 AC 26 30 75 30 75 00 00
2026-02-20T16:59:50.544935,14.568,can0  041  [04]  5E 00 05 00
2026-02-20T16:59:50.647972,14.671,can0  204  [16]  73 26 50 46 50 46 50 46 AC 26 30 75 30 75 00 00
2026-02-20T16:59:50.648158,14.671,can0  204  [16]  73 26 50 46 50 46 50 46 AC 26 30 75 30 75 00 00
2026-02-20T16:59:50.752109,14.775,can0  204  [16]  73 26 50 46 50 46 50 46 AC 26 30 75 30 75 00 00
2026-02-20T16:59:50.752302,14.775,can0  204  [16]  73 26 50 46 50 46 50 46 AC 26 30 75 30 75 00 00
2026-02-20T16:59:50.830231,14.853,can0  204  [16]  73 26 50 46 50 46 50 46 AC 26 30 75 30 75 00 00
2026-02-20T16:59:50.830434,14.853,can0  041  [04]  97 00 06 00
2026-02-20T16:59:50.830616,14.854,can0  204  [16]  73 26 50 46 50 46 50 46 AC 26 30 75 30 75 00 00
2026-02-20T16:59:50.945522,14.969,can0  204  [16]  73 26 50 46 50 46 50 46 AC 26 30 75 30 75 00 00
2026-02-20T16:59:50.945721,14.969,can0  204  [16]  73 26 50 46 50 46 50 46 AC 26 30 75 30 75 00 00
2026-02-20T16:59:51.031043,15.054,can0  204  [16]  73 26 50 46 50 46 50 46 AC 26 30 75 30 75 00 00
2026-02-20T16:59:51.031312,15.054,can0  206  [24]  73 0C 64 07 73 0C 99 C6 77 07 8F 0C 7F 0C 00 00 00 00 00 00 00 00 00 00
2026-02-20T16:59:51.031488,15.055,can0  204  [16]  73 26 50 46 50 46 50 46 AC 26 30 75 30 75 00 00
2026-02-20T16:59:51.031861,15.055,can0  110  [02]  24 1D
2026-02-20T16:59:51.032023,15.055,can0  041  [04]  B5 00 08 00
2026-02-20T16:59:51.104718,15.128,can0   00  [05]  00 07 70 10 08 0
2026-02-20T16:59:51.140037,15.163,can0  204  [16]  73 26 50 46 50 46 50 46 AC 26 30 75 30 75 00 00
2026-02-20T16:59:51.140259,15.163,can0  204  [16]  73 26 50 46 50 46 50 46 AC 26 30 75 30 75 00 00
2026-02-20T16:59:51.140351,15.163,can0  001  [05]  00 77 01 00 80
2026-02-20T16:59:51.233961,15.257,can0  204  [16]  73 26 50 46 50 46 50 46 80 25 30 75 30 75 00 00
2026-02-20T16:59:51.234148,15.257,can0  204  [16]  73 26 50 46 50 46 50 46 80 25 30 75 30 75 00 00
2026-02-20T16:59:51.308904,15.332,can0   00  [05]  04 86 b0 10 08 0
2026-02-20T16:59:51.351231,15.374,can0  204  [16]  73 26 50 46 50 46 50 46 80 25 30 75 30 75 00 00
2026-02-20T16:59:51.351389,15.374,can0  041  [04]  B5 00 06 00
2026-02-20T16:59:51.351592,15.375,can0  204  [16]  73 26 50 46 50 46 50 46 80 25 30 75 30 75 00 00
2026-02-20T16:59:51.351637,15.375,can0  001  [05]  48 6B 01 00 80
2026-02-20T16:59:51.436532,15.460,can0  204  [16]  73 26 50 46 50 46 50 46 54 24 30 75 30 75 00 00
2026-02-20T16:59:51.436746,15.460,can0  204  [16]  73 26 50 46 50 46 50 46 54 24 30 75 30 75 00 00
2026-02-20T16:59:51.440899,15.464,can0  100  [03]  75 45 04
2026-02-20T16:59:51.530004,15.553,can0   00  [05]  09 05 f0 10 08 0
2026-02-20T16:59:51.545150,15.568,can0  204  [16]  73 26 50 46 50 46 50 46 54 24 30 75 30 75 00 00
2026-02-20T16:59:51.545300,15.568,can0  204  [16]  73 26 50 46 50 46 50 46 54 24 30 75 30 75 00 00
2026-02-20T16:59:51.545370,15.568,can0  001  [05]  90 5F 01 00 80
2026-02-20T16:59:51.635108,15.658,can0  041  [04]  B5 00 05 00
2026-02-20T16:59:51.635263,15.658,can0  204  [16]  73 26 50 46 50 46 50 46 28 23 30 75 30 75 00 00
2026-02-20T16:59:51.635395,15.658,can0  204  [16]  73 26 50 46 50 46 50 46 28 23 30 75 30 75 00 00
2026-02-20T16:59:51.743095,15.766,can0  206  [24]  6F 0C 5B 07 6F 0C 99 C6 7B 07 73 0C 6F 0C 00 00 00 00 00 00 00 00 00 00
2026-02-20T16:59:51.743253,15.766,can0  204  [16]  73 26 50 46 50 46 50 46 28 23 30 75 30 75 00 00
2026-02-20T16:59:51.743389,15.766,can0  204  [16]  73 26 50 46 50 46 50 46 28 23 30 75 30 75 00 00
2026-02-20T16:59:51.850720,15.874,can0  204  [16]  73 26 50 46 50 46 50 46 28 23 30 75 30 75 00 00
2026-02-20T16:59:51.850856,15.874,can0  204  [16]  50 26 50 46 50 46 50 46 28 23 30 75 30 75 00 00
2026-02-20T16:59:51.850971,15.874,can0  041  [04]  B5 00 00 00
2026-02-20T16:59:51.933778,15.957,can0  204  [16]  50 26 50 46 50 46 50 46 28 23 30 75 30 75 00 00
2026-02-20T16:59:51.933910,15.957,can0  204  [16]  50 26 50 46 50 46 50 46 28 23 30 75 30 75 00 00
2026-02-20T16:59:52.040765,16.064,can0  204  [16]  50 26 50 46 50 46 50 46 28 23 30 75 30 75 00 00
2026-02-20T16:59:52.040891,16.064,can0  204  [16]  50 26 50 46 50 46 50 46 28 23 30 75 30 75 00 00
2026-02-20T16:59:52.131516,16.155,can0  204  [16]  50 26 50 46 50 46 50 46 28 23 30 75 30 75 00 00
2026-02-20T16:59:52.131637,16.155,can0  041  [04]  B5 00 05 00
2026-02-20T16:59:52.131773,16.155,can0  204  [16]  2D 26 50 46 50 46 50 46 28 23 30 75 30 75 00 00
2026-02-20T16:59:52.244917,16.268,can0  204  [16]  0A 26 50 46 50 46 50 46 28 23 30 75 30 75 00 00
2026-02-20T16:59:52.249241,16.272,can0  204  [16]  C3 25 50 46 50 46 50 46 28 23 30 75 30 75 00 00
2026-02-20T16:59:52.335289,16.358,can0  204  [16]  A0 25 50 46 50 46 50 46 28 23 30 75 30 75 00 00
2026-02-20T16:59:52.335449,16.358,can0  206  [24]  73 0C 64 07 6F 0C DA DC 75 07 7F 0C 6F 0C 00 00 00 00 00 00 00 00 00 00
2026-02-20T16:59:52.335578,16.359,can0  204  [16]  7D 25 50 46 50 46 50 46 28 23 30 75 30 75 00 00
2026-02-20T16:59:52.451199,16.474,can0  041  [04]  E4 00 02 00
2026-02-20T16:59:52.451346,16.474,can0  204  [16]  5A 25 50 46 50 46 50 46 28 23 30 75 30 75 00 00
2026-02-20T16:59:52.451476,16.475,can0  204  [16]  37 25 50 46 50 46 50 46 28 23 30 75 30 75 00 00
2026-02-20T16:59:52.540960,16.564,can0  204  [16]  14 25 50 46 50 46 50 46 28 23 30 75 30 75 00 00
2026-02-20T16:59:52.545137,16.568,can0  204  [16]  F1 24 50 46 50 46 50 46 28 23 30 75 30 75 00 00
2026-02-20T16:59:52.661601,16.685,can0  204  [16]  CD 24 50 46 50 46 50 46 28 23 30 75 30 75 00 00
2026-02-20T16:59:52.661794,16.685,can0  041  [04]  02 00 00 00
2026-02-20T16:59:52.661991,16.685,can0  204  [16]  AA 24 50 46 50 46 50 46 28 23 30 75 30 75 00 00
2026-02-20T16:59:52.752489,16.776,can0  100  [03]  76 45 04
2026-02-20T16:59:52.752705,16.776,can0  204  [16]  87 24 50 46 50 46 50 46 28 23 30 75 30 75 00 00
2026-02-20T16:59:52.753035,16.776,can0  110  [02]  23 1D
2026-02-20T16:59:52.753247,16.776,can0  204  [16]  87 24 50 46 50 46 50 46 28 23 30 75 30 75 00 00
2026-02-20T16:59:52.848344,16.871,can0  204  [16]  64 24 50 46 50 46 50 46 28 23 30 75 30 75 00 00
2026-02-20T16:59:52.958543,16.982,can0  204  [16]  41 24 50 46 50 46 50 46 28 23 30 75 30 75 00 00
2026-02-20T16:59:52.958668,16.982,can0  041  [04]  B5 00 00 00
2026-02-20T16:59:52.958818,16.982,can0  204  [16]  41 24 50 46 50 46 50 46 28 23 30 75 30 75 00 00
2026-02-20T16:59:53.037836,17.061,can0  204  [16]  1E 24 50 46 50 46 50 46 28 23 30 75 30 75 00 00
2026-02-20T16:59:53.037997,17.061,can0  206  [24]  6B 0C 64 07 6F 0C DA DC 77 07 8B 0C 77 0C 00 00 00 00 00 00 00 00 00 00
2026-02-20T16:59:53.038127,17.061,can0  204  [16]  1E 24 50 46 50 46 50 46 28 23 30 75 30 75 00 00
2026-02-20T16:59:53.143610,17.167,can0  204  [16]  FA 23 50 46 50 46 50 46 28 23 30 75 30 75 00 00
2026-02-20T16:59:53.143765,17.167,can0  204  [16]  FA 23 50 46 50 46 50 46 28 23 30 75 30 75 00 00
2026-02-20T16:59:53.248124,17.271,can0  204  [16]  D7 23 50 46 50 46 50 46 28 23 30 75 30 75 00 00
2026-02-20T16:59:53.255686,17.279,can0  041  [04]  B5 00 06 00
2026-02-20T16:59:53.256091,17.279,can0  204  [16]  D7 23 50 46 50 46 50 46 28 23 30 75 30 75 00 00
2026-02-20T16:59:53.336104,17.359,can0  204  [16]  D7 23 50 46 50 46 50 46 28 23 30 75 30 75 00 00
2026-02-20T16:59:53.336361,17.359,can0  204  [16]  B4 23 50 46 50 46 50 46 28 23 30 75 30 75 00 00
2026-02-20T16:59:53.445803,17.469,can0  204  [16]  B4 23 50 46 50 46 50 46 28 23 30 75 30 75 00 00
2026-02-20T16:59:53.446656,17.470,can0  204  [16]  B4 23 50 46 50 46 50 46 28 23 30 75 30 75 00 00
2026-02-20T16:59:53.448471,17.472,can0  041  [04]  2B 01 00 00
2026-02-20T16:59:53.534876,17.558,can0  204  [16]  91 23 50 46 50 46 50 46 28 23 30 75 30 75 00 00
2026-02-20T16:59:53.535008,17.558,can0  204  [16]  91 23 50 46 50 46 50 46 28 23 30 75 30 75 00 00
2026-02-20T16:59:53.641336,17.664,can0  204  [16]  91 23 50 46 50 46 50 46 28 23 30 75 30 75 00 00
2026-02-20T16:59:53.641644,17.665,can0  206  [24]  73 0C 64 07 77 0C 99 C6 73 07 73 0C 7B 0C 00 00 00 00 00 00 00 00 00 00
2026-02-20T16:59:53.641684,17.665,can0  204  [16]  6E 23 50 46 50 46 50 46 28 23 30 75 30 75 00 00
2026-02-20T16:59:53.749384,17.772,can0  204  [16]  6E 23 50 46 50 46 50 46 28 23 30 75 30 75 00 00
2026-02-20T16:59:53.749519,17.773,can0  041  [04]  47 01 06 00
2026-02-20T16:59:53.749659,17.773,can0  204  [16]  6E 23 50 46 50 46 50 46 28 23 30 75 30 75 00 00
2026-02-20T16:59:53.855861,17.879,can0  204  [16]  6E 23 50 46 50 46 50 46 28 23 30 75 30 75 00 00
2026-02-20T16:59:53.855999,17.879,can0  204  [16]  6E 23 50 46 50 46 50 46 28 23 30 75 30 75 00 00
2026-02-20T16:59:53.936151,17.959,can0  204  [16]  6E 23 50 46 50 46 50 46 28 23 30 75 30 75 00 00
2026-02-20T16:59:53.936288,17.959,can0  204  [16]  6E 23 50 46 50 46 50 46 28 23 30 75 30 75 00 00
2026-02-20T16:59:53.936669,17.960,can0  100  [03]  76 45 04
2026-02-20T16:59:54.042824,18.066,can0  041  [04]  3F 01 05 00
2026-02-20T16:59:54.042968,18.066,can0  204  [16]  6E 23 50 46 50 46 50 46 28 23 30 75 30 75 00 00
2026-02-20T16:59:54.043096,18.066,can0  204  [16]  6E 23 50 46 50 46 50 46 28 23 30 75 30 75 00 00
2026-02-20T16:59:54.149810,18.173,can0  204  [16]  6E 23 50 46 50 46 50 46 28 23 30 75 30 75 00 00
2026-02-20T16:59:54.149936,18.173,can0  204  [16]  6E 23 50 46 50 46 50 46 28 23 30 75 30 75 00 00
2026-02-20T16:59:54.255777,18.279,can0  204  [16]  6E 23 50 46 50 46 50 46 28 23 30 75 30 75 00 00
2026-02-20T16:59:54.255897,18.279,can0  204  [16]  6E 23 50 46 50 46 50 46 28 23 30 75 30 75 00 00
2026-02-20T16:59:54.256020,18.279,can0  041  [04]  10 01 00 00
2026-02-20T16:59:54.337165,18.360,can0  206  [24]  83 0C 66 07 73 0C 99 C6 79 07 83 0C 6F 0C 00 00 00 00 00 00 00 00 00 00
2026-02-20T16:59:54.337310,18.360,can0  204  [16]  6E 23 50 46 50 46 50 46 28 23 30 75 30 75 00 00
2026-02-20T16:59:54.341055,18.364,can0  204  [16]  6E 23 50 46 50 46 50 46 28 23 30 75 30 75 00 00
2026-02-20T16:59:54.445765,18.469,can0  204  [16]  6E 23 50 46 50 46 50 46 28 23 30 75 30 75 00 00
2026-02-20T16:59:54.446140,18.469,can0  110  [02]  23 1D
2026-02-20T16:59:54.449692,18.473,can0  204  [16]  6E 23 50 46 50 46 50 46 28 23 30 75 30 75 00 00
2026-02-20T16:59:54.555967,18.579,can0  204  [16]  6E 23 50 46 50 46 50 46 28 23 30 75 30 75 00 00
2026-02-20T16:59:54.556140,18.579,can0  041  [04]  32 01 04 00
2026-02-20T16:59:54.556347,18.579,can0  204  [16]  6E 23 50 46 50 46 50 46 28 23 30 75 30 75 00 00
2026-02-20T16:59:54.636101,18.659,can0  204  [16]  6E 23 50 46 50 46 50 46 28 23 30 75 30 75 00 00
2026-02-20T16:59:54.636297,18.659,can0  204  [16]  6E 23 50 46 50 46 50 46 28 23 30 75 30 75 00 00
2026-02-20T16:59:54.744923,18.768,can0  204  [16]  6E 23 50 46 50 46 50 46 28 23 30 75 30 75 00 00
2026-02-20T16:59:54.745063,18.768,can0  204  [16]  6E 23 50 46 50 46 50 46 28 23 30 75 30 75 00 00
2026-02-20T16:59:54.850457,18.874,can0  041  [04]  32 01 04 00
2026-02-20T16:59:54.850603,18.874,can0  204  [16]  6E 23 50 46 50 46 50 46 28 23 30 75 30 75 00 00
2026-02-20T16:59:54.850745,18.874,can0  204  [16]  6E 23 50 46 50 46 50 46 28 23 30 75 30 75 00 00
2026-02-20T16:59:54.957099,18.980,can0  204  [16]  6E 23 50 46 50 46 50 46 28 23 30 75 30 75 00 00
2026-02-20T16:59:54.957401,18.980,can0  206  [24]  6B 0C 61 07 77 0C DA DC 7D 07 83 0C 7F 0C 00 00 00 00 00 00 00 00 00 00
2026-02-20T16:59:54.957441,18.980,can0  204  [16]  6E 23 50 46 50 46 50 46 28 23 30 75 30 75 00 00
2026-02-20T16:59:55.037881,19.061,can0  204  [16]  6E 23 50 46 50 46 50 46 28 23 30 75 30 75 00 00
2026-02-20T16:59:55.038005,19.061,can0  041  [04]  3F 01 02 00
2026-02-20T16:59:55.038138,19.061,can0  204  [16]  6E 23 50 46 50 46 50 46 28 23 30 75 30 75 00 00
2026-02-20T16:59:55.145743,19.169,can0  204  [16]  6E 23 50 46 50 46 50 46 28 23 30 75 30 75 00 00
2026-02-20T16:59:55.145875,19.169,can0  204  [16]  6E 23 50 46 50 46 50 46 28 23 30 75 30 75 00 00
2026-02-20T16:59:55.251325,19.274,can0  204  [16]  6E 23 50 46 50 46 50 46 28 23 30 75 30 75 00 00
2026-02-20T16:59:55.251726,19.275,can0  100  [03]  7A 45 04
2026-02-20T16:59:55.251910,19.275,can0  204  [16]  6E 23 50 46 50 46 50 46 28 23 30 75 30 75 00 00
2026-02-20T16:59:55.360933,19.384,can0  204  [16]  6E 23 50 46 50 46 50 46 28 23 30 75 30 75 00 00
2026-02-20T16:59:55.361176,19.384,can0  041  [04]  8B 00 00 00
2026-02-20T16:59:55.361340,19.384,can0  204  [16]  6E 23 50 46 50 46 50 46 28 23 30 75 30 75 00 00
2026-02-20T16:59:55.483282,19.506,can0  204  [16]  6E 23 50 46 50 46 50 46 28 23 30 75 30 75 00 00
2026-02-20T16:59:55.546827,19.570,can0  204  [16]  6E 23 50 46 50 46 50 46 28 23 30 75 30 75 00 00
2026-02-20T16:59:55.547059,19.570,can0  204  [16]  6E 23 50 46 50 46 50 46 28 23 30 75 30 75 00 00
2026-02-20T16:59:55.547313,19.570,can0  206  [24]  7F 0C 68 07 73 0C DA DC 79 07 83 0C 6F 0C 00 00 00 00 00 00 00 00 00 00
2026-02-20T16:59:55.638954,19.662,can0  204  [16]  6E 23 50 46 50 46 50 46 28 23 30 75 30 75 00 00
2026-02-20T16:59:55.639063,19.662,can0  041  [04]  8B 00 00 00
2026-02-20T16:59:55.639195,19.662,can0  204  [16]  6E 23 50 46 50 46 50 46 28 23 30 75 30 75 00 00
2026-02-20T16:59:55.745574,19.769,can0  204  [16]  6E 23 50 46 50 46 50 46 28 23 30 75 30 75 00 00
2026-02-20T16:59:55.745801,19.769,can0  204  [16]  6E 23 50 46 50 46 50 46 28 23 30 75 30 75 00 00
2026-02-20T16:59:55.852704,19.876,can0  204  [16]  6E 23 50 46 50 46 50 46 28 23 30 75 30 75 00 00
2026-02-20T16:59:55.852903,19.876,can0  204  [16]  6E 23 50 46 50 46 50 46 28 23 30 75 30 75 00 00
2026-02-20T16:59:55.853040,19.876,can0  041  [04]  2F 00 02 00
2026-02-20T16:59:55.958037,19.981,can0  204  [16]  6E 23 50 46 50 46 50 46 28 23 30 75 30 75 00 00
2026-02-20T16:59:55.961904,19.985,can0  204  [16]  6E 23 50 46 50 46 50 46 28 23 30 75 30 75 00 00
2026-02-20T16:59:56.039658,20.063,can0  204  [16]  6E 23 50 46 50 46 50 46 28 23 30 75 30 75 00 00
2026-02-20T16:59:56.039794,20.063,can0  204  [16]  6E 23 50 46 50 46 50 46 28 23 30 75 30 75 00 00
2026-02-20T16:59:56.148513,20.172,can0  204  [16]  6E 23 50 46 50 46 50 46 28 23 30 75 30 75 00 00
2026-02-20T16:59:56.148929,20.172,can0  110  [02]  23 1D
2026-02-20T16:59:56.149116,20.172,can0  041  [04]  2F 00 00 00
2026-02-20T16:59:56.152498,20.176,can0  204  [16]  6E 23 50 46 50 46 50 46 28 23 30 75 30 75 00 00
2026-02-20T16:59:56.258896,20.282,can0  204  [16]  6E 23 50 46 50 46 50 46 28 23 30 75 30 75 00 00
2026-02-20T16:59:56.259117,20.282,can0  206  [24]  8B 0C 64 07 67 0C 99 C6 7B 07 93 0C 67 0C 00 00 00 00 00 00 00 00 00 00
2026-02-20T16:59:56.259295,20.282,can0  204  [16]  6E 23 50 46 50 46 50 46 28 23 30 75 30 75 00 00
2026-02-20T16:59:56.342673,20.366,can0  204  [16]  6E 23 50 46 50 46 50 46 28 23 30 75 30 75 00 00
2026-02-20T16:59:56.342852,20.366,can0  204  [16]  6E 23 50 46 50 46 50 46 28 23 30 75 30 75 00 00
2026-02-20T16:59:56.450190,20.473,can0  041  [04]  B5 00 00 00
2026-02-20T16:59:56.450381,20.473,can0  204  [16]  6E 23 50 46 50 46 50 46 28 23 30 75 30 75 00 00
2026-02-20T16:59:56.450549,20.474,can0  204  [16]  6E 23 50 46 50 46 50 46 28 23 30 75 30 75 00 00
2026-02-20T16:59:56.554960,20.578,can0  204  [16]  6E 23 50 46 50 46 50 46 28 23 30 75 30 75 00 00
2026-02-20T16:59:56.555359,20.578,can0  100  [03]  76 45 04
2026-02-20T16:59:56.555550,20.579,can0  204  [16]  6E 23 50 46 50 46 50 46 28 23 30 75 30 75 00 00
2026-02-20T16:59:56.661044,20.684,can0  204  [16]  6E 23 50 46 50 46 50 46 28 23 30 75 30 75 00 00
2026-02-20T16:59:56.661359,20.684,can0  041  [04]  2F 00 05 00
2026-02-20T16:59:56.661389,20.684,can0  204  [16]  6E 23 50 46 50 46 50 46 28 23 30 75 30 75 00 00
2026-02-20T16:59:56.744407,20.767,can0  204  [16]  6E 23 50 46 50 46 50 46 28 23 30 75 30 75 00 00
2026-02-20T16:59:56.748556,20.772,can0  204  [16]  6E 23 50 46 50 46 50 46 28 23 30 75 30 75 00 00
2026-02-20T16:59:56.854197,20.877,can0  204  [16]  6E 23 50 46 50 46 50 46 28 23 30 75 30 75 00 00
2026-02-20T16:59:56.854551,20.878,can0  204  [16]  6E 23 50 46 50 46 50 46 28 23 30 75 30 75 00 00
2026-02-20T16:59:56.854573,20.878,can0  206  [24]  7F 0C 68 07 6F 0C 99 C6 77 07 83 0C 6F 0C 00 00 00 00 00 00 00 00 00 00
2026-02-20T16:59:56.960979,20.984,can0  204  [16]  6E 23 50 46 50 46 50 46 28 23 30 75 30 75 00 00
2026-02-20T16:59:56.961108,20.984,can0  041  [04]  B5 00 06 00
2026-02-20T16:59:56.964958,20.988,can0  204  [16]  6E 23 50 46 50 46 50 46 28 23 30 75 30 75 00 00
2026-02-20T16:59:57.041361,21.064,can0  204  [16]  6E 23 50 46 50 46 50 46 28 23 30 75 30 75 00 00
2026-02-20T16:59:57.041494,21.065,can0  204  [16]  6E 23 50 46 50 46 50 46 28 23 30 75 30 75 00 00
2026-02-20T16:59:57.147958,21.171,can0  204  [16]  6E 23 50 46 50 46 50 46 28 23 30 75 30 75 00 00
2026-02-20T16:59:57.148091,21.171,can0  204  [16]  6E 23 50 46 50 46 50 46 28 23 30 75 30 75 00 00
2026-02-20T16:59:57.254389,21.277,can0  041  [04]  B5 00 02 00
2026-02-20T16:59:57.254537,21.278,can0  204  [16]  6E 23 50 46 50 46 50 46 28 23 30 75 30 75 00 00
2026-02-20T16:59:57.254661,21.278,can0  204  [16]  6E 23 50 46 50 46 50 46 28 23 30 75 30 75 00 00
2026-02-20T16:59:57.361599,21.385,can0  204  [16]  6E 23 50 46 50 46 50 46 28 23 30 75 30 75 00 00
2026-02-20T16:59:57.361749,21.385,can0  204  [16]  6E 23 50 46 50 46 50 46 28 23 30 75 30 75 00 00
2026-02-20T16:59:57.442461,21.466,can0  204  [16]  6E 23 50 46 50 46 50 46 28 23 30 75 30 75 00 00
2026-02-20T16:59:57.442635,21.466,can0  041  [04]  02 00 00 00
2026-02-20T16:59:57.442737,21.466,can0  204  [16]  6E 23 50 46 50 46 50 46 28 23 30 75 30 75 00 00
2026-02-20T16:59:57.555911,21.579,can0  206  [24]  73 0C 61 07 73 0C 99 C6 75 07 7F 0C 7B 0C 00 00 00 00 00 00 00 00 00 00
2026-02-20T16:59:57.556056,21.579,can0  204  [16]  6E 23 50 46 50 46 50 46 28 23 30 75 30 75 00 00
2026-02-20T16:59:57.556204,21.579,can0  204  [16]  6E 23 50 46 50 46 50 46 28 23 30 75 30 75 00 00
2026-02-20T16:59:57.639673,21.663,can0  204  [16]  6E 23 50 46 50 46 50 46 28 23 30 75 30 75 00 00
2026-02-20T16:59:57.639802,21.663,can0  204  [16]  6E 23 50 46 50 46 50 46 28 23 30 75 30 75 00 00
2026-02-20T16:59:57.750889,21.774,can0  041  [04]  02 00 02 00
2026-02-20T16:59:57.751026,21.774,can0  204  [16]  6E 23 50 46 50 46 50 46 28 23 30 75 30 75 00 00
2026-02-20T16:59:57.751543,21.775,can0  100  [03]  74 45 04
2026-02-20T16:59:57.755083,21.778,can0  204  [16]  6E 23 50 46 50 46 50 46 28 23 30 75 30 75 00 00
2026-02-20T16:59:57.864412,21.887,can0  110  [02]  25 1D
2026-02-20T16:59:57.864847,21.888,can0  204  [16]  6E 23 50 46 50 46 50 46 28 23 30 75 30 75 00 00
2026-02-20T16:59:57.865251,21.888,can0  204  [16]  6E 23 50 46 50 46 50 46 28 23 30 75 30 75 00 00
2026-02-20T16:59:57.949277,21.972,can0  204  [16]  6E 23 50 46 50 46 50 46 28 23 30 75 30 75 00 00
2026-02-20T16:59:58.059064,22.082,can0  204  [16]  6E 23 50 46 50 46 50 46 28 23 30 75 30 75 00 00
2026-02-20T16:59:58.059243,22.082,can0  041  [04]  B5 00 00 00
2026-02-20T16:59:58.059412,22.082,can0  204  [16]  6E 23 50 46 50 46 50 46 28 23 30 75 30 75 00 00
2026-02-20T16:59:58.144117,22.167,can0  204  [16]  6E 23 50 46 50 46 50 46 28 23 30 75 30 75 00 00
2026-02-20T16:59:58.144322,22.167,can0  204  [16]  6E 23 50 46 50 46 50 46 28 23 30 75 30 75 00 00
2026-02-20T16:59:58.144555,22.168,can0  206  [24]  87 0C 5F 07 77 0C 99 C6 77 07 87 0C 67 0C 00 00 00 00 00 00 00 00 00 00
2026-02-20T16:59:58.256641,22.280,can0  204  [16]  6E 23 50 46 50 46 50 46 28 23 30 75 30 75 00 00
2026-02-20T16:59:58.264378,22.287,can0  204  [16]  6E 23 50 46 50 46 50 46 28 23 30 75 30 75 00 00
2026-02-20T16:59:58.264627,22.288,can0  041  [04]  A7 00 06 00
2026-02-20T16:59:58.349879,22.373,can0  204  [16]  6E 23 50 46 50 46 50 46 28 23 30 75 30 75 00 00
2026-02-20T16:59:58.353667,22.377,can0  204  [16]  6E 23 50 46 50 46 50 46 28 23 30 75 30 75 00 00
2026-02-20T16:59:58.462133,22.485,can0  204  [16]  6E 23 50 46 50 46 50 46 28 23 30 75 30 75 00 00
2026-02-20T16:59:58.462271,22.485,can0  204  [16]  6E 23 50 46 50 46 50 46 28 23 30 75 30 75 00 00
2026-02-20T16:59:58.545972,22.569,can0  204  [16]  6E 23 50 46 50 46 50 46 28 23 30 75 30 75 00 00
2026-02-20T16:59:58.546103,22.569,can0  041  [04]  B5 00 02 00
2026-02-20T16:59:58.550461,22.574,can0  204  [16]  6E 23 50 46 50 46 50 46 28 23 30 75 30 75 00 00
2026-02-20T16:59:58.657807,22.681,can0  204  [16]  6E 23 50 46 50 46 50 46 28 23 30 75 30 75 00 00
2026-02-20T16:59:58.658014,22.681,can0  204  [16]  6E 23 50 46 50 46 50 46 28 23 30 75 30 75 00 00
2026-02-20T16:59:58.741494,22.765,can0  204  [16]  6E 23 50 46 50 46 50 46 28 23 30 75 30 75 00 00
2026-02-20T16:59:58.741633,22.765,can0  204  [16]  6E 23 50 46 50 46 50 46 28 23 30 75 30 75 00 00
2026-02-20T16:59:58.741760,22.765,can0  041  [04]  3F 01 00 00
2026-02-20T16:59:58.854023,22.877,can0  204  [16]  6E 23 50 46 50 46 50 46 28 23 30 75 30 75 00 00
2026-02-20T16:59:58.854230,22.877,can0  206  [24]  73 0C 64 07 67 0C B1 E0 75 07 97 0C 77 0C 00 00 00 00 00 00 00 00 00 00
2026-02-20T16:59:58.854412,22.877,can0  204  [16]  6E 23 50 46 50 46 50 46 28 23 30 75 30 75 00 00
2026-02-20T16:59:58.965698,22.989,can0  204  [16]  6E 23 50 46 50 46 50 46 28 23 30 75 30 75 00 00
2026-02-20T16:59:58.969584,22.993,can0  204  [16]  6E 23 50 46 50 46 50 46 28 23 30 75 30 75 00 00
2026-02-20T16:59:59.051640,23.075,can0  204  [16]  6E 23 50 46 50 46 50 46 28 23 30 75 30 75 00 00
2026-02-20T16:59:59.052193,23.075,can0  100  [03]  71 45 04
2026-02-20T16:59:59.052348,23.075,can0  041  [04]  10 01 02 00
2026-02-20T16:59:59.053271,23.076,can0  204  [16]  6E 23 50 46 50 46 50 46 28 23 30 75 30 75 00 00
2026-02-20T16:59:59.174014,23.197,can0  204  [16]  6E 23 50 46 50 46 50 46 28 23 30 75 30 75 00 00
2026-02-20T16:59:59.174164,23.197,can0  204  [16]  6E 23 50 46 50 46 50 46 28 23 30 75 30 75 00 00
2026-02-20T16:59:59.261383,23.284,can0  204  [16]  6E 23 50 46 50 46 50 46 28 23 30 75 30 75 00 00
2026-02-20T16:59:59.261578,23.285,can0  204  [16]  6E 23 50 46 50 46 50 46 28 23 30 75 30 75 00 00
2026-02-20T16:59:59.341668,23.365,can0  204  [16]  6E 23 50 46 50 46 50 46 28 23 30 75 30 75 00 00
2026-02-20T16:59:59.341838,23.365,can0  041  [04]  2B 01 02 00
2026-02-20T16:59:59.342012,23.365,can0  204  [16]  6E 23 50 46 50 46 50 46 28 23 30 75 30 75 00 00
2026-02-20T16:59:59.447934,23.471,can0  204  [16]  6E 23 50 46 50 46 50 46 28 23 30 75 30 75 00 00
2026-02-20T16:59:59.448326,23.471,can0  110  [02]  26 1D
2026-02-20T16:59:59.448533,23.472,can0  204  [16]  6E 23 50 46 50 46 50 46 28 23 30 75 30 75 00 00
2026-02-20T16:59:59.448735,23.472,can0  206  [24]  77 0C 66 07 77 0C DA DC 77 07 7F 0C 73 0C 00 00 00 00 00 00 00 00 00 00
2026-02-20T16:59:59.555732,23.579,can0  204  [16]  6E 23 50 46 50 46 50 46 28 23 30 75 30 75 00 00
2026-02-20T16:59:59.555954,23.579,can0  204  [16]  6E 23 50 46 50 46 50 46 28 23 30 75 30 75 00 00
2026-02-20T16:59:59.559720,23.583,can0  041  [04]  10 01 00 00
2026-02-20T16:59:59.662853,23.686,can0  204  [16]  6E 23 50 46 50 46 50 46 28 23 30 75 30 75 00 00
2026-02-20T16:59:59.663037,23.686,can0  204  [16]  6E 23 50 46 50 46 50 46 28 23 30 75 30 75 00 00
2026-02-20T16:59:59.743965,23.767,can0  204  [16]  6E 23 50 46 50 46 50 46 28 23 30 75 30 75 00 00
2026-02-20T16:59:59.744143,23.767,can0  204  [16]  6E 23 50 46 50 46 50 46 28 23 30 75 30 75 00 00
2026-02-20T16:59:59.851089,23.874,can0  204  [16]  6E 23 50 46 50 46 50 46 28 23 30 75 30 75 00 00
2026-02-20T16:59:59.851293,23.874,can0  041  [04]  02 00 00 00
2026-02-20T16:59:59.851493,23.875,can0  204  [16]  6E 23 50 46 50 46 50 46 28 23 30 75 30 75 00 00
2026-02-20T16:59:59.960028,23.983,can0  204  [16]  6E 23 50 46 50 46 50 46 28 23 30 75 30 75 00 00
2026-02-20T16:59:59.960216,23.983,can0  204  [16]  6E 23 50 46 50 46 50 46 28 23 30 75 30 75 00 00
2026-02-20T17:00:00.043206,24.066,can0  204  [16]  6E 23 50 46 50 46 50 46 28 23 30 75 30 75 00 00
2026-02-20T17:00:00.043387,24.066,can0  204  [16]  6E 23 50 46 50 46 50 46 28 23 30 75 30 75 00 00
2026-02-20T17:00:00.152306,24.175,can0  041  [04]  8B 00 00 00
2026-02-20T17:00:00.152527,24.176,can0  206  [24]  83 0C 61 07 3A 0C 99 C6 75 07 93 0C 9B 0C 00 00 00 00 00 00 00 00 00 00
2026-02-20T17:00:00.152715,24.176,can0  204  [16]  6E 23 50 46 50 46 50 46 28 23 30 75 30 75 00 00
2026-02-20T17:00:00.156218,24.179,can0  204  [16]  6E 23 50 46 50 46 50 46 28 23 30 75 30 75 00 00
2026-02-20T17:00:00.256035,24.279,can0  204  [16]  6E 23 50 46 50 46 50 46 28 23 30 75 30 75 00 00
2026-02-20T17:00:00.256235,24.279,can0  204  [16]  6E 23 50 46 50 46 50 46 28 23 30 75 30 75 00 00
2026-02-20T17:00:00.348439,24.371,can0  100  [03]  6F 45 04
2026-02-20T17:00:00.348651,24.372,can0  204  [16]  6E 23 50 46 50 46 50 46 28 23 30 75 30 75 00 00
2026-02-20T17:00:00.348842,24.372,can0  204  [16]  6E 23 50 46 50 46 50 46 28 23 30 75 30 75 00 00
2026-02-20T17:00:00.348999,24.372,can0  041  [04]  10 01 02 00
2026-02-20T17:00:00.451543,24.475,can0  204  [16]  6E 23 50 46 50 46 50 46 28 23 30 75 30 75 00 00
2026-02-20T17:00:00.552356,24.575,can0  204  [16]  6E 23 50 46 50 46 50 46 28 23 30 75 30 75 00 00
2026-02-20T17:00:00.556223,24.579,can0  204  [16]  6E 23 50 46 50 46 50 46 28 23 30 75 30 75 00 00
2026-02-20T17:00:00.649598,24.673,can0  204  [16]  6E 23 50 46 50 46 50 46 28 23 30 75 30 75 00 00
2026-02-20T17:00:00.649741,24.673,can0  204  [16]  6E 23 50 46 50 46 50 46 28 23 30 75 30 75 00 00
2026-02-20T17:00:00.649870,24.673,can0  041  [04]  B5 00 00 00
2026-02-20T17:00:00.747572,24.771,can0  204  [16]  6E 23 50 46 50 46 50 46 28 23 30 75 30 75 00 00
2026-02-20T17:00:00.747705,24.771,can0  204  [16]  6E 23 50 46 50 46 50 46 28 23 30 75 30 75 00 00
2026-02-20T17:00:00.747874,24.771,can0  206  [24]  7F 0C 64 07 73 0C DA DC 79 07 7F 0C 6F 0C 00 00 00 00 00 00 00 00 00 00
2026-02-20T17:00:00.846229,24.869,can0  204  [16]  6E 23 50 46 50 46 50 46 28 23 30 75 30 75 00 00
2026-02-20T17:00:00.846362,24.869,can0  204  [16]  6E 23 50 46 50 46 50 46 28 23 30 75 30 75 00 00
2026-02-20T17:00:00.945029,24.968,can0  204  [16]  6E 23 50 46 50 46 50 46 28 23 30 75 30 75 00 00
2026-02-20T17:00:00.945151,24.968,can0  041  [04]  8B 00 00 00
2026-02-20T17:00:00.945289,24.968,can0  204  [16]  6E 23 50 46 50 46 50 46 28 23 30 75 30 75 00 00
2026-02-20T17:00:01.043444,25.066,can0  204  [16]  6E 23 50 46 50 46 50 46 28 23 30 75 30 75 00 00
2026-02-20T17:00:01.043577,25.067,can0  204  [16]  6E 23 50 46 50 46 50 46 28 23 30 75 30 75 00 00
2026-02-20T17:00:01.163828,25.187,can0  204  [16]  6E 23 50 46 50 46 50 46 28 23 30 75 30 75 00 00
2026-02-20T17:00:01.164198,25.187,can0  110  [02]  25 1D
2026-02-20T17:00:01.164351,25.187,can0  204  [16]  6E 23 50 46 50 46 50 46 28 23 30 75 30 75 00 00
2026-02-20T17:00:01.164478,25.188,can0  041  [04]  5D 00 02 00
2026-02-20T17:00:01.261724,25.285,can0  204  [16]  6E 23 50 46 50 46 50 46 28 23 30 75 30 75 00 00
2026-02-20T17:00:01.261848,25.285,can0  204  [16]  6E 23 50 46 50 46 50 46 28 23 30 75 30 75 00 00
2026-02-20T17:00:01.357717,25.381,can0  204  [16]  6E 23 50 46 50 46 50 46 28 23 30 75 30 75 00 00
2026-02-20T17:00:01.361364,25.384,can0  204  [16]  6E 23 50 46 50 46 50 46 28 23 30 75 30 75 00 00
2026-02-20T17:00:01.455788,25.479,can0  204  [16]  6E 23 50 46 50 46 50 46 28 23 30 75 30 75 00 00
2026-02-20T17:00:01.455977,25.479,can0  206  [24]  73 0C 5F 07 73 0C A0 E2 77 07 93 0C 77 0C 00 00 00 00 00 00 00 00 00 00
2026-02-20T17:00:01.456094,25.479,can0  041  [04]  5D 00 05 00
2026-02-20T17:00:01.459987,25.483,can0  204  [16]  6E 23 50 46 50 46 50 46 28 23 30 75 30 75 00 00
2026-02-20T17:00:01.561432,25.584,can0  204  [16]  6E 23 50 46 50 46 50 46 28 23 30 75 30 75 00 00
2026-02-20T17:00:01.561565,25.585,can0  204  [16]  6E 23 50 46 50 46 50 46 28 23 30 75 30 75 00 00
2026-02-20T17:00:01.561966,25.585,can0  100  [03]  70 45 04
2026-02-20T17:00:01.663083,25.686,can0  204  [16]  6E 23 50 46 50 46 50 46 28 23 30 75 30 75 00 00
2026-02-20T17:00:01.663225,25.686,can0  204  [16]  6E 23 50 46 50 46 50 46 28 23 30 75 30 75 00 00
2026-02-20T17:00:01.763856,25.787,can0  041  [04]  8B 00 02 00
2026-02-20T17:00:01.763989,25.787,can0  204  [16]  6E 23 50 46 50 46 50 46 28 23 30 75 30 75 00 00
2026-02-20T17:00:01.764112,25.787,can0  204  [16]  6E 23 50 46 50 46 50 46 28 23 30 75 30 75 00 00
2026-02-20T17:00:01.846875,25.870,can0  204  [16]  6E 23 50 46 50 46 50 46 28 23 30 75 30 75 00 00
2026-02-20T17:00:01.847012,25.870,can0  204  [16]  6E 23 50 46 50 46 50 46 28 23 30 75 30 75 00 00
2026-02-20T17:00:01.947763,25.971,can0  204  [16]  6E 23 50 46 50 46 50 46 28 23 30 75 30 75 00 00
2026-02-20T17:00:01.947896,25.971,can0  204  [16]  6E 23 50 46 50 46 50 46 28 23 30 75 30 75 00 00
2026-02-20T17:00:01.948025,25.971,can0  041  [04]  B5 00 05 00
2026-02-20T17:00:02.048406,26.071,can0  204  [16]  6E 23 50 46 50 46 50 46 28 23 30 75 30 75 00 00
2026-02-20T17:00:02.048547,26.072,can0  204  [16]  6E 23 50 46 50 46 50 46 28 23 30 75 30 75 00 00
2026-02-20T17:00:02.048733,26.072,can0  206  [24]  7F 0C 64 07 67 0C B1 E0 7B 07 93 0C 77 0C 00 00 00 00 00 00 00 00 00 00
2026-02-20T17:00:02.149395,26.172,can0  204  [16]  6E 23 50 46 50 46 50 46 28 23 30 75 30 75 00 00
2026-02-20T17:00:02.149535,26.173,can0  204  [16]  6E 23 50 46 50 46 50 46 28 23 30 75 30 75 00 00
2026-02-20T17:00:02.251838,26.275,can0  204  [16]  6E 23 50 46 50 46 50 46 28 23 30 75 30 75 00 00
2026-02-20T17:00:02.251960,26.275,can0  041  [04]  B5 00 06 00
2026-02-20T17:00:02.256654,26.280,can0  204  [16]  6E 23 50 46 50 46 50 46 28 23 30 75 30 75 00 00
2026-02-20T17:00:02.353290,26.376,can0  204  [16]  6E 23 50 46 50 46 50 46 28 23 30 75 30 75 00 00
2026-02-20T17:00:02.353461,26.377,can0  204  [16]  6E 23 50 46 50 46 50 46 28 23 30 75 30 75 00 00
2026-02-20T17:00:02.451655,26.475,can0  204  [16]  6E 23 50 46 50 46 50 46 28 23 30 75 30 75 00 00
2026-02-20T17:00:02.451793,26.475,can0  204  [16]  6E 23 50 46 50 46 50 46 28 23 30 75 30 75 00 00
2026-02-20T17:00:02.550482,26.574,can0  041  [04]  B5 00 05 00
2026-02-20T17:00:02.550640,26.574,can0  204  [16]  6E 23 50 46 50 46 50 46 28 23 30 75 30 75 00 00
2026-02-20T17:00:02.550778,26.574,can0  204  [16]  6E 23 50 46 50 46 50 46 28 23 30 75 30 75 00 00
2026-02-20T17:00:02.649951,26.673,can0  204  [16]  6E 23 50 46 50 46 50 46 28 23 30 75 30 75 00 00
2026-02-20T17:00:02.650068,26.673,can0  204  [16]  6E 23 50 46 50 46 50 46 28 23 30 75 30 75 00 00
2026-02-20T17:00:02.748830,26.772,can0  206  [24]  73 0C 68 07 7B 0C 99 C6 7B 07 7F 0C 7B 0C 00 00 00 00 00 00 00 00 00 00
2026-02-20T17:00:02.748962,26.772,can0  204  [16]  6E 23 50 46 50 46 50 46 28 23 30 75 30 75 00 00
2026-02-20T17:00:02.749078,26.772,can0  041  [04]  9F 00 02 00
2026-02-20T17:00:02.753053,26.776,can0  204  [16]  6E 23 50 46 50 46 50 46 28 23 30 75 30 75 00 00
2026-02-20T17:00:02.851104,26.874,can0  100  [03]  74 45 04
2026-02-20T17:00:02.851406,26.874,can0  110  [02]  25 1D
2026-02-20T17:00:02.851568,26.875,can0  204  [16]  6E 23 50 46 50 46 50 46 28 23 30 75 30 75 00 00
2026-02-20T17:00:02.851705,26.875,can0  204  [16]  6E 23 50 46 50 46 50 46 28 23 30 75 30 75 00 00
2026-02-20T17:00:02.952147,26.975,can0  204  [16]  6E 23 50 46 50 46 50 46 28 23 30 75 30 75 00 00
2026-02-20T17:00:02.952285,26.975,can0  204  [16]  6E 23 50 46 50 46 50 46 28 23 30 75 30 75 00 00
2026-02-20T17:00:03.051966,27.075,can0  204  [16]  6E 23 50 46 50 46 50 46 28 23 30 75 30 75 00 00
2026-02-20T17:00:03.052076,27.075,can0  041  [04]  9F 00 02 00
2026-02-20T17:00:03.151914,27.175,can0  204  [16]  6E 23 50 46 50 46 50 46 28 23 30 75 30 75 00 00
2026-02-20T17:00:03.152042,27.175,can0  204  [16]  6E 23 50 46 50 46 50 46 28 23 30 75 30 75 00 00
2026-02-20T17:00:03.252771,27.276,can0  204  [16]  6E 23 50 46 50 46 50 46 28 23 30 75 30 75 00 00
2026-02-20T17:00:03.252901,27.276,can0  204  [16]  6E 23 50 46 50 46 50 46 28 23 30 75 30 75 00 00
2026-02-20T17:00:03.353268,27.376,can0  204  [16]  6E 23 50 46 50 46 50 46 28 23 30 75 30 75 00 00
2026-02-20T17:00:03.360877,27.384,can0  041  [04]  8B 00 06 00
2026-02-20T17:00:03.361196,27.384,can0  204  [16]  6E 23 50 46 50 46 50 46 28 23 30 75 30 75 00 00
2026-02-20T17:00:03.361436,27.384,can0  206  [24]  5B 0C 61 07 93 0C 99 C6 73 07 8B 0C 77 0C 00 00 00 00 00 00 00 00 00 00
2026-02-20T17:00:03.464574,27.488,can0  204  [16]  6E 23 50 46 50 46 50 46 28 23 30 75 30 75 00 00
2026-02-20T17:00:03.464716,27.488,can0  204  [16]  6E 23 50 46 50 46 50 46 28 23 30 75 30 75 00 00
2026-02-20T17:00:03.565072,27.588,can0  204  [16]  6E 23 50 46 50 46 50 46 28 23 30 75 30 75 00 00
2026-02-20T17:00:03.565241,27.588,can0  204  [16]  6E 23 50 46 50 46 50 46 28 23 30 75 30 75 00 00
2026-02-20T17:00:03.565351,27.588,can0  041  [04]  B5 00 02 00
2026-02-20T17:00:03.666160,27.689,can0  204  [16]  6E 23 50 46 50 46 50 46 28 23 30 75 30 75 00 00
2026-02-20T17:00:03.666300,27.689,can0  204  [16]  6E 23 50 46 50 46 50 46 28 23 30 75 30 75 00 00
2026-02-20T17:00:03.768223,27.791,can0  204  [16]  6E 23 50 46 50 46 50 46 28 23 30 75 30 75 00 00
2026-02-20T17:00:03.768355,27.791,can0  204  [16]  6E 23 50 46 50 46 50 46 28 23 30 75 30 75 00 00
2026-02-20T17:00:03.867200,27.890,can0  204  [16]  6E 23 50 46 50 46 50 46 28 23 30 75 30 75 00 00
2026-02-20T17:00:03.867318,27.890,can0  041  [04]  B5 00 02 00
2026-02-20T17:00:03.867454,27.890,can0  204  [16]  6E 23 50 46 50 46 50 46 28 23 30 75 30 75 00 00
2026-02-20T17:00:03.967314,27.990,can0  204  [16]  6E 23 50 46 50 46 50 46 28 23 30 75 30 75 00 00
2026-02-20T17:00:03.967441,27.990,can0  204  [16]  6E 23 50 46 50 46 50 46 28 23 30 75 30 75 00 00
2026-02-20T17:00:04.067714,28.091,can0  204  [16]  6E 23 50 46 50 46 50 46 28 23 30 75 30 75 00 00
2026-02-20T17:00:04.067878,28.091,can0  206  [24]  67 0C 61 07 73 0C 99 C6 84 07 93 0C 83 0C 00 00 00 00 00 00 00 00 00 00
2026-02-20T17:00:04.068016,28.091,can0  204  [16]  6E 23 50 46 50 46 50 46 28 23 30 75 30 75 00 00
2026-02-20T17:00:04.068437,28.091,can0  100  [03]  74 45 04
2026-02-20T17:00:04.169989,28.193,can0  041  [04]  F8 00 02 00
2026-02-20T17:00:04.170187,28.193,can0  204  [16]  6E 23 50 46 50 46 50 46 28 23 30 75 30 75 00 00
2026-02-20T17:00:04.170375,28.193,can0  204  [16]  6E 23 50 46 50 46 50 46 28 23 30 75 30 75 00 00
2026-02-20T17:00:04.269832,28.293,can0  204  [16]  6E 23 50 46 50 46 50 46 28 23 30 75 30 75 00 00
2026-02-20T17:00:04.270029,28.293,can0  204  [16]  6E 23 50 46 50 46 50 46 28 23 30 75 30 75 00 00
2026-02-20T17:00:04.347187,28.370,can0  204  [16]  6E 23 50 46 50 46 50 46 28 23 30 75 30 75 00 00
2026-02-20T17:00:04.347371,28.370,can0  204  [16]  6E 23 50 46 50 46 50 46 28 23 30 75 30 75 00 00
2026-02-20T17:00:04.347531,28.371,can0  041  [04]  E4 00 02 00
2026-02-20T17:00:04.450561,28.474,can0  204  [16]  6E 23 50 46 50 46 50 46 28 23 30 75 30 75 00 00
2026-02-20T17:00:04.450766,28.474,can0  204  [16]  6E 23 50 46 50 46 50 46 28 23 30 75 30 75 00 00
2026-02-20T17:00:04.553777,28.577,can0  110  [02]  27 1D
2026-02-20T17:00:04.553984,28.577,can0  204  [16]  6E 23 50 46 50 46 50 46 28 23 30 75 30 75 00 00
2026-02-20T17:00:04.554167,28.577,can0  204  [16]  6E 23 50 46 50 46 50 46 28 23 30 75 30 75 00 00
2026-02-20T17:00:04.658620,28.682,can0  204  [16]  6E 23 50 46 50 46 50 46 28 23 30 75 30 75 00 00
2026-02-20T17:00:04.659206,28.682,can0  041  [04]  8B 00 00 00
2026-02-20T17:00:04.659248,28.682,can0  206  [24]  83 0C 5F 07 7B 0C 99 C6 7B 07 73 0C 73 0C 00 00 00 00 00 00 00 00 00 00
2026-02-20T17:00:04.659285,28.682,can0  204  [16]  6E 23 50 46 50 46 50 46 28 23 30 75 30 75 00 00
2026-02-20T17:00:04.762636,28.786,can0  204  [16]  6E 23 50 46 50 46 50 46 28 23 30 75 30 75 00 00
2026-02-20T17:00:04.762774,28.786,can0  204  [16]  6E 23 50 46 50 46 50 46 28 23 30 75 30 75 00 00
2026-02-20T17:00:04.865405,28.888,can0  204  [16]  6E 23 50 46 50 46 50 46 28 23 30 75 30 75 00 00
2026-02-20T17:00:04.865594,28.889,can0  204  [16]  6E 23 50 46 50 46 50 46 28 23 30 75 30 75 00 00
2026-02-20T17:00:04.966738,28.990,can0  041  [04]  E4 00 02 00
2026-02-20T17:00:04.966935,28.990,can0  204  [16]  6E 23 50 46 50 46 50 46 28 23 30 75 30 75 00 00
2026-02-20T17:00:04.967108,28.990,can0  204  [16]  6E 23 50 46 50 46 50 46 28 23 30 75 30 75 00 00
2026-02-20T17:00:05.068233,29.091,can0  204  [16]  6E 23 50 46 50 46 50 46 28 23 30 75 30 75 00 00
2026-02-20T17:00:05.169198,29.192,can0  204  [16]  6E 23 50 46 50 46 50 46 28 23 30 75 30 75 00 00
2026-02-20T17:00:05.169509,29.193,can0  204  [16]  6E 23 50 46 50 46 50 46 28 23 30 75 30 75 00 00
2026-02-20T17:00:05.169539,29.193,can0  041  [04]  10 01 02 00
2026-02-20T17:00:05.169702,29.193,can0  204  [16]  6E 23 50 46 50 46 50 46 28 23 30 75 30 75 00 00
2026-02-20T17:00:05.272557,29.296,can0  204  [16]  6E 23 50 46 50 46 50 46 28 23 30 75 30 75 00 00
2026-02-20T17:00:05.273184,29.296,can0  204  [16]  6E 23 50 46 50 46 50 46 28 23 30 75 30 75 00 00
2026-02-20T17:00:05.350735,29.374,can0  206  [24]  77 0C 61 07 83 0C 99 C6 50 07 7B 0C 73 0C 00 00 00 00 00 00 00 00 00 00
2026-02-20T17:00:05.350926,29.374,can0  204  [16]  6E 23 50 46 50 46 50 46 28 23 30 75 30 75 00 00
2026-02-20T17:00:05.351305,29.374,can0  100  [03]  74 45 04
2026-02-20T17:00:05.351496,29.375,can0  204  [16]  6E 23 50 46 50 46 50 46 28 23 30 75 30 75 00 00
2026-02-20T17:00:05.454370,29.477,can0  041  [04]  8B 00 00 00
2026-02-20T17:00:05.454570,29.478,can0  204  [16]  6E 23 50 46 50 46 50 46 28 23 30 75 30 75 00 00
2026-02-20T17:00:05.559117,29.582,can0  204  [16]  6E 23 50 46 50 46 50 46 28 23 30 75 30 75 00 00
2026-02-20T17:00:05.559323,29.582,can0  204  [16]  6E 23 50 46 50 46 50 46 28 23 30 75 30 75 00 00
2026-02-20T17:00:05.660919,29.684,can0  204  [16]  6E 23 50 46 50 46 50 46 28 23 30 75 30 75 00 00
2026-02-20T17:00:05.661109,29.684,can0  204  [16]  6E 23 50 46 50 46 50 46 28 23 30 75 30 75 00 00
2026-02-20T17:00:05.762800,29.786,can0  204  [16]  6E 23 50 46 50 46 50 46 28 23 30 75 30 75 00 00
2026-02-20T17:00:05.762971,29.786,can0  041  [04]  8B 00 02 00
2026-02-20T17:00:05.763147,29.786,can0  204  [16]  6E 23 50 46 50 46 50 46 28 23 30 75 30 75 00 00
2026-02-20T17:00:05.863768,29.887,can0  204  [16]  6E 23 50 46 50 46 50 46 28 23 30 75 30 75 00 00
2026-02-20T17:00:05.863960,29.887,can0  204  [16]  6E 23 50 46 50 46 50 46 28 23 30 75 30 75 00 00
2026-02-20T17:00:05.963642,29.987,can0  204  [16]  6E 23 50 46 50 46 50 46 28 23 30 75 30 75 00 00
2026-02-20T17:00:05.963827,29.987,can0  204  [16]  6E 23 50 46 50 46 50 46 28 23 30 75 30 75 00 00
2026-02-20T17:00:05.963987,29.987,can0  041  [04]  7A 00 05 00
2026-02-20T17:00:05.964184,29.987,can0  206  [24]  6B 0C 6A 07 73 0C 99 C6 77 07 93 0C 7F 0C 00 00 00 00 00 00 00 00 00 00
2026-02-20T17:00:06.064692,30.088,can0  204  [16]  6E 23 50 46 50 46 50 46 28 23 30 75 30 75 00 00
2026-02-20T17:00:06.064892,30.088,can0  204  [16]  6E 23 50 46 50 46 50 46 28 23 30 75 30 75 00 00
2026-02-20T17:00:06.169769,30.193,can0  204  [16]  6E 23 50 46 50 46 50 46 28 23 30 75 30 75 00 00
2026-02-20T17:00:06.169890,30.193,can0  204  [16]  6E 23 50 46 50 46 50 46 28 23 30 75 30 75 00 00
2026-02-20T17:00:06.272497,30.296,can0  110  [02]  24 1D
2026-02-20T17:00:06.272706,30.296,can0  204  [16]  6E 23 50 46 50 46 50 46 28 23 30 75 30 75 00 00
2026-02-20T17:00:06.272894,30.296,can0  041  [04]  B5 00 02 00
2026-02-20T17:00:06.273097,30.296,can0  204  [16]  6E 23 50 46 50 46 50 46 28 23 30 75 30 75 00 00
2026-02-20T17:00:06.349668,30.373,can0  204  [16]  6E 23 50 46 50 46 50 46 28 23 30 75 30 75 00 00
2026-02-20T17:00:06.349813,30.373,can0  204  [16]  6E 23 50 46 50 46 50 46 28 23 30 75 30 75 00 00
2026-02-20T17:00:06.450339,30.473,can0  204  [16]  6E 23 50 46 50 46 50 46 28 23 30 75 30 75 00 00
2026-02-20T17:00:06.450470,30.474,can0  204  [16]  6E 23 50 46 50 46 50 46 28 23 30 75 30 75 00 00
2026-02-20T17:00:06.554790,30.578,can0  041  [04]  8B 00 02 00
2026-02-20T17:00:06.554986,30.578,can0  204  [16]  6E 23 50 46 50 46 50 46 28 23 30 75 30 75 00 00
2026-02-20T17:00:06.555162,30.578,can0  204  [16]  6E 23 50 46 50 46 50 46 28 23 30 75 30 75 00 00
2026-02-20T17:00:06.659062,30.682,can0  204  [16]  6E 23 50 46 50 46 50 46 28 23 30 75 30 75 00 00
2026-02-20T17:00:06.659503,30.683,can0  100  [03]  73 45 04
2026-02-20T17:00:06.659726,30.683,can0  206  [24]  7B 0C 61 07 73 0C 99 C6 79 07 8B 0C 77 0C 00 00 00 00 00 00 00 00 00 00
2026-02-20T17:00:06.659920,30.683,can0  204  [16]  6E 23 50 46 50 46 50 46 28 23 30 75 30 75 00 00
2026-02-20T17:00:06.768697,30.792,can0  204  [16]  6E 23 50 46 50 46 50 46 28 23 30 75 30 75 00 00
2026-02-20T17:00:06.768885,30.792,can0  204  [16]  6E 23 50 46 50 46 50 46 28 23 30 75 30 75 00 00
2026-02-20T17:00:06.769048,30.792,can0  041  [04]  8B 00 00 00
2026-02-20T17:00:06.870748,30.894,can0  204  [16]  6E 23 50 46 50 46 50 46 28 23 30 75 30 75 00 00
2026-02-20T17:00:06.875132,30.898,can0  204  [16]  6E 23 50 46 50 46 50 46 28 23 30 75 30 75 00 00
2026-02-20T17:00:06.973082,30.996,can0  204  [16]  6E 23 50 46 50 46 50 46 28 23 30 75 30 75 00 00
2026-02-20T17:00:06.973222,30.996,can0  204  [16]  6E 23 50 46 50 46 50 46 28 23 30 75 30 75 00 00
2026-02-20T17:00:07.074457,31.098,can0  204  [16]  6E 23 50 46 50 46 50 46 28 23 30 75 30 75 00 00
2026-02-20T17:00:07.074814,31.098,can0  041  [04]  8B 00 00 00
2026-02-20T17:00:07.074870,31.098,can0  204  [16]  6E 23 50 46 50 46 50 46 28 23 30 75 30 75 00 00
2026-02-20T17:00:07.153605,31.177,can0  204  [16]  6E 23 50 46 50 46 50 46 28 23 30 75 30 75 00 00
2026-02-20T17:00:07.153835,31.177,can0  204  [16]  6E 23 50 46 50 46 50 46 28 23 30 75 30 75 00 00
2026-02-20T17:00:07.256612,31.280,can0  204  [16]  6E 23 50 46 50 46 50 46 28 23 30 75 30 75 00 00
2026-02-20T17:00:07.256836,31.280,can0  206  [24]  77 0C 5F 07 7B 0C 3A DF 75 07 8B 0C 7B 0C 00 00 00 00 00 00 00 00 00 00
2026-02-20T17:00:07.257023,31.280,can0  204  [16]  6E 23 50 46 50 46 50 46 28 23 30 75 30 75 00 00
2026-02-20T17:00:07.357476,31.381,can0  041  [04]  3F 01 00 00
2026-02-20T17:00:07.357683,31.381,can0  204  [16]  6E 23 50 46 50 46 50 46 28 23 30 75 30 75 00 00
2026-02-20T17:00:07.357882,31.381,can0  204  [16]  6E 23 50 46 50 46 50 46 28 23 30 75 30 75 00 00
2026-02-20T17:00:07.465198,31.488,can0  204  [16]  6E 23 50 46 50 46 50 46 28 23 30 75 30 75 00 00
2026-02-20T17:00:07.465259,31.488,can0  204  [16]  6E 23 50 46 50 46 50 46 28 23 30 75 30 75 00 00
2026-02-20T17:00:07.566777,31.590,can0  204  [16]  6E 23 50 46 50 46 50 46 28 23 30 75 30 75 00 00
2026-02-20T17:00:07.566954,31.590,can0  041  [04]  E4 00 02 00
2026-02-20T17:00:07.567136,31.590,can0  204  [16]  6E 23 50 46 50 46 50 46 28 23 30 75 30 75 00 00
2026-02-20T17:00:07.670648,31.694,can0  204  [16]  6E 23 50 46 50 46 50 46 28 23 30 75 30 75 00 00
2026-02-20T17:00:07.670850,31.694,can0  204  [16]  6E 23 50 46 50 46 50 46 28 23 30 75 30 75 00 00
2026-02-20T17:00:07.773843,31.797,can0  204  [16]  6E 23 50 46 50 46 50 46 28 23 30 75 30 75 00 00
2026-02-20T17:00:07.774027,31.797,can0  204  [16]  6E 23 50 46 50 46 50 46 28 23 30 75 30 75 00 00
2026-02-20T17:00:07.851227,31.874,can0  041  [04]  E4 00 02 00
2026-02-20T17:00:07.851417,31.874,can0  204  [16]  6E 23 50 46 50 46 50 46 28 23 30 75 30 75 00 00
2026-02-20T17:00:07.851805,31.875,can0  100  [03]  73 45 04
2026-02-20T17:00:07.852120,31.875,can0  110  [02]  26 1D
2026-02-20T17:00:07.852324,31.875,can0  204  [16]  6E 23 50 46 50 46 50 46 28 23 30 75 30 75 00 00
2026-02-20T17:00:07.955276,31.978,can0  206  [24]  67 0C 5D 07 73 0C 99 C6 7B 07 7F 0C 8F 0C 00 00 00 00 00 00 00 00 00 00
2026-02-20T17:00:07.955469,31.979,can0  204  [16]  6E 23 50 46 50 46 50 46 28 23 30 75 30 75 00 00
2026-02-20T17:00:08.060807,32.084,can0  204  [16]  6E 23 50 46 50 46 50 46 28 23 30 75 30 75 00 00
2026-02-20T17:00:08.060991,32.084,can0  204  [16]  6E 23 50 46 50 46 50 46 28 23 30 75 30 75 00 00
2026-02-20T17:00:08.164065,32.187,can0  204  [16]  6E 23 50 46 50 46 50 46 28 23 30 75 30 75 00 00
2026-02-20T17:00:08.168272,32.191,can0  041  [04]  E4 00 02 00
2026-02-20T17:00:08.168311,32.191,can0  204  [16]  6E 23 50 46 50 46 50 46 28 23 30 75 30 75 00 00
2026-02-20T17:00:08.269565,32.293,can0  204  [16]  6E 23 50 46 50 46 50 46 28 23 30 75 30 75 00 00
2026-02-20T17:00:08.269780,32.293,can0  204  [16]  6E 23 50 46 50 46 50 46 28 23 30 75 30 75 00 00
2026-02-20T17:00:08.375820,32.399,can0  204  [16]  6E 23 50 46 50 46 50 46 28 23 30 75 30 75 00 00
2026-02-20T17:00:08.383373,32.406,can0  204  [16]  6E 23 50 46 50 46 50 46 28 23 30 75 30 75 00 00
2026-02-20T17:00:08.383595,32.407,can0  041  [04]  02 00 02 00
2026-02-20T17:00:08.460334,32.483,can0  204  [16]  6E 23 50 46 50 46 50 46 28 23 30 75 30 75 00 00
2026-02-20T17:00:08.460538,32.484,can0  204  [16]  6E 23 50 46 50 46 50 46 28 23 30 75 30 75 00 00
2026-02-20T17:00:08.562000,32.585,can0  204  [16]  6E 23 50 46 50 46 50 46 28 23 30 75 30 75 00 00
2026-02-20T17:00:08.562189,32.585,can0  204  [16]  6E 23 50 46 50 46 50 46 28 23 30 75 30 75 00 00
2026-02-20T17:00:08.562396,32.585,can0  206  [24]  7F 0C 61 07 6F 0C DA DC 77 07 87 0C 73 0C 00 00 00 00 00 00 00 00 00 00
2026-02-20T17:00:08.664011,32.687,can0  204  [16]  6E 23 50 46 50 46 50 46 28 23 30 75 30 75 00 00
2026-02-20T17:00:08.664197,32.687,can0  041  [04]  10 01 02 00
2026-02-20T17:00:08.664340,32.687,can0  204  [16]  6E 23 50 46 50 46 50 46 28 23 30 75 30 75 00 00
2026-02-20T17:00:08.764853,32.788,can0  204  [16]  6E 23 50 46 50 46 50 46 28 23 30 75 30 75 00 00
2026-02-20T17:00:08.764977,32.788,can0  204  [16]  6E 23 50 46 50 46 50 46 28 23 30 75 30 75 00 00
2026-02-20T17:00:08.865720,32.889,can0  204  [16]  6E 23 50 46 50 46 50 46 28 23 30 75 30 75 00 00
2026-02-20T17:00:08.865841,32.889,can0  204  [16]  6E 23 50 46 50 46 50 46 28 23 30 75 30 75 00 00
2026-02-20T17:00:08.964025,32.987,can0  041  [04]  E4 00 00 00
2026-02-20T17:00:08.964168,32.987,can0  204  [16]  6E 23 50 46 50 46 50 46 28 23 30 75 30 75 00 00
2026-02-20T17:00:08.964306,32.987,can0  204  [16]  6E 23 50 46 50 46 50 46 28 23 30 75 30 75 00 00
2026-02-20T17:00:09.062705,33.086,can0  204  [16]  6E 23 50 46 50 46 50 46 28 23 30 75 30 75 00 00
2026-02-20T17:00:09.062842,33.086,can0  204  [16]  6E 23 50 46 50 46 50 46 28 23 30 75 30 75 00 00
2026-02-20T17:00:09.160012,33.183,can0  204  [16]  6E 23 50 46 50 46 50 46 28 23 30 75 30 75 00 00
2026-02-20T17:00:09.160500,33.184,can0  100  [03]  76 45 04
2026-02-20T17:00:09.160945,33.184,can0  204  [16]  6E 23 50 46 50 46 50 46 28 23 30 75 30 75 00 00
2026-02-20T17:00:09.160988,33.184,can0  041  [04]  10 01 00 00
2026-02-20T17:00:09.263553,33.287,can0  204  [16]  6E 23 50 46 50 46 50 46 28 23 30 75 30 75 00 00
2026-02-20T17:00:09.267781,33.291,can0  206  [24]  73 0C 5F 07 73 0C 99 C6 77 07 8F 0C 7B 0C 00 00 00 00 00 00 00 00 00 00
2026-02-20T17:00:09.267824,33.291,can0  204  [16]  6E 23 50 46 50 46 50 46 28 23 30 75 30 75 00 00
2026-02-20T17:00:09.364441,33.387,can0  204  [16]  6E 23 50 46 50 46 50 46 28 23 30 75 30 75 00 00
2026-02-20T17:00:09.364586,33.388,can0  204  [16]  6E 23 50 46 50 46 50 46 28 23 30 75 30 75 00 00
2026-02-20T17:00:09.463026,33.486,can0  204  [16]  6E 23 50 46 50 46 50 46 28 23 30 75 30 75 00 00
2026-02-20T17:00:09.463167,33.486,can0  041  [04]  E4 00 00 00
2026-02-20T17:00:09.463304,33.486,can0  204  [16]  6E 23 50 46 50 46 50 46 28 23 30 75 30 75 00 00
2026-02-20T17:00:09.583224,33.606,can0  204  [16]  6E 23 50 46 50 46 50 46 28 23 30 75 30 75 00 00
2026-02-20T17:00:09.583291,33.606,can0  110  [02]  25 1D
2026-02-20T17:00:09.583422,33.606,can0  204  [16]  6E 23 50 46 50 46 50 46 28 23 30 75 30 75 00 00
2026-02-20T17:00:09.658367,33.681,can0  204  [16]  6E 23 50 46 50 46 50 46 28 23 30 75 30 75 00 00
2026-02-20T17:00:09.658515,33.682,can0  204  [16]  6E 23 50 46 50 46 50 46 28 23 30 75 30 75 00 00
2026-02-20T17:00:09.658638,33.682,can0  041  [04]  10 01 00 00
2026-02-20T17:00:09.755521,33.779,can0  204  [16]  6E 23 50 46 50 46 50 46 28 23 30 75 30 75 00 00
2026-02-20T17:00:09.755648,33.779,can0  204  [16]  6E 23 50 46 50 46 50 46 28 23 30 75 30 75 00 00
2026-02-20T17:00:09.856351,33.879,can0  204  [16]  6E 23 50 46 50 46 50 46 28 23 30 75 30 75 00 00
2026-02-20T17:00:09.856519,33.880,can0  206  [24]  6F 0C 61 07 77 0C DA DC 77 07 87 0C 7F 0C 00 00 00 00 00 00 00 00 00 00
2026-02-20T17:00:09.856663,33.880,can0  204  [16]  6E 23 50 46 50 46 50 46 28 23 30 75 30 75 00 00
2026-02-20T17:00:09.955657,33.979,can0  204  [16]  6E 23 50 46 50 46 50 46 28 23 30 75 30 75 00 00
2026-02-20T17:00:09.955802,33.979,can0  041  [04]  E4 00 00 00
2026-02-20T17:00:09.955937,33.979,can0  204  [16]  6E 23 50 46 50 46 50 46 28 23 30 75 30 75 00 00
2026-02-20T17:00:10.055535,34.079,can0  204  [16]  6E 23 50 46 50 46 50 46 28 23 30 75 30 75 00 00
2026-02-20T17:00:10.055654,34.079,can0  204  [16]  6E 23 50 46 50 46 50 46 28 23 30 75 30 75 00 00
2026-02-20T17:00:10.156198,34.179,can0  204  [16]  6E 23 50 46 50 46 50 46 28 23 30 75 30 75 00 00
2026-02-20T17:00:10.156361,34.179,can0  204  [16]  6E 23 50 46 50 46 50 46 28 23 30 75 30 75 00 00
2026-02-20T17:00:10.255688,34.279,can0  041  [04]  3F 01 00 00
2026-02-20T17:00:10.255854,34.279,can0  204  [16]  6E 23 50 46 50 46 50 46 28 23 30 75 30 75 00 00
2026-02-20T17:00:10.256002,34.279,can0  204  [16]  6E 23 50 46 50 46 50 46 28 23 30 75 30 75 00 00
2026-02-20T17:00:10.356170,34.379,can0  204  [16]  6E 23 50 46 50 46 50 46 28 23 30 75 30 75 00 00
2026-02-20T17:00:10.356292,34.379,can0  204  [16]  6E 23 50 46 50 46 50 46 28 23 30 75 30 75 00 00
2026-02-20T17:00:10.456345,34.479,can0  100  [03]  73 45 04
2026-02-20T17:00:10.456520,34.480,can0  204  [16]  6E 23 50 46 50 46 50 46 28 23 30 75 30 75 00 00
2026-02-20T17:00:10.556549,34.580,can0  041  [04]  52 01 02 00
2026-02-20T17:00:10.556714,34.580,can0  204  [16]  6E 23 50 46 50 46 50 46 28 23 30 75 30 75 00 00
2026-02-20T17:00:10.556867,34.580,can0  206  [24]  6F 0C 64 07 77 0C 99 C6 77 07 73 0C 83 0C 00 00 00 00 00 00 00 00 00 00
2026-02-20T17:00:10.556992,34.580,can0  204  [16]  6E 23 50 46 50 46 50 46 28 23 30 75 30 75 00 00
2026-02-20T17:00:10.658176,34.681,can0  204  [16]  6E 23 50 46 50 46 50 46 28 23 30 75 30 75 00 00
2026-02-20T17:00:10.658336,34.681,can0  204  [16]  6E 23 50 46 50 46 50 46 28 23 30 75 30 75 00 00
2026-02-20T17:00:10.759526,34.783,can0  204  [16]  6E 23 50 46 50 46 50 46 28 23 30 75 30 75 00 00
2026-02-20T17:00:10.759668,34.783,can0  204  [16]  6E 23 50 46 50 46 50 46 28 23 30 75 30 75 00 00
2026-02-20T17:00:10.759802,34.783,can0  041  [04]  02 00 00 00
2026-02-20T17:00:10.860590,34.884,can0  204  [16]  6E 23 50 46 50 46 50 46 28 23 30 75 30 75 00 00
2026-02-20T17:00:10.860723,34.884,can0  204  [16]  6E 23 50 46 50 46 50 46 28 23 30 75 30 75 00 00
2026-02-20T17:00:10.960234,34.983,can0  204  [16]  6E 23 50 46 50 46 50 46 28 23 30 75 30 75 00 00
2026-02-20T17:00:10.960377,34.983,can0  204  [16]  6E 23 50 46 50 46 50 46 28 23 30 75 30 75 00 00
2026-02-20T17:00:11.081671,35.105,can0  204  [16]  6E 23 50 46 50 46 50 46 28 23 30 75 30 75 00 00
2026-02-20T17:00:11.081808,35.105,can0  041  [04]  E4 00 00 00
2026-02-20T17:00:11.081943,35.105,can0  204  [16]  6E 23 50 46 50 46 50 46 28 23 30 75 30 75 00 00
2026-02-20T17:00:11.181312,35.204,can0  204  [16]  6E 23 50 46 50 46 50 46 28 23 30 75 30 75 00 00
2026-02-20T17:00:11.181448,35.204,can0  204  [16]  6E 23 50 46 50 46 50 46 28 23 30 75 30 75 00 00
2026-02-20T17:00:11.181625,35.205,can0  206  [24]  73 0C 64 07 7B 0C 99 C6 75 07 77 0C 7F 0C 00 00 00 00 00 00 00 00 00 00
2026-02-20T17:00:11.281017,35.304,can0  204  [16]  6E 23 50 46 50 46 50 46 28 23 30 75 30 75 00 00
2026-02-20T17:00:11.281509,35.305,can0  110  [02]  22 1D
2026-02-20T17:00:11.281687,35.305,can0  204  [16]  6E 23 50 46 50 46 50 46 28 23 30 75 30 75 00 00
2026-02-20T17:00:11.281845,35.305,can0  041  [04]  3F 01 00 00
2026-02-20T17:00:11.388697,35.412,can0  204  [16]  6E 23 50 46 50 46 50 46 28 23 30 75 30 75 00 00
2026-02-20T17:00:11.388870,35.412,can0  204  [16]  6E 23 50 46 50 46 50 46 28 23 30 75 30 75 00 00
2026-02-20T17:00:11.460213,35.483,can0  204  [16]  6E 23 50 46 50 46 50 46 28 23 30 75 30 75 00 00
2026-02-20T17:00:11.460391,35.483,can0  204  [16]  6E 23 50 46 50 46 50 46 28 23 30 75 30 75 00 00
2026-02-20T17:00:11.583372,35.606,can0  204  [16]  6E 23 50 46 50 46 50 46 28 23 30 75 30 75 00 00
2026-02-20T17:00:11.583500,35.607,can0  041  [04]  3F 01 00 00
2026-02-20T17:00:11.583632,35.607,can0  204  [16]  6E 23 50 46 50 46 50 46 28 23 30 75 30 75 00 00
2026-02-20T17:00:11.683066,35.706,can0  204  [16]  6E 23 50 46 50 46 50 46 28 23 30 75 30 75 00 00
2026-02-20T17:00:11.683659,35.707,can0  204  [16]  6E 23 50 46 50 46 50 46 28 23 30 75 30 75 00 00
2026-02-20T17:00:11.683692,35.707,can0  100  [03]  6D 45 04
2026-02-20T17:00:11.770351,35.793,can0   00  [04]  0d 85 30 10 0
2026-02-20T17:00:11.780653,35.804,can0  204  [16]  6E 23 50 46 50 46 50 46 28 23 30 75 30 75 00 00
2026-02-20T17:00:11.780889,35.804,can0  204  [16]  6E 23 50 46 50 46 50 46 28 23 30 75 30 75 00 00
2026-02-20T17:00:11.878118,35.901,can0  002  [04]  D8 53 01 00
2026-02-20T17:00:11.878639,35.902,can0  206  [24]  77 0C 68 07 73 0C 99 C6 73 07 8B 0C 73 0C 00 00 00 00 00 00 00 00 00 00
2026-02-20T17:00:11.878847,35.902,can0  204  [16]  6E 23 50 46 50 46 50 46 28 23 30 75 30 75 00 00
2026-02-20T17:00:11.879001,35.902,can0  041  [04]  B5 00 00 00
2026-02-20T17:00:11.961760,35.985,can0  204  [16]  6E 23 50 46 50 46 50 46 28 23 30 75 30 75 00 00
2026-02-20T17:00:11.962138,35.985,can0  204  [16]  6E 23 50 46 50 46 50 46 28 23 30 75 30 75 00 00
2026-02-20T17:00:11.968741,35.992,can0  204  [16]  6E 23 50 46 50 46 50 46 28 23 30 75 30 75 00 00
2026-02-20T17:00:12.076797,36.100,can0  204  [16]  6E 23 50 46 50 46 50 46 28 23 30 75 30 75 00 00
2026-02-20T17:00:12.076970,36.100,can0  204  [16]  6E 23 50 46 50 46 50 46 28 23 30 75 30 75 00 00
2026-02-20T17:00:12.077133,36.100,can0  041  [04]  02 00 02 00
2026-02-20T17:00:12.187200,36.210,can0  204  [16]  6E 23 50 46 50 46 50 46 28 23 30 75 30 75 00 00
2026-02-20T17:00:12.187381,36.210,can0  204  [16]  6E 23 50 46 50 46 50 46 28 23 30 75 30 75 00 00
2026-02-20T17:00:12.259851,36.283,can0  204  [16]  6E 23 50 46 50 46 50 46 28 23 30 75 30 75 00 00
2026-02-20T17:00:12.260038,36.283,can0  204  [16]  6E 23 50 46 50 46 50 46 28 23 30 75 30 75 00 00
2026-02-20T17:00:12.381536,36.405,can0  204  [16]  6E 23 50 46 50 46 50 46 28 23 30 75 30 75 00 00
2026-02-20T17:00:12.381710,36.405,can0  041  [04]  1B 00 02 00
2026-02-20T17:00:12.385641,36.409,can0  204  [16]  6E 23 50 46 50 46 50 46 28 23 30 75 30 75 00 00
2026-02-20T17:00:12.421749,36.445,can0   00  [04]  02 04 80 10 0
2026-02-20T17:00:12.470807,36.494,can0  204  [16]  6E 23 50 46 50 46 50 46 28 23 30 75 30 75 00 00
2026-02-20T17:00:12.470878,36.494,can0  002  [04]  20 48 01 00
2026-02-20T17:00:12.471240,36.494,can0  206  [24]  73 0C 61 07 6B 0C 99 C6 77 07 87 0C 7F 0C 00 00 00 00 00 00 00 00 00 00
2026-02-20T17:00:12.471423,36.494,can0  204  [16]  6E 23 50 46 50 46 50 46 28 23 30 75 30 75 00 00
2026-02-20T17:00:12.584727,36.608,can0  204  [16]  6E 23 50 46 50 46 50 46 28 23 30 75 30 75 00 00
2026-02-20T17:00:12.589427,36.612,can0  204  [16]  6E 23 50 46 50 46 50 46 28 23 30 75 30 75 00 00
2026-02-20T17:00:12.681653,36.705,can0  041  [04]  1B 00 02 00
2026-02-20T17:00:12.681845,36.705,can0  204  [16]  6E 23 50 46 50 46 50 46 28 23 30 75 30 75 00 00
2026-02-20T17:00:12.682018,36.705,can0  204  [16]  6E 23 50 46 50 46 50 46 28 23 30 75 30 75 00 00
2026-02-20T17:00:12.781961,36.805,can0  204  [16]  6E 23 50 46 50 46 50 46 28 23 30 75 30 75 00 00
2026-02-20T17:00:12.782145,36.805,can0  204  [16]  6E 23 50 46 50 46 50 46 28 23 30 75 30 75 00 00
2026-02-20T17:00:12.882168,36.905,can0  204  [16]  6E 23 50 46 50 46 50 46 28 23 30 75 30 75 00 00
2026-02-20T17:00:12.882239,36.905,can0  041  [04]  23 00 05 00
2026-02-20T17:00:12.882272,36.905,can0  204  [16]  6E 23 50 46 50 46 50 46 28 23 30 75 30 75 00 00
2026-02-20T17:00:12.938750,36.962,can0   00  [04]  06 83 c0 10 0
2026-02-20T17:00:12.970709,36.994,can0  100  [03]  66 45 04
2026-02-20T17:00:12.971032,36.994,can0  110  [02]  24 1D
2026-02-20T17:00:12.971230,36.994,can0  204  [16]  6E 23 50 46 50 46 50 46 28 23 30 75 30 75 00 00
2026-02-20T17:00:12.971336,36.994,can0  002  [04]  68 3C 01 00
2026-02-20T17:00:12.971636,36.995,can0  204  [16]  6E 23 50 46 50 46 50 46 28 23 30 75 30 75 00 00
2026-02-20T17:00:13.062722,37.086,can0  204  [16]  6E 23 50 46 50 46 50 46 28 23 30 75 30 75 00 00
2026-02-20T17:00:13.063199,37.086,can0  204  [16]  6E 23 50 46 50 46 50 46 28 23 30 75 30 75 00 00
2026-02-20T17:00:13.165757,37.189,can0  206  [24]  77 0C 61 07 6F 0C 99 C6 79 07 7F 0C 7B 0C 00 00 00 00 00 00 00 00 00 00
2026-02-20T17:00:13.165953,37.189,can0  204  [16]  6E 23 50 46 50 46 50 46 28 23 30 75 30 75 00 00
2026-02-20T17:00:13.166252,37.189,can0  041  [04]  B5 00 02 00
2026-02-20T17:00:13.166283,37.189,can0  204  [16]  6E 23 50 46 50 46 50 46 28 23 30 75 30 75 00 00
2026-02-20T17:00:13.256125,37.279,can0   00  [04]  02 04 80 10 0
2026-02-20T17:00:13.270181,37.293,can0  204  [16]  6E 23 50 46 50 46 50 46 28 23 30 75 30 75 00 00
2026-02-20T17:00:13.270271,37.293,can0  002  [04]  20 48 01 00
2026-02-20T17:00:13.375865,37.399,can0  204  [16]  6E 23 50 46 50 46 50 46 28 23 30 75 30 75 00 00
2026-02-20T17:00:13.383323,37.406,can0  204  [16]  6E 23 50 46 50 46 50 46 28 23 30 75 30 75 00 00
2026-02-20T17:00:13.482550,37.506,can0  204  [16]  6E 23 50 46 50 46 50 46 28 23 30 75 30 75 00 00
2026-02-20T17:00:13.482716,37.506,can0  041  [04]  B5 00 02 00
2026-02-20T17:00:13.482904,37.506,can0  204  [16]  6E 23 50 46 50 46 50 46 28 23 30 75 30 75 00 00
2026-02-20T17:00:13.565205,37.588,can0  204  [16]  6E 23 50 46 50 46 50 46 28 23 30 75 30 75 00 00
2026-02-20T17:00:13.565403,37.588,can0  204  [16]  6E 23 50 46 50 46 50 46 28 23 30 75 30 75 00 00
2026-02-20T17:00:13.575388,37.598,can0   00  [04]  0d 85 30 10 0
2026-02-20T17:00:13.666101,37.689,can0  204  [16]  6E 23 50 46 50 46 50 46 28 23 30 75 30 75 00 00
2026-02-20T17:00:13.666189,37.689,can0  002  [04]  D8 53 01 00
2026-02-20T17:00:13.670644,37.694,can0  204  [16]  6E 23 50 46 50 46 50 46 28 23 30 75 30 75 00 00
2026-02-20T17:00:13.670686,37.694,can0  041  [04]  B5 00 06 00
2026-02-20T17:00:13.773571,37.797,can0  204  [16]  6E 23 50 46 50 46 50 46 28 23 30 75 30 75 00 00
2026-02-20T17:00:13.773705,37.797,can0  204  [16]  6E 23 50 46 50 46 50 46 28 23 30 75 30 75 00 00
2026-02-20T17:00:13.773893,37.797,can0  206  [24]  56 0C 61 07 7B 0C DA DC 79 07 77 0C 97 0C 00 00 00 00 00 00 00 00 00 00
2026-02-20T17:00:13.864068,37.887,can0   00  [04]  09 05 f0 10 0
2026-02-20T17:00:13.877507,37.901,can0  204  [16]  6E 23 50 46 50 46 50 46 28 23 30 75 30 75 00 00
2026-02-20T17:00:13.877638,37.901,can0  204  [16]  6E 23 50 46 50 46 50 46 28 23 30 75 30 75 00 00
2026-02-20T17:00:13.984029,38.007,can0  002  [04]  90 5F 01 00
2026-02-20T17:00:13.984381,38.007,can0  204  [16]  6E 23 50 46 50 46 50 46 28 23 30 75 30 75 00 00
2026-02-20T17:00:13.984518,38.008,can0  041  [04]  E4 00 04 00
2026-02-20T17:00:13.984649,38.008,can0  204  [16]  6E 23 50 46 50 46 50 46 28 23 30 75 30 75 00 00
2026-02-20T17:00:14.067234,38.090,can0  204  [16]  6E 23 50 46 50 46 50 46 28 23 30 75 30 75 00 00
2026-02-20T17:00:14.067378,38.090,can0  204  [16]  6E 23 50 46 50 46 50 46 28 23 30 75 30 75 00 00
2026-02-20T17:00:14.106673,38.130,can0   00  [04]  04 86 b0 10 0
2026-02-20T17:00:14.166906,38.190,can0  204  [16]  6E 23 50 46 50 46 50 46 28 23 30 75 30 75 00 00
2026-02-20T17:00:14.166978,38.190,can0  002  [04]  48 6B 01 00
2026-02-20T17:00:14.167632,38.191,can0  204  [16]  6E 23 50 46 50 46 50 46 28 23 30 75 30 75 00 00
2026-02-20T17:00:14.167670,38.191,can0  100  [03]  5E 45 04
2026-02-20T17:00:14.280573,38.304,can0  204  [16]  6E 23 50 46 50 46 50 46 28 23 30 75 30 75 00 00
2026-02-20T17:00:14.280637,38.304,can0  041  [04]  F8 00 04 00
2026-02-20T17:00:14.280673,38.304,can0  204  [16]  6E 23 50 46 50 46 50 46 28 23 30 75 30 75 00 00
2026-02-20T17:00:14.380803,38.404,can0  204  [16]  6E 23 50 46 50 46 50 46 28 23 30 75 30 75 00 00
2026-02-20T17:00:14.380870,38.404,can0  204  [16]  6E 23 50 46 50 46 50 46 28 23 30 75 30 75 00 00
2026-02-20T17:00:14.438186,38.461,can0   00  [04]  09 05 f0 10 0
2026-02-20T17:00:14.482395,38.505,can0  206  [24]  7B 0C 5F 07 73 0C DA DC 71 07 67 0C 77 0C 00 00 00 00 00 00 00 00 00 00
2026-02-20T17:00:14.482459,38.506,can0  204  [16]  6E 23 50 46 50 46 50 46 28 23 30 75 30 75 00 00
2026-02-20T17:00:14.482498,38.506,can0  002  [04]  90 5F 01 00
2026-02-20T17:00:14.482532,38.506,can0  204  [16]  6E 23 50 46 50 46 50 46 28 23 30 75 30 75 00 00
2026-02-20T17:00:14.482575,38.506,can0  041  [04]  10 01 02 00
2026-02-20T17:00:14.568838,38.592,can0  204  [16]  6E 23 50 46 50 46 50 46 28 23 30 75 30 75 00 00
2026-02-20T17:00:14.568972,38.592,can0  204  [16]  6E 23 50 46 50 46 50 46 28 23 30 75 30 75 00 00
2026-02-20T17:00:14.670838,38.694,can0  110  [02]  26 1D
2026-02-20T17:00:14.670999,38.694,can0  204  [16]  6E 23 50 46 50 46 50 46 28 23 30 75 30 75 00 00
2026-02-20T17:00:14.671135,38.694,can0  204  [16]  6E 23 50 46 50 46 50 46 28 23 30 75 30 75 00 00
2026-02-20T17:00:14.773392,38.796,can0  204  [16]  6E 23 50 46 50 46 50 46 28 23 30 75 30 75 00 00
2026-02-20T17:00:14.773532,38.797,can0  041  [04]  B5 00 02 00
2026-02-20T17:00:14.773661,38.797,can0  204  [16]  6E 23 50 46 50 46 50 46 28 23 30 75 30 75 00 00
2026-02-20T17:00:14.814135,38.837,can0   00  [04]  0d 85 30 10 0
2026-02-20T17:00:14.878736,38.902,can0  204  [16]  6E 23 50 46 50 46 50 46 28 23 30 75 30 75 00 00
2026-02-20T17:00:14.878799,38.902,can0  002  [04]  D8 53 01 00
2026-02-20T17:00:14.883483,38.907,can0  204  [16]  6E 23 50 46 50 46 50 46 28 23 30 75 30 75 00 00
2026-02-20T17:00:14.964704,38.988,can0  204  [16]  6E 23 50 46 50 46 50 46 28 23 30 75 30 75 00 00
2026-02-20T17:00:14.964897,38.988,can0  204  [16]  6E 23 50 46 50 46 50 46 28 23 30 75 30 75 00 00
2026-02-20T17:00:15.067714,39.091,can0  041  [04]  AA 00 06 00
2026-02-20T17:00:15.067863,39.091,can0  204  [16]  6E 23 50 46 50 46 50 46 28 23 30 75 30 75 00 00
2026-02-20T17:00:15.068023,39.091,can0  206  [24]  7B 0C 5F 07 6F 0C 99 C6 73 07 93 0C 73 0C 00 00 00 00 00 00 00 00 00 00
2026-02-20T17:00:15.068159,39.091,can0  204  [16]  6E 23 50 46 50 46 50 46 28 23 30 75 30 75 00 00
2026-02-20T17:00:15.171838,39.195,can0  204  [16]  6E 23 50 46 50 46 50 46 28 23 30 75 30 75 00 00
2026-02-20T17:00:15.171964,39.195,can0  204  [16]  6E 23 50 46 50 46 50 46 28 23 30 75 30 75 00 00
2026-02-20T17:00:15.184266,39.207,can0   00  [05]  0d 85 30 10 08 0
2026-02-20T17:00:15.272242,39.295,can0  001  [05]  D8 53 01 00 80
2026-02-20T17:00:15.272588,39.296,can0  204  [16]  6E 23 50 46 50 46 50 46 FC 21 30 75 30 75 00 00
2026-02-20T17:00:15.272750,39.296,can0  041  [04]  B5 00 06 00
2026-02-20T17:00:15.272893,39.296,can0  204  [16]  6E 23 50 46 50 46 50 46 FC 21 30 75 30 75 00 00
2026-02-20T17:00:15.381846,39.405,can0  204  [16]  6E 23 50 46 50 46 50 46 FC 21 30 75 30 75 00 00
2026-02-20T17:00:15.381983,39.405,can0  204  [16]  6E 23 50 46 50 46 50 46 FC 21 30 75 30 75 00 00
2026-02-20T17:00:15.448709,39.472,can0   00  [05]  09 05 f0 10 08 0
2026-02-20T17:00:15.486726,39.510,can0  204  [16]  6E 23 50 46 50 46 50 46 FC 21 30 75 30 75 00 00
2026-02-20T17:00:15.487148,39.510,can0  100  [03]  55 45 04
2026-02-20T17:00:15.487237,39.510,can0  001  [05]  90 5F 01 00 80
2026-02-20T17:00:15.582302,39.605,can0  204  [16]  4B 23 50 46 50 46 50 46 28 23 30 75 30 75 00 00
2026-02-20T17:00:15.587113,39.610,can0  041  [04]  8B 00 00 00
2026-02-20T17:00:15.587187,39.610,can0  204  [16]  4B 23 50 46 50 46 50 46 28 23 30 75 30 75 00 00
2026-02-20T17:00:15.688413,39.711,can0  204  [16]  4B 23 50 46 50 46 50 46 28 23 30 75 30 75 00 00
2026-02-20T17:00:15.688609,39.712,can0  204  [16]  4B 23 50 46 50 46 50 46 28 23 30 75 30 75 00 00
2026-02-20T17:00:15.767993,39.791,can0  204  [16]  4B 23 50 46 50 46 50 46 28 23 30 75 30 75 00 00
2026-02-20T17:00:15.768206,39.791,can0  206  [24]  6F 0C 5F 07 7F 0C 99 C6 77 07 7F 0C 7B 0C 00 00 00 00 00 00 00 00 00 00
2026-02-20T17:00:15.768385,39.791,can0  204  [16]  4B 23 50 46 50 46 50 46 28 23 30 75 30 75 00 00
2026-02-20T17:00:15.777903,39.801,can0   00  [05]  0d 85 30 10 08 0
2026-02-20T17:00:15.874327,39.897,can0  204  [16]  4B 23 50 46 50 46 50 46 28 23 30 75 30 75 00 00
2026-02-20T17:00:15.874425,39.897,can0  001  [05]  D8 53 01 00 80
2026-02-20T17:00:15.874705,39.898,can0  041  [04]  8B 00 02 00
2026-02-20T17:00:15.874893,39.898,can0  204  [16]  4B 23 50 46 50 46 50 46 FC 21 30 75 30 75 00 00
