Timestamp,Elapsed_Time_s,CAN_Message
2026-03-15T15:44:56.632304,3.620,can0  204  [16]  6E 23 D1 44 C6 29 65 57 28 23 30 75 30 75 00 00
2026-03-15T15:44:56.633022,3.621,can0  070  [20]  E9 2A 4D 08 01 B1 62 03 C0 DA 00 00 2C 16 00 00 44 00 00 00
2026-03-15T15:44:56.633106,3.621,can0  040  [04]  40 00 18 00
2026-03-15T15:44:56.755210,3.743,can0  204  [16]  6E 23 D2 44 CD 29 65 57 28 23 30 75 30 75 00 00
2026-03-15T15:44:56.763912,3.752,can0  204  [16]  6E 23 D2 44 CD 29 65 57 28 23 30 75 30 75 00 00
2026-03-15T15:44:56.764034,3.752,can0  206  [24]  7F 0C 5C 05 7B 0C 12 F0 7A 05 8B 0C 77 0C 00 00 00 00 00 00 00 00 00 00
2026-03-15T15:44:56.819854,3.807,can0  100  [03]  DD 4C 04
2026-03-15T15:44:56.819961,3.808,can0  110  [02]  AD 1B
2026-03-15T15:44:56.820584,3.808,can0  120  [04]  00 00 00 00
2026-03-15T15:44:56.821189,3.809,can0  204  [16]  6E 23 D2 44 CF 29 66 57 28 23 30 75 30 75 00 00
2026-03-15T15:44:56.830646,3.818,can0  041  [04]  10 01 1B 00
2026-03-15T15:44:56.830804,3.818,can0  060  [32]  00 00 00 00 00 00 00 00 00 00 00 00 00 00 00 00 00 00 00 00 00 00 00 00 00 00 00 00 00 00 00 00
2026-03-15T15:44:56.830890,3.818,can0  040  [04]  42 00 14 00
2026-03-15T15:44:56.830964,3.819,can0  204  [16]  6E 23 D2 44 CF 29 66 57 28 23 30 75 30 75 00 00
2026-03-15T15:44:56.904408,3.892,can0  040  [04]  42 00 14 00
2026-03-15T15:44:56.912695,3.900,can0  204  [16]  6E 23 D2 44 CF 29 66 57 28 23 30 75 30 75 00 00
2026-03-15T15:44:57.009315,3.997,can0  204  [16]  6E 23 D2 44 C6 29 66 57 28 23 30 75 30 75 00 00
2026-03-15T15:44:57.018384,4.006,can0  206  [24]  7F 0C 5C 05 7B 0C 12 F0 76 05 8F 0C 7B 0C 00 00 00 00 00 00 00 00 00 00
2026-03-15T15:44:57.018466,4.006,can0  204  [16]  6E 23 D2 44 C6 29 66 57 28 23 30 75 30 75 00 00
2026-03-15T15:44:57.119130,4.107,can0  041  [04]  10 01 19 00
2026-03-15T15:44:57.119513,4.107,can0  204  [16]  6E 23 D2 44 C8 29 66 57 28 23 30 75 30 75 00 00
2026-03-15T15:44:57.119967,4.108,can0  070  [20]  E9 2A 4D 08 01 B1 62 03 C0 DA 00 00 2C 16 00 00 44 00 00 00
2026-03-15T15:44:57.129206,4.117,can0  040  [04]  4A 00 15 00
2026-03-15T15:44:57.129306,4.117,can0  204  [16]  6E 23 D2 44 C1 29 66 57 28 23 30 75 30 75 00 00
2026-03-15T15:44:57.129376,4.117,can0  040  [04]  4A 00 15 00
2026-03-15T15:44:57.214105,4.202,can0  204  [16]  6E 23 D2 44 C1 29 66 57 28 23 30 75 30 75 00 00
2026-03-15T15:44:57.214468,4.202,can0  070  [20]  E9 2A 4D 08 01 B1 62 03 C0 DA 00 00 2C 16 00 00 44 00 00 00
2026-03-15T15:44:57.217666,4.205,can0  206  [24]  83 0C 59 05 7B 0C 12 F0 76 05 93 0C 77 0C 00 00 00 00 00 00 00 00 00 00
2026-03-15T15:44:57.355206,4.343,can0  204  [16]  6E 23 D3 44 CD 29 67 57 28 23 30 75 30 75 00 00
2026-03-15T15:44:57.356106,4.344,can0  204  [16]  6E 23 D3 44 CD 29 67 57 28 23 30 75 30 75 00 00
2026-03-15T15:44:57.356183,4.344,can0  041  [04]  0E 01 19 00
2026-03-15T15:44:57.356245,4.344,can0  060  [32]  00 00 00 00 00 00 00 00 00 00 00 00 00 00 00 00 00 00 00 00 00 00 00 00 00 00 00 00 00 00 00 00
2026-03-15T15:44:57.425851,4.413,can0  060  [32]  00 00 00 00 E9 2A 4D 08 55 06 B8 10 00 00 10 0E FF 01 00 00 00 00 00 00 01 00 00 00 00 00 00 00
2026-03-15T15:44:57.427151,4.415,can0  040  [04]  55 00 18 00
2026-03-15T15:44:57.427220,4.415,can0  204  [16]  6E 23 D2 44 C8 29 68 57 28 23 30 75 30 75 00 00
2026-03-15T15:44:57.427261,4.415,can0  040  [04]  55 00 18 00
2026-03-15T15:44:57.433874,4.421,can0  204  [16]  6E 23 D2 44 C8 29 68 57 28 23 30 75 30 75 00 00
2026-03-15T15:44:57.542739,4.530,can0  070  [20]  E9 2A 4D 08 02 B1 62 03 A8 DE 00 00 2C 16 00 00 06 00 00 00
2026-03-15T15:44:57.543170,4.531,can0  204  [16]  6E 23 D2 44 D2 29 68 57 28 23 30 75 30 75 00 00
2026-03-15T15:44:57.543589,4.531,can0  206  [24]  83 0C 5C 05 7B 0C 12 F0 78 05 8B 0C 77 0C 00 00 00 00 00 00 00 00 00 00
2026-03-15T15:44:57.554872,4.542,can0  070  [20]  E9 2A 4D 08 02 B1 62 03 A8 DE 00 00 2C 16 00 00 06 00 00 00
2026-03-15T15:44:57.623019,4.611,can0  204  [16]  6E 23 D1 44 D2 29 69 57 28 23 30 75 30 75 00 00
2026-03-15T15:44:57.623569,4.611,can0  041  [04]  00 01 1B 00
2026-03-15T15:44:57.623735,4.611,can0  070  [20]  E9 2A 4D 08 02 B1 62 03 A8 DE 00 00 2C 16 00 00 06 00 00 00
2026-03-15T15:44:57.624100,4.612,can0  040  [04]  55 00 14 00
2026-03-15T15:44:57.635106,4.623,can0  204  [16]  6E 23 D2 44 D4 29 6A 57 28 23 30 75 30 75 00 00
2026-03-15T15:44:57.789262,4.777,can0  040  [04]  55 00 14 00
2026-03-15T15:44:57.789380,4.777,can0  204  [16]  6E 23 D2 44 D4 29 6A 57 28 23 30 75 30 75 00 00
2026-03-15T15:44:57.856412,4.844,can0  204  [16]  6E 23 D2 44 CB 29 6A 57 28 23 30 75 30 75 00 00
2026-03-15T15:44:57.857053,4.845,can0  132  [00]
2026-03-15T15:44:57.857133,4.845,can0  206  [24]  7F 0C 5C 05 73 0C F4 EF 78 05 8B 0C 7B 0C 00 00 00 00 00 00 00 00 00 00
2026-03-15T15:44:57.867938,4.856,can0  204  [16]  6E 23 D2 44 CB 29 6A 57 28 23 30 75 30 75 00 00
2026-03-15T15:44:57.936248,4.924,can0  041  [04]  00 01 1D 00
2026-03-15T15:44:57.937146,4.925,can0  204  [16]  6E 23 D3 44 C8 29 6B 57 28 23 30 75 30 75 00 00
2026-03-15T15:44:57.937232,4.925,can0  040  [04]  60 00 13 00
2026-03-15T15:44:57.943835,4.931,can0  204  [16]  6E 23 D3 44 C8 29 6B 57 28 23 30 75 30 75 00 00
2026-03-15T15:44:58.016973,5.005,can0  040  [04]  60 00 13 00
2026-03-15T15:44:58.017073,5.005,can0  100  [03]  D5 4C 04
2026-03-15T15:44:58.017831,5.005,can0  120  [04]  00 00 00 00
2026-03-15T15:44:58.019045,5.007,can0  204  [16]  6E 23 D3 44 C8 29 6B 57 28 23 30 75 30 75 00 00
2026-03-15T15:44:58.121014,5.109,can0  206  [24]  93 0C 59 05 5B 0C F4 EF 78 05 9B 0C 73 0C 00 00 00 00 00 00 00 00 00 00
2026-03-15T15:44:58.121112,5.109,can0  204  [16]  6E 23 D2 44 D2 29 6C 57 28 23 30 75 30 75 00 00
2026-03-15T15:44:58.121178,5.109,can0  204  [16]  6E 23 D2 44 D2 29 6C 57 28 23 30 75 30 75 00 00
2026-03-15T15:44:58.121244,5.109,can0  070  [20]  E9 2A 4D 08 02 B1 62 03 A8 DE 00 00 2C 16 00 00 06 00 00 00
2026-03-15T15:44:58.130792,5.118,can0  041  [04]  07 01 1D 00
2026-03-15T15:44:58.255606,5.243,can0  040  [04]  62 00 16 00
2026-03-15T15:44:58.256106,5.244,can0  204  [16]  6E 23 D2 44 D4 29 6C 57 28 23 30 75 30 75 00 00
2026-03-15T15:44:58.266010,5.254,can0  040  [04]  62 00 16 00
2026-03-15T15:44:58.276292,5.264,can0  204  [16]  6E 23 D3 44 CF 29 6D 57 28 23 30 75 30 75 00 00
2026-03-15T15:44:58.323623,5.311,can0  070  [20]  E9 2A 4D 08 02 B1 62 03 A8 DE 00 00 2C 16 00 00 06 00 00 00
2026-03-15T15:44:58.330771,5.318,can0  204  [16]  6E 23 D3 44 CF 29 6D 57 28 23 30 75 30 75 00 00
2026-03-15T15:44:58.330835,5.318,can0  206  [24]  77 0C 59 05 73 0C 12 F0 7A 05 97 0C 7F 0C 00 00 00 00 00 00 00 00 00 00
2026-03-15T15:44:58.430448,5.418,can0  204  [16]  6E 23 D3 44 C8 29 6D 57 28 23 30 75 30 75 00 00
2026-03-15T15:44:58.430547,5.418,can0  110  [02]  AF 1B
2026-03-15T15:44:58.430943,5.419,can0  060  [32]  71 82 D6 02 11 29 4D 08 A7 3A B8 10 00 00 10 0E FF 01 00 00 00 00 00 00 02 00 00 00 00 00 00 00
2026-03-15T15:44:58.431020,5.419,can0  060  [32]  00 00 00 00 E9 2A 4D 08 57 06 B8 10 00 00 10 0E FF 01 00 00 00 00 00 01 02 00 00 00 00 00 00 00
2026-03-15T15:44:58.431970,5.420,can0  041  [04]  10 01 1B 00
2026-03-15T15:44:58.432044,5.420,can0  204  [16]  6E 23 D3 44 C8 29 6D 57 28 23 30 75 30 75 00 00
2026-03-15T15:44:58.432576,5.420,can0  040  [04]  5F 00 17 00
2026-03-15T15:44:58.546388,5.534,can0  070  [20]  E9 2A 4D 08 02 B1 62 03 90 E2 00 00 2C 16 00 00 1F 00 00 00
2026-03-15T15:44:58.546996,5.535,can0  040  [04]  5F 00 17 00
2026-03-15T15:44:58.547340,5.535,can0  204  [16]  6E 23 D5 44 CF 29 6E 57 28 23 30 75 30 75 00 00
2026-03-15T15:44:58.547554,5.535,can0  070  [20]  E9 2A 4D 08 02 B1 62 03 90 E2 00 00 2C 16 00 00 20 00 00 00
2026-03-15T15:44:58.554753,5.542,can0  204  [16]  6E 23 D3 44 CF 29 6E 57 28 23 30 75 30 75 00 00
2026-03-15T15:44:58.607765,5.595,can0  070  [20]  E9 2A 4D 08 02 B1 62 03 90 E2 00 00 2C 16 00 00 20 00 00 00
2026-03-15T15:44:58.608108,5.596,can0  206  [24]  7F 0C 57 05 7B 0C 12 F0 7A 05 8B 0C 7B 0C 00 00 00 00 00 00 00 00 00 00
2026-03-15T15:44:58.614277,5.602,can0  204  [16]  6E 23 D3 44 CF 29 6E 57 28 23 30 75 30 75 00 00
2026-03-15T15:44:58.732536,5.720,can0  041  [04]  18 01 16 00
2026-03-15T15:44:58.733357,5.721,can0  204  [16]  6E 23 D2 44 D6 29 6F 57 28 23 30 75 30 75 00 00
2026-03-15T15:44:58.733441,5.721,can0  040  [04]  5F 00 17 00
2026-03-15T15:44:58.740289,5.728,can0  204  [16]  6E 23 D0 44 D2 29 6F 57 28 23 30 75 30 75 00 00
2026-03-15T15:44:58.844222,5.832,can0  040  [04]  5F 00 17 00
2026-03-15T15:44:58.844304,5.832,can0  204  [16]  6E 23 D0 44 D2 29 6F 57 28 23 30 75 30 75 00 00
2026-03-15T15:44:58.844366,5.832,can0  206  [24]  7F 0C 5C 05 7F 0C F4 EF 7A 05 8F 0C 77 0C 00 00 00 00 00 00 00 00 00 00
2026-03-15T15:44:58.918025,5.906,can0  204  [16]  6E 23 D1 44 D4 29 70 57 28 23 30 75 30 75 00 00
2026-03-15T15:44:58.918474,5.906,can0  060  [32]  00 00 00 00 00 00 00 00 00 00 00 00 00 00 00 00 00 00 00 00 00 00 00 00 00 00 00 00 00 00 00 00
2026-03-15T15:44:58.919031,5.907,can0  204  [16]  6E 23 D1 44 D4 29 70 57 28 23 30 75 30 75 00 00
2026-03-15T15:44:58.919102,5.907,can0  041  [04]  23 01 13 00
2026-03-15T15:44:59.033617,6.021,can0  040  [04]  58 00 18 00
2026-03-15T15:44:59.033730,6.021,can0  204  [16]  6E 23 D1 44 D2 29 70 57 28 23 30 75 30 75 00 00
2026-03-15T15:44:59.034067,6.022,can0  040  [04]  58 00 18 00
2026-03-15T15:44:59.034606,6.022,can0  204  [16]  6E 23 D2 44 D2 29 71 57 28 23 30 75 30 75 00 00
2026-03-15T15:44:59.034678,6.022,can0  060  [32]  D4 D1 92 01 80 48 4D 08 6C C9 62 03 02 00 B3 00 62 00 86 00 00 00 00 00 01 00 00 00 00 00 00 00
2026-03-15T15:44:59.130837,6.118,can0  070  [20]  E9 2A 4D 08 02 B1 62 03 90 E2 00 00 2C 16 00 00 20 00 00 00
2026-03-15T15:44:59.131102,6.119,can0  204  [16]  6E 23 D2 44 D2 29 71 57 28 23 30 75 30 75 00 00
2026-03-15T15:44:59.138176,6.126,can0  206  [24]  7F 0C 59 05 77 0C 03 F0 7A 05 97 0C 7B 0C 00 00 00 00 00 00 00 00 00 00
2026-03-15T15:44:59.231145,6.219,can0  204  [16]  6E 23 D2 44 CD 29 71 57 28 23 30 75 30 75 00 00
2026-03-15T15:44:59.232363,6.220,can0  100  [03]  CA 4C 04
2026-03-15T15:44:59.232427,6.220,can0  120  [04]  00 00 00 00
2026-03-15T15:44:59.232817,6.220,can0  041  [04]  27 01 0C 00
2026-03-15T15:44:59.232880,6.220,can0  204  [16]  6E 23 D2 44 CD 29 71 57 28 23 30 75 30 75 00 00
2026-03-15T15:44:59.233053,6.221,can0  070  [20]  E9 2A 4D 08 02 B1 62 03 90 E2 00 00 2C 16 00 00 20 00 00 00
2026-03-15T15:44:59.233979,6.222,can0  040  [04]  58 00 17 00
2026-03-15T15:44:59.331329,6.319,can0  204  [16]  6E 23 D3 44 D4 29 71 57 28 23 30 75 30 75 00 00
2026-03-15T15:44:59.332084,6.320,can0  040  [04]  58 00 17 00
2026-03-15T15:44:59.332129,6.320,can0  204  [16]  6E 23 D2 44 D4 29 72 57 28 23 30 75 30 75 00 00
2026-03-15T15:44:59.454482,6.442,can0  204  [16]  6E 23 D2 44 D4 29 72 57 28 23 30 75 30 75 00 00
2026-03-15T15:44:59.458002,6.446,can0  206  [24]  87 0C 5C 05 7B 0C 03 F0 76 05 8B 0C 6F 0C 00 00 00 00 00 00 00 00 00 00
2026-03-15T15:44:59.458094,6.446,can0  204  [16]  6E 23 D2 44 D4 29 72 57 28 23 30 75 30 75 00 00
2026-03-15T15:44:59.555086,6.543,can0  041  [04]  16 01 0F 00
2026-03-15T15:44:59.556939,6.545,can0  070  [20]  E9 2A 4D 08 01 B1 62 03 78 E6 00 00 2C 16 00 00 29 00 00 00
2026-03-15T15:44:59.557086,6.545,can0  040  [04]  58 00 17 00
2026-03-15T15:44:59.557152,6.545,can0  204  [16]  6E 23 D2 44 D8 29 72 57 28 23 30 75 30 75 00 00
2026-03-15T15:44:59.557215,6.545,can0  070  [20]  E9 2A 4D 08 01 B1 62 03 78 E6 00 00 2C 16 00 00 29 00 00 00
2026-03-15T15:44:59.559287,6.547,can0  040  [04]  58 00 17 00
2026-03-15T15:44:59.651137,6.639,can0  204  [16]  6E 23 D2 44 D2 29 73 57 28 23 30 75 30 75 00 00
2026-03-15T15:44:59.651354,6.639,can0  070  [20]  E9 2A 4D 08 01 B1 62 03 78 E6 00 00 2C 16 00 00 29 00 00 00
2026-03-15T15:44:59.655296,6.643,can0  204  [16]  6E 23 D2 44 D4 29 73 57 28 23 30 75 30 75 00 00
2026-03-15T15:44:59.730554,6.718,can0  206  [24]  9B 0C 53 05 63 0C 2F F0 7A 05 77 0C 6F 0C 00 00 00 00 00 00 00 00 00 00
2026-03-15T15:44:59.730854,6.718,can0  204  [16]  6E 23 D2 44 D4 29 73 57 28 23 30 75 30 75 00 00
2026-03-15T15:44:59.731047,6.719,can0  041  [04]  10 01 12 00
2026-03-15T15:44:59.834670,6.822,can0  040  [04]  5E 00 19 00
2026-03-15T15:44:59.835137,6.823,can0  204  [16]  6E 23 D1 44 D4 29 74 57 28 23 30 75 30 75 00 00
2026-03-15T15:44:59.835723,6.823,can0  040  [04]  5E 00 19 00
2026-03-15T15:44:59.844589,6.832,can0  204  [16]  6E 23 D1 44 D4 29 74 57 28 23 30 75 30 75 00 00
2026-03-15T15:44:59.951394,6.939,can0  204  [16]  6E 23 D1 44 D8 29 74 57 28 23 30 75 30 75 00 00
2026-03-15T15:44:59.958879,6.946,can0  206  [24]  7B 0C 5C 05 83 0C F4 EF 76 05 8B 0C 77 0C 00 00 00 00 00 00 00 00 00 00
2026-03-15T15:44:59.959003,6.947,can0  204  [16]  6E 23 D1 44 D6 29 75 57 28 23 30 75 30 75 00 00
2026-03-15T15:45:00.037733,7.025,can0  110  [02]  AF 1B
2026-03-15T15:45:00.038240,7.026,can0  041  [04]  09 01 13 00
2026-03-15T15:45:00.038317,7.026,can0  204  [16]  6E 23 D1 44 D6 29 75 57 28 23 30 75 30 75 00 00
2026-03-15T15:45:00.044896,7.032,can0  040  [04]  60 00 1C 00
2026-03-15T15:45:00.131116,7.119,can0  204  [16]  6E 23 D2 44 D2 29 75 57 28 23 30 75 30 75 00 00
2026-03-15T15:45:00.131850,7.119,can0  040  [04]  60 00 1C 00
2026-03-15T15:45:00.131911,7.119,can0  070  [20]  E9 2A 4D 08 01 B1 62 03 78 E6 00 00 2C 16 00 00 29 00 00 00
2026-03-15T15:45:00.132108,7.120,can0  204  [16]  6E 23 D2 44 CB 29 75 57 28 23 30 75 30 75 00 00
2026-03-15T15:45:00.231444,7.219,can0  206  [24]  7F 0C 5C 05 77 0C E4 EF 7C 05 93 0C 77 0C 00 00 00 00 00 00 00 00 00 00
2026-03-15T15:45:00.232115,7.220,can0  204  [16]  6E 23 D2 44 CB 29 75 57 28 23 30 75 30 75 00 00
2026-03-15T15:45:00.232196,7.220,can0  070  [20]  E9 2A 4D 08 01 B1 62 03 78 E6 00 00 2C 16 00 00 29 00 00 00
2026-03-15T15:45:00.241771,7.229,can0  204  [16]  6E 23 D2 44 CD 29 76 57 28 23 30 75 30 75 00 00
2026-03-15T15:45:00.330586,7.318,can0  041  [04]  0C 01 14 00
2026-03-15T15:45:00.331652,7.319,can0  040  [04]  5E 00 1B 00
2026-03-15T15:45:00.331739,7.319,can0  204  [16]  6E 23 D2 44 CD 29 76 57 28 23 30 75 30 75 00 00
2026-03-15T15:45:00.332131,7.320,can0  040  [04]  5E 00 1B 00
2026-03-15T15:45:00.448324,7.436,can0  100  [03]  BE 4C 04
2026-03-15T15:45:00.449660,7.437,can0  120  [04]  00 00 00 00
2026-03-15T15:45:00.449752,7.437,can0  204  [16]  6E 23 D2 44 CB 29 76 57 28 23 30 75 30 75 00 00
2026-03-15T15:45:00.449824,7.437,can0  060  [32]  00 00 00 00 E9 2A 4D 08 55 06 B8 10 00 00 10 0E FF 01 00 00 00 00 00 00 01 00 00 00 00 00 00 00
2026-03-15T15:45:00.450412,7.438,can0  204  [16]  6E 23 D2 44 CB 29 76 57 28 23 30 75 30 75 00 00
2026-03-15T15:45:00.459387,7.447,can0  206  [24]  73 0C 59 05 7F 0C F4 EF 76 05 93 0C 83 0C 00 00 00 00 00 00 00 00 00 00
2026-03-15T15:45:00.514517,7.502,can0  070  [20]  EA 2A 4D 08 FF B0 62 03 00 00 00 00 2D 16 00 00 3B 00 00 00
2026-03-15T15:45:00.514946,7.503,can0  204  [16]  6E 23 D2 44 D4 29 76 57 28 23 30 75 30 75 00 00
2026-03-15T15:45:00.515166,7.503,can0  070  [20]  EA 2A 4D 08 FF B0 62 03 00 00 00 00 2D 16 00 00 3B 00 00 00
2026-03-15T15:45:00.524299,7.512,can0  041  [04]  10 01 0F 00
2026-03-15T15:45:00.630710,7.618,can0  204  [16]  6E 23 D0 44 D2 29 77 57 28 23 30 75 30 75 00 00
2026-03-15T15:45:00.631750,7.619,can0  040  [04]  58 00 19 00
2026-03-15T15:45:00.631843,7.619,can0  070  [20]  EA 2A 4D 08 FF B0 62 03 00 00 00 00 2D 16 00 00 3B 00 00 00
2026-03-15T15:45:00.632129,7.620,can0  040  [04]  58 00 19 00
2026-03-15T15:45:00.641218,7.629,can0  204  [16]  6E 23 D0 44 D2 29 77 57 28 23 30 75 30 75 00 00
2026-03-15T15:45:00.730812,7.718,can0  204  [16]  6E 23 D2 44 D8 29 77 57 28 23 30 75 30 75 00 00
2026-03-15T15:45:00.737410,7.725,can0  206  [24]  73 0C 5C 05 7F 0C E4 EF 7A 05 87 0C 7F 0C 00 00 00 00 00 00 00 00 00 00
2026-03-15T15:45:00.737476,7.725,can0  204  [16]  6E 23 D2 44 CD 29 77 57 28 23 30 75 30 75 00 00
2026-03-15T15:45:00.840550,7.828,can0  041  [04]  10 01 0F 00
2026-03-15T15:45:00.840907,7.828,can0  204  [16]  6E 23 D2 44 CD 29 77 57 28 23 30 75 30 75 00 00
2026-03-15T15:45:00.841484,7.829,can0  040  [04]  65 00 17 00
2026-03-15T15:45:00.958481,7.946,can0  204  [16]  6E 23 D1 44 CD 29 77 57 28 23 30 75 30 75 00 00
2026-03-15T15:45:00.959288,7.947,can0  040  [04]  65 00 17 00
2026-03-15T15:45:00.959633,7.947,can0  060  [32]  00 00 00 00 00 00 00 00 00 00 00 00 00 00 00 00 00 00 00 00 00 00 00 00 00 00 00 00 00 00 00 00
2026-03-15T15:45:00.960046,7.948,can0  204  [16]  6E 23 D1 44 CD 29 77 57 28 23 30 75 30 75 00 00
2026-03-15T15:45:01.018850,8.006,can0  206  [24]  7F 0C 59 05 83 0C 03 F0 7A 05 87 0C 77 0C 00 00 00 00 00 00 00 00 00 00
2026-03-15T15:45:01.018951,8.007,can0  204  [16]  6E 23 D1 44 D4 29 78 57 28 23 30 75 30 75 00 00
2026-03-15T15:45:01.019015,8.007,can0  204  [16]  6E 23 D1 44 D4 29 77 57 28 23 30 75 30 75 00 00
2026-03-15T15:45:01.137656,8.125,can0  041  [04]  17 01 0D 00
2026-03-15T15:45:01.138006,8.126,can0  070  [20]  EA 2A 4D 08 FF B0 62 03 00 00 00 00 2D 16 00 00 3B 00 00 00
2026-03-15T15:45:01.147762,8.135,can0  040  [04]  6F 00 13 00
2026-03-15T15:45:01.147888,8.135,can0  204  [16]  6E 23 D1 44 D4 29 77 57 28 23 30 75 30 75 00 00
2026-03-15T15:45:01.235561,8.223,can0  040  [04]  6F 00 13 00
2026-03-15T15:45:01.243497,8.231,can0  204  [16]  6E 23 D0 44 D4 29 77 57 28 23 30 75 30 75 00 00
2026-03-15T15:45:01.243590,8.231,can0  204  [16]  6E 23 D0 44 D4 29 77 57 28 23 30 75 30 75 00 00
2026-03-15T15:45:01.243632,8.231,can0  070  [20]  EA 2A 4D 08 FF B0 62 03 00 00 00 00 2D 16 00 00 3B 00 00 00
2026-03-15T15:45:01.243669,8.231,can0  206  [24]  77 0C 59 05 7F 0C 20 F0 7A 05 83 0C 83 0C 00 00 00 00 00 00 00 00 00 00
2026-03-15T15:45:01.278119,8.266,can0   001  [05]  0c 05 70 10 08 0
2026-03-15T15:45:01.330990,8.319,can0  204  [16]  6E 23 CF 44 D6 29 77 57 28 23 30 75 30 75 00 00
2026-03-15T15:45:01.331287,8.319,can0  133  [00]
2026-03-15T15:45:01.331480,8.319,can0  001  [05]  C0 57 01 00 80
2026-03-15T15:45:01.331679,8.319,can0  041  [04]  16 01 0E 00
2026-03-15T15:45:01.332344,8.320,can0  204  [16]  6E 23 D0 44 CF 29 79 57 60 22 30 75 30 75 00 00
2026-03-15T15:45:01.332392,8.320,can0  040  [04]  67 00 15 00
2026-03-15T15:45:01.345752,8.333,can0   001  [05]  0f 04 f0 10 08 0
2026-03-15T15:45:01.416698,8.404,can0   001  [05]  02 04 80 10 08 0
2026-03-15T15:45:01.434395,8.422,can0  001  [05]  F0 4F 01 00 80
2026-03-15T15:45:01.435164,8.423,can0  060  [32]  00 00 00 00 00 00 00 00 00 00 00 00 00 00 00 00 00 00 00 00 00 00 00 00 00 00 00 00 00 00 00 00
2026-03-15T15:45:01.435235,8.423,can0  204  [16]  6E 23 D0 44 CF 29 79 57 98 21 30 75 30 75 00 00
2026-03-15T15:45:01.435274,8.423,can0  060  [32]  00 00 00 00 EA 2A 4D 08 54 06 B8 10 00 00 10 0E FF 01 00 00 00 00 00 00 01 00 00 00 00 00 00 00
2026-03-15T15:45:01.441994,8.430,can0  040  [04]  67 00 15 00
2026-03-15T15:45:01.486397,8.474,can0   001  [05]  05 04 00 10 08 0
2026-03-15T15:45:01.530981,8.519,can0  204  [16]  6E 23 D0 44 CF 29 79 57 98 21 30 75 30 75 00 00
2026-03-15T15:45:01.531143,8.519,can0  001  [05]  20 48 01 00 80
2026-03-15T15:45:01.531438,8.519,can0  206  [24]  7B 0C 5C 05 6F 0C F4 EF 7A 05 8F 0C 6F 0C 00 00 00 00 00 00 00 00 00 00
2026-03-15T15:45:01.531637,8.519,can0  001  [05]  50 40 01 00 80
2026-03-15T15:45:01.537956,8.526,can0  204  [16]  6E 23 D2 44 C6 29 7A 57 08 20 30 75 30 75 00 00
2026-03-15T15:45:01.577004,8.565,can0   001  [05]  08 03 80 10 08 0
2026-03-15T15:45:01.630959,8.619,can0  100  [03]  B2 4C 04
2026-03-15T15:45:01.631460,8.619,can0  110  [02]  AF 1B
2026-03-15T15:45:01.632053,8.620,can0  120  [04]  00 00 00 00
2026-03-15T15:45:01.632313,8.620,can0  041  [04]  26 01 0F 00
2026-03-15T15:45:01.632563,8.620,can0  204  [16]  4B 23 D2 44 C6 29 7A 57 08 20 30 75 30 75 00 00
2026-03-15T15:45:01.632728,8.620,can0  001  [05]  80 38 01 00 80
2026-03-15T15:45:01.632936,8.621,can0  070  [20]  EA 2A 4D 08 FF B0 62 03 E8 03 00 00 2D 16 00 00 2B 00 00 00
2026-03-15T15:45:01.638985,8.627,can0  040  [04]  65 00 16 00
2026-03-15T15:45:01.639051,8.627,can0  070  [20]  EA 2A 4D 08 FF B0 62 03 E8 03 00 00 2D 16 00 00 2A 00 00 00
2026-03-15T15:45:01.671868,8.659,can0   001  [05]  0b 03 00 10 08 0
2026-03-15T15:45:01.748746,8.736,can0  204  [16]  04 23 CC 44 E1 29 7A 57 40 1F 30 75 30 75 00 00
2026-03-15T15:45:01.749988,8.738,can0  070  [20]  EA 2A 4D 08 FF B0 62 03 E8 03 00 00 2D 16 00 00 2A 00 00 00
2026-03-15T15:45:01.750057,8.738,can0  040  [04]  65 00 16 00
2026-03-15T15:45:01.750132,8.738,can0  204  [16]  E1 22 CC 44 E1 29 7A 57 40 1F 30 75 30 75 00 00
2026-03-15T15:45:01.750179,8.738,can0  001  [05]  B0 30 01 00 80
2026-03-15T15:45:01.857313,8.845,can0  204  [16]  78 22 CE 44 D8 29 7B 57 78 1E 30 75 30 75 00 00
2026-03-15T15:45:01.857836,8.845,can0  206  [24]  77 0C 60 05 6F 0C 03 F0 7A 05 7F 0C 6B 0C 00 00 00 00 00 00 00 00 00 00
2026-03-15T15:45:01.858147,8.846,can0  204  [16]  31 22 D1 44 D4 29 7C 57 78 1E 30 75 30 75 00 00
2026-03-15T15:45:01.896852,8.884,can0   001  [05]  0e 02 80 10 08 0
2026-03-15T15:45:01.949073,8.937,can0  041  [04]  1D 01 10 00
2026-03-15T15:45:01.949891,8.937,can0  040  [04]  62 00 17 00
2026-03-15T15:45:01.950212,8.938,can0  204  [16]  EB 21 D1 44 D4 29 7C 57 78 1E 30 75 30 75 00 00
2026-03-15T15:45:01.950449,8.938,can0  060  [32]  00 00 00 00 00 00 00 00 00 00 00 00 00 00 00 00 00 00 00 00 00 00 00 00 00 00 00 00 00 00 00 00
2026-03-15T15:45:01.957816,8.945,can0  040  [04]  62 00 17 00
2026-03-15T15:45:01.957939,8.946,can0  001  [05]  E0 28 01 00 80
2026-03-15T15:45:01.965387,8.953,can0   001  [05]  01 02 10 10 08 0
2026-03-15T15:45:02.013364,9.001,can0  204  [16]  A5 21 D0 44 C4 29 7C 57 B0 1D 30 75 30 75 00 00
2026-03-15T15:45:02.013639,9.001,can0  001  [05]  10 21 01 00 80
2026-03-15T15:45:02.013971,9.002,can0  204  [16]  5E 21 D0 44 C4 29 7C 57 E8 1C 30 75 30 75 00 00
2026-03-15T15:45:02.102196,9.090,can0   001  [05]  0e 02 80 10 08 0
2026-03-15T15:45:02.151875,9.139,can0  204  [16]  18 21 CF 44 D2 29 7C 57 E8 1C 30 75 30 75 00 00
2026-03-15T15:45:02.152602,9.140,can0  206  [24]  7B 0C 5C 05 67 0C 12 F0 7E 05 77 0C 6F 0C 00 00 00 00 00 00 00 00 00 00
2026-03-15T15:45:02.152666,9.140,can0  041  [04]  14 01 12 00
2026-03-15T15:45:02.152713,9.140,can0  204  [16]  D2 20 D1 44 DF 29 7C 57 E8 1C 30 75 30 75 00 00
2026-03-15T15:45:02.160041,9.148,can0  001  [05]  E0 28 01 00 80
2026-03-15T15:45:02.175152,9.163,can0   001  [05]  0b 03 00 10 08 0
2026-03-15T15:45:02.243383,9.231,can0  040  [04]  62 00 17 00
2026-03-15T15:45:02.244346,9.232,can0  070  [20]  EA 2A 4D 08 FF B0 62 03 E8 03 00 00 2D 16 00 00 2A 00 00 00
2026-03-15T15:45:02.244414,9.232,can0  204  [16]  8C 20 D1 44 DF 29 7C 57 B0 1D 30 75 30 75 00 00
2026-03-15T15:45:02.244460,9.232,can0  040  [04]  62 00 17 00
2026-03-15T15:45:02.244571,9.232,can0  001  [05]  B0 30 01 00 80
2026-03-15T15:45:02.250981,9.239,can0  070  [20]  EA 2A 4D 08 FF B0 62 03 E8 03 00 00 2D 16 00 00 2A 00 00 00
2026-03-15T15:45:02.252376,9.240,can0   001  [05]  05 04 00 10 08 0
2026-03-15T15:45:02.329464,9.317,can0   001  [05]  0c 05 70 10 08 0
2026-03-15T15:45:02.340355,9.328,can0  204  [16]  45 20 D2 44 D2 29 7D 57 78 1E 30 75 30 75 00 00
2026-03-15T15:45:02.340557,9.328,can0  001  [05]  50 40 01 00 80
2026-03-15T15:45:02.346643,9.334,can0  204  [16]  22 20 D2 44 D2 29 7D 57 08 20 30 75 30 75 00 00
2026-03-15T15:45:02.397576,9.385,can0   001  [05]  09 05 f0 10 08 0
2026-03-15T15:45:02.440577,9.428,can0  206  [24]  8B 0C 5E 05 6F 0C F4 EF 81 05 83 0C 77 0C 00 00 00 00 00 00 00 00 00 00
2026-03-15T15:45:02.440783,9.428,can0  001  [05]  C0 57 01 00 80
2026-03-15T15:45:02.441032,9.429,can0  204  [16]  FF 1F D1 44 D6 29 7D 57 60 22 30 75 30 75 00 00
2026-03-15T15:45:02.441521,9.429,can0  041  [04]  10 01 13 00
2026-03-15T15:45:02.441571,9.429,can0  060  [32]  00 00 00 00 EA 2A 4D 08 54 06 B8 10 00 00 10 0E FF 01 00 00 00 00 00 00 01 00 00 00 00 00 00 00
2026-03-15T15:45:02.444129,9.432,can0  040  [04]  5E 00 18 00
2026-03-15T15:45:02.444191,9.432,can0  204  [16]  FF 1F D1 44 D6 29 7D 57 60 22 30 75 30 75 00 00
2026-03-15T15:45:02.444227,9.432,can0  001  [05]  90 5F 01 00 80
2026-03-15T15:45:02.562831,9.550,can0  070  [20]  EA 2A 4D 08 FD B0 62 03 D0 07 00 00 2D 16 00 00 2E 00 00 00
2026-03-15T15:45:02.563553,9.551,can0  040  [04]  5E 00 18 00
2026-03-15T15:45:02.563847,9.551,can0  070  [20]  EA 2A 4D 08 FD B0 62 03 D0 07 00 00 2D 16 00 00 2E 00 00 00
2026-03-15T15:45:02.564186,9.552,can0  204  [16]  FF 1F D1 44 C8 29 7D 57 28 23 30 75 30 75 00 00
2026-03-15T15:45:02.627100,9.615,can0  204  [16]  FF 1F D2 44 D4 29 7D 57 28 23 30 75 30 75 00 00
2026-03-15T15:45:02.627739,9.615,can0  070  [20]  EA 2A 4D 08 FD B0 62 03 D0 07 00 00 2D 16 00 00 2E 00 00 00
2026-03-15T15:45:02.627818,9.615,can0  204  [16]  FF 1F D3 44 CB 29 7D 57 28 23 30 75 30 75 00 00
2026-03-15T15:45:02.628126,9.616,can0  206  [24]  77 0C 5C 05 77 0C 2F F0 7A 05 7F 0C 6F 0C 00 00 00 00 00 00 00 00 00 00
2026-03-15T15:45:02.637021,9.625,can0  041  [04]  19 01 10 00
2026-03-15T15:45:02.740599,9.728,can0  040  [04]  58 00 17 00
2026-03-15T15:45:02.741386,9.729,can0  204  [16]  FF 1F D3 44 CB 29 7D 57 28 23 30 75 30 75 00 00
2026-03-15T15:45:02.741456,9.729,can0  040  [04]  58 00 17 00
2026-03-15T15:45:02.747459,9.735,can0  204  [16]  22 20 D6 44 D6 29 7F 57 28 23 30 75 30 75 00 00
2026-03-15T15:45:02.836510,9.824,can0  100  [03]  AB 4C 04
2026-03-15T15:45:02.837043,9.825,can0  120  [04]  00 00 00 00
2026-03-15T15:45:02.846483,9.834,can0  204  [16]  22 20 D6 44 D6 29 7F 57 28 23 30 75 30 75 00 00
2026-03-15T15:45:02.932207,9.920,can0  204  [16]  22 20 D5 44 B8 29 7F 57 28 23 30 75 30 75 00 00
2026-03-15T15:45:02.932299,9.920,can0  206  [24]  7B 0C 59 05 6F 0C F4 EF 7A 05 83 0C 6F 0C 00 00 00 00 00 00 00 00 00 00
2026-03-15T15:45:02.939274,9.927,can0  060  [32]  00 00 00 00 00 00 00 00 00 00 00 00 00 00 00 00 00 00 00 00 00 00 00 00 00 00 00 00 00 00 00 00
2026-03-15T15:45:02.939375,9.927,can0  041  [04]  19 01 12 00
2026-03-15T15:45:02.939428,9.927,can0  204  [16]  22 20 D1 44 CF 29 80 57 28 23 30 75 30 75 00 00
2026-03-15T15:45:03.031309,10.019,can0  040  [04]  58 00 17 00
2026-03-15T15:45:03.037940,10.026,can0  204  [16]  22 20 D1 44 CF 29 80 57 28 23 30 75 30 75 00 00
2026-03-15T15:45:03.038037,10.026,can0  040  [04]  58 00 17 00
2026-03-15T15:45:03.038104,10.026,can0  204  [16]  22 20 CF 44 C6 29 80 57 28 23 30 75 30 75 00 00
2026-03-15T15:45:03.136698,10.124,can0  070  [20]  EA 2A 4D 08 FD B0 62 03 D0 07 00 00 2D 16 00 00 2E 00 00 00
2026-03-15T15:45:03.137098,10.125,can0  204  [16]  22 20 CF 44 C6 29 80 57 28 23 30 75 30 75 00 00
2026-03-15T15:45:03.137304,10.125,can0  060  [32]  30 EC B8 00 EB 78 4D 08 DA 5A 62 03 00 00 D3 04 77 00 80 00 00 00 00 00 01 00 00 00 00 00 00 00
2026-03-15T15:45:03.231056,10.219,can0  110  [02]  AD 1B
2026-03-15T15:45:03.231426,10.219,can0  204  [16]  45 20 D1 44 D4 29 81 57 28 23 30 75 30 75 00 00
2026-03-15T15:45:03.231654,10.219,can0  041  [04]  25 01 11 00
2026-03-15T15:45:03.232040,10.220,can0  206  [24]  6B 0C 5E 05 6F 0C 12 F0 78 05 87 0C 83 0C 00 00 00 00 00 00 00 00 00 00
2026-03-15T15:45:03.232284,10.220,can0  070  [20]  EA 2A 4D 08 FD B0 62 03 D0 07 00 00 2D 16 00 00 2E 00 00 00
2026-03-15T15:45:03.233046,10.221,can0  040  [04]  5C 00 17 00
2026-03-15T15:45:03.233089,10.221,can0  204  [16]  68 20 D2 44 D4 29 81 57 28 23 30 75 30 75 00 00
2026-03-15T15:45:03.330890,10.318,can0  040  [04]  5C 00 17 00
2026-03-15T15:45:03.331199,10.319,can0  204  [16]  AF 20 D2 44 D4 29 81 57 28 23 30 75 30 75 00 00
2026-03-15T15:45:03.431384,10.419,can0  204  [16]  D2 20 D1 44 D8 29 82 57 28 23 30 75 30 75 00 00
2026-03-15T15:45:03.432054,10.420,can0  204  [16]  F5 20 D1 44 D8 29 82 57 28 23 30 75 30 75 00 00
2026-03-15T15:45:03.432136,10.420,can0  206  [24]  7B 0C 59 05 6F 0C 5A F0 7C 05 83 0C 77 0C 00 00 00 00 00 00 00 00 00 00
2026-03-15T15:45:03.440703,10.428,can0  041  [04]  20 01 0D 00
2026-03-15T15:45:03.557182,10.545,can0  070  [20]  EA 2A 4D 08 FC B0 62 03 B8 0B 00 00 2D 16 00 00 21 00 00 00
2026-03-15T15:45:03.558118,10.546,can0  040  [04]  65 00 18 00
2026-03-15T15:45:03.558513,10.546,can0  204  [16]  3B 21 D1 44 CD 29 82 57 28 23 30 75 30 75 00 00
2026-03-15T15:45:03.559303,10.547,can0  070  [20]  EA 2A 4D 08 FC B0 62 03 B8 0B 00 00 2D 16 00 00 22 00 00 00
2026-03-15T15:45:03.559388,10.547,can0  040  [04]  65 00 18 00
2026-03-15T15:45:03.568654,10.556,can0  204  [16]  5E 21 D1 44 D6 29 83 57 28 23 30 75 30 75 00 00
2026-03-15T15:45:03.623492,10.611,can0  070  [20]  EA 2A 4D 08 FC B0 62 03 B8 0B 00 00 2D 16 00 00 22 00 00 00
2026-03-15T15:45:03.624488,10.612,can0  204  [16]  82 21 D1 44 D6 29 83 57 28 23 30 75 30 75 00 00
2026-03-15T15:45:03.747085,10.735,can0  204  [16]  A5 21 D1 44 CF 29 83 57 28 23 30 75 30 75 00 00
2026-03-15T15:45:03.747748,10.735,can0  206  [24]  77 0C 59 05 73 0C 03 F0 78 05 8B 0C 7B 0C 00 00 00 00 00 00 00 00 00 00
2026-03-15T15:45:03.747827,10.735,can0  041  [04]  27 01 0F 00
2026-03-15T15:45:03.748046,10.736,can0  204  [16]  C8 21 CD 44 DF 29 84 57 28 23 30 75 30 75 00 00
2026-03-15T15:45:03.757164,10.745,can0  040  [04]  70 00 16 00
2026-03-15T15:45:03.814902,10.803,can0  204  [16]  EB 21 CD 44 DF 29 84 57 28 23 30 75 30 75 00 00
2026-03-15T15:45:03.823812,10.811,can0  040  [04]  70 00 16 00
2026-03-15T15:45:03.823918,10.812,can0  204  [16]  0E 22 CC 44 DB 29 84 57 28 23 30 75 30 75 00 00
2026-03-15T15:45:03.944207,10.932,can0  204  [16]  0E 22 CC 44 DB 29 84 57 28 23 30 75 30 75 00 00
2026-03-15T15:45:04.031212,11.019,can0  206  [24]  7F 0C 59 05 6F 0C 2F F0 78 05 87 0C 77 0C 00 00 00 00 00 00 00 00 00 00
2026-03-15T15:45:04.032334,11.020,can0  100  [03]  A0 4C 04
2026-03-15T15:45:04.032385,11.020,can0  120  [04]  00 00 00 00
2026-03-15T15:45:04.032663,11.020,can0  204  [16]  31 22 D2 44 D8 29 85 57 28 23 30 75 30 75 00 00
2026-03-15T15:45:04.032842,11.020,can0  041  [04]  2F 01 10 00
2026-03-15T15:45:04.033499,11.021,can0  040  [04]  81 00 13 00
2026-03-15T15:45:04.039475,11.027,can0  204  [16]  55 22 D5 44 C6 29 86 57 28 23 30 75 30 75 00 00
2026-03-15T15:45:04.131804,11.119,can0  040  [04]  81 00 13 00
2026-03-15T15:45:04.132275,11.120,can0  204  [16]  55 22 D5 44 C6 29 86 57 28 23 30 75 30 75 00 00
2026-03-15T15:45:04.132334,11.120,can0  070  [20]  EA 2A 4D 08 FC B0 62 03 B8 0B 00 00 2D 16 00 00 22 00 00 00
2026-03-15T15:45:04.138054,11.126,can0  204  [16]  78 22 D4 44 D2 29 87 57 28 23 30 75 30 75 00 00
2026-03-15T15:45:04.241276,11.229,can0  204  [16]  78 22 D4 44 D2 29 87 57 28 23 30 75 30 75 00 00
2026-03-15T15:45:04.241744,11.229,can0  206  [24]  7B 0C 5C 05 77 0C F4 EF 7A 05 83 0C 7B 0C 00 00 00 00 00 00 00 00 00 00
2026-03-15T15:45:04.241804,11.229,can0  070  [20]  EA 2A 4D 08 FC B0 62 03 B8 0B 00 00 2D 16 00 00 22 00 00 00
2026-03-15T15:45:04.248748,11.236,can0  041  [04]  29 01 10 00
2026-03-15T15:45:04.331369,11.319,can0  204  [16]  9B 22 D3 44 DF 29 87 57 28 23 30 75 30 75 00 00
2026-03-15T15:45:04.332025,11.320,can0  040  [04]  89 00 10 00
2026-03-15T15:45:04.332501,11.320,can0  040  [04]  89 00 10 00
2026-03-15T15:45:04.338814,11.326,can0  204  [16]  9B 22 CF 44 D6 29 88 57 28 23 30 75 30 75 00 00
2026-03-15T15:45:04.442701,11.430,can0  204  [16]  9B 22 CF 44 D6 29 88 57 28 23 30 75 30 75 00 00
2026-03-15T15:45:04.442782,11.430,can0  060  [32]  00 00 00 00 EA 2A 4D 08 50 06 B8 10 00 00 10 0E FF 01 00 00 00 00 00 00 01 00 00 00 00 00 00 00
2026-03-15T15:45:04.449335,11.437,can0  204  [16]  BE 22 CF 44 D6 29 88 57 28 23 30 75 30 75 00 00
2026-03-15T15:45:04.531010,11.519,can0  206  [24]  77 0C 5C 05 77 0C 20 F0 71 05 93 0C 7F 0C 00 00 00 00 00 00 00 00 00 00
2026-03-15T15:45:04.531247,11.519,can0  070  [20]  EA 2A 4D 08 FC B0 62 03 A0 0F 00 00 2D 16 00 00 32 00 00 00
2026-03-15T15:45:04.531438,11.519,can0  070  [20]  EA 2A 4D 08 FC B0 62 03 A0 0F 00 00 2D 16 00 00 33 00 00 00
2026-03-15T15:45:04.531639,11.519,can0  041  [04]  32 01 10 00
2026-03-15T15:45:04.531893,11.519,can0  204  [16]  BE 22 D0 44 D2 29 89 57 28 23 30 75 30 75 00 00
2026-03-15T15:45:04.532453,11.520,can0  040  [04]  89 00 0F 00
2026-03-15T15:45:04.631039,11.619,can0  204  [16]  BE 22 D0 44 D2 29 89 57 28 23 30 75 30 75 00 00
2026-03-15T15:45:04.631297,11.619,can0  070  [20]  EA 2A 4D 08 FC B0 62 03 A0 0F 00 00 2D 16 00 00 33 00 00 00
2026-03-15T15:45:04.632153,11.620,can0  040  [04]  89 00 0F 00
2026-03-15T15:45:04.632204,11.620,can0  204  [16]  E1 22 D2 44 D6 29 89 57 28 23 30 75 30 75 00 00
2026-03-15T15:45:04.731076,11.719,can0  204  [16]  E1 22 D2 44 D6 29 89 57 28 23 30 75 30 75 00 00
2026-03-15T15:45:04.731166,11.719,can0  206  [24]  7B 0C 53 05 7B 0C 03 F0 7A 05 87 0C 7F 0C 00 00 00 00 00 00 00 00 00 00
2026-03-15T15:45:04.842268,11.830,can0  110  [02]  AE 1B
2026-03-15T15:45:04.852913,11.841,can0  204  [16]  E1 22 D1 44 CB 29 8A 57 28 23 30 75 30 75 00 00
2026-03-15T15:45:04.853048,11.841,can0  041  [04]  35 01 11 00
2026-03-15T15:45:04.853118,11.841,can0  040  [04]  7E 00 0E 00
2026-03-15T15:45:04.853185,11.841,can0  204  [16]  E1 22 D1 44 D2 29 8A 57 28 23 30 75 30 75 00 00
2026-03-15T15:45:04.982721,11.970,can0  040  [04]  7E 00 0E 00
2026-03-15T15:45:04.990213,11.978,can0  204  [16]  E1 22 D1 44 D2 29 8A 57 28 23 30 75 30 75 00 00
2026-03-15T15:45:04.990676,11.978,can0  060  [32]  00 00 00 00 00 00 00 00 00 00 00 00 00 00 00 00 00 00 00 00 00 00 00 00 00 00 00 00 00 00 00 00
2026-03-15T15:45:04.991242,11.979,can0  204  [16]  E1 22 D0 44 C6 29 8A 57 28 23 30 75 30 75 00 00
2026-03-15T15:45:05.055727,12.043,can0  204  [16]  E1 22 D0 44 C6 29 8A 57 28 23 30 75 30 75 00 00
2026-03-15T15:45:05.056211,12.044,can0  206  [24]  7F 0C 5C 05 73 0C F0 F0 7A 05 87 0C 7F 0C 00 00 00 00 00 00 00 00 00 00
2026-03-15T15:45:05.064179,12.052,can0  041  [04]  42 01 0E 00
2026-03-15T15:45:05.176125,12.164,can0  204  [16]  E1 22 D1 44 D4 29 8A 57 28 23 30 75 30 75 00 00
2026-03-15T15:45:05.176222,12.164,can0  040  [04]  71 00 0E 00
2026-03-15T15:45:05.176767,12.164,can0  070  [20]  EA 2A 4D 08 FC B0 62 03 A0 0F 00 00 2D 16 00 00 33 00 00 00
2026-03-15T15:45:05.176838,12.164,can0  204  [16]  E1 22 D0 44 CB 29 8B 57 28 23 30 75 30 75 00 00
2026-03-15T15:45:05.177408,12.165,can0  040  [04]  71 00 0E 00
2026-03-15T15:45:05.246427,12.234,can0  100  [03]  9E 4C 04
2026-03-15T15:45:05.247170,12.235,can0  120  [04]  00 00 00 00
2026-03-15T15:45:05.247851,12.235,can0  204  [16]  E1 22 D0 44 CB 29 8B 57 28 23 30 75 30 75 00 00
2026-03-15T15:45:05.247945,12.236,can0  070  [20]  EA 2A 4D 08 FC B0 62 03 A0 0F 00 00 2D 16 00 00 33 00 00 00
2026-03-15T15:45:05.256797,12.244,can0  204  [16]  E1 22 D1 44 D6 29 8B 57 28 23 30 75 30 75 00 00
2026-03-15T15:45:05.321748,12.309,can0  206  [24]  83 0C 59 05 77 0C F4 EF 76 05 87 0C 7B 0C 00 00 00 00 00 00 00 00 00 00
2026-03-15T15:45:05.321853,12.309,can0  204  [16]  E1 22 D1 44 D6 29 8B 57 28 23 30 75 30 75 00 00
2026-03-15T15:45:05.322076,12.310,can0  041  [04]  45 01 10 00
2026-03-15T15:45:05.323006,12.311,can0  040  [04]  68 00 12 00
2026-03-15T15:45:05.447466,12.435,can0  204  [16]  E1 22 D2 44 CD 29 8B 57 28 23 30 75 30 75 00 00
2026-03-15T15:45:05.448716,12.436,can0  040  [04]  68 00 12 00
2026-03-15T15:45:05.448809,12.436,can0  204  [16]  E1 22 D2 44 CD 29 8B 57 28 23 30 75 30 75 00 00
2026-03-15T15:45:05.448971,12.437,can0  060  [32]  00 00 00 00 00 00 00 00 00 00 00 00 00 00 00 00 00 00 00 00 00 00 00 00 00 00 00 00 00 00 00 00
2026-03-15T15:45:05.517644,12.505,can0  060  [32]  00 00 00 00 EA 2A 4D 08 50 06 B8 10 00 00 10 0E FF 01 00 00 00 00 00 00 01 00 00 00 00 00 00 00
2026-03-15T15:45:05.521105,12.509,can0  070  [20]  EA 2A 4D 08 FC B0 62 03 88 13 00 00 2D 16 00 00 2E 00 00 00
2026-03-15T15:45:05.521205,12.509,can0  204  [16]  E1 22 D2 44 D2 29 8C 57 28 23 30 75 30 75 00 00
2026-03-15T15:45:05.521274,12.509,can0  070  [20]  EA 2A 4D 08 FC B0 62 03 88 13 00 00 2D 16 00 00 2E 00 00 00
2026-03-15T15:45:05.655305,12.643,can0  204  [16]  E1 22 CF 44 CD 29 8C 57 28 23 30 75 30 75 00 00
2026-03-15T15:45:05.656044,12.644,can0  206  [24]  7B 0C 59 05 73 0C F4 EF 7A 05 93 0C 7F 0C 00 00 00 00 00 00 00 00 00 00
2026-03-15T15:45:05.656131,12.644,can0  041  [04]  44 01 11 00
2026-03-15T15:45:05.656353,12.644,can0  070  [20]  EA 2A 4D 08 FC B0 62 03 88 13 00 00 2D 16 00 00 2E 00 00 00
2026-03-15T15:45:05.657062,12.645,can0  040  [04]  65 00 16 00
2026-03-15T15:45:05.666406,12.654,can0  204  [16]  E1 22 D0 44 D4 29 8C 57 28 23 30 75 30 75 00 00
2026-03-15T15:45:05.761380,12.749,can0  040  [04]  65 00 16 00
2026-03-15T15:45:05.761550,12.749,can0  204  [16]  E1 22 D0 44 D4 29 8C 57 28 23 30 75 30 75 00 00
2026-03-15T15:45:05.770225,12.758,can0  204  [16]  E1 22 D1 44 D2 29 8D 57 28 23 30 75 30 75 00 00
2026-03-15T15:45:05.866922,12.855,can0  204  [16]  E1 22 D1 44 D2 29 8D 57 28 23 30 75 30 75 00 00
2026-03-15T15:45:05.867031,12.855,can0  206  [24]  73 0C 57 05 83 0C 12 F0 7A 05 8B 0C 7F 0C 00 00 00 00 00 00 00 00 00 00
2026-03-15T15:45:05.867074,12.855,can0  041  [04]  41 01 12 00
2026-03-15T15:45:05.972331,12.960,can0  204  [16]  E1 22 D1 44 CF 29 8D 57 28 23 30 75 30 75 00 00
2026-03-15T15:45:05.973171,12.961,can0  040  [04]  61 00 1A 00
2026-03-15T15:45:05.973543,12.961,can0  204  [16]  E1 22 CF 44 D2 29 8E 57 28 23 30 75 30 75 00 00
2026-03-15T15:45:05.974229,12.962,can0  040  [04]  61 00 1A 00
2026-03-15T15:45:06.043276,13.031,can0  060  [32]  00 00 00 00 00 00 00 00 00 00 00 00 00 00 00 00 00 00 00 00 00 00 00 00 00 00 00 00 00 00 00 00
2026-03-15T15:45:06.053009,13.041,can0  204  [16]  E1 22 CF 44 D2 29 8E 57 28 23 30 75 30 75 00 00
2026-03-15T15:45:06.053117,13.041,can0  204  [16]  E1 22 D0 44 D4 29 8E 57 28 23 30 75 30 75 00 00
2026-03-15T15:45:06.155781,13.143,can0  206  [24]  83 0C 5C 05 7B 0C F4 EF 78 05 A7 0C 77 0C 00 00 00 00 00 00 00 00 00 00
2026-03-15T15:45:06.155870,13.143,can0  070  [20]  EA 2A 4D 08 FC B0 62 03 88 13 00 00 2D 16 00 00 2E 00 00 00
2026-03-15T15:45:06.156119,13.144,can0  204  [16]  E1 22 D0 44 D4 29 8E 57 28 23 30 75 30 75 00 00
2026-03-15T15:45:06.165333,13.153,can0  041  [04]  41 01 12 00
2026-03-15T15:45:06.165414,13.153,can0  040  [04]  58 00 18 00
2026-03-15T15:45:06.232812,13.220,can0  204  [16]  E1 22 D1 44 D2 29 8F 57 28 23 30 75 30 75 00 00
2026-03-15T15:45:06.234172,13.222,can0  040  [04]  58 00 18 00
2026-03-15T15:45:06.242348,13.230,can0  070  [20]  EA 2A 4D 08 FC B0 62 03 88 13 00 00 2D 16 00 00 2E 00 00 00
2026-03-15T15:45:06.242466,13.230,can0  204  [16]  E1 22 D2 44 D2 29 8F 57 28 23 30 75 30 75 00 00
2026-03-15T15:45:06.347567,13.335,can0  204  [16]  E1 22 D2 44 D2 29 8F 57 28 23 30 75 30 75 00 00
2026-03-15T15:45:06.357766,13.345,can0  204  [16]  E1 22 D2 44 D4 29 8F 57 28 23 30 75 30 75 00 00
2026-03-15T15:45:06.357893,13.345,can0  206  [24]  83 0C 59 05 7B 0C F4 EF 76 05 8F 0C 73 0C 00 00 00 00 00 00 00 00 00 00
2026-03-15T15:45:06.453597,13.441,can0  100  [03]  99 4C 04
2026-03-15T15:45:06.454170,13.442,can0  110  [02]  B0 1B
2026-03-15T15:45:06.454740,13.442,can0  120  [04]  00 00 00 00
2026-03-15T15:45:06.454993,13.443,can0  041  [04]  3F 01 13 00
2026-03-15T15:45:06.455290,13.443,can0  204  [16]  E1 22 D2 44 D4 29 8F 57 28 23 30 75 30 75 00 00
2026-03-15T15:45:06.461940,13.450,can0  040  [04]  55 00 17 00
2026-03-15T15:45:06.557442,13.545,can0  060  [32]  00 00 00 00 EA 2A 4D 08 50 06 B8 10 00 00 10 0E FF 01 00 00 00 00 00 00 01 00 00 00 00 00 00 00
2026-03-15T15:45:06.558413,13.546,can0  040  [04]  55 00 17 00
2026-03-15T15:45:06.558710,13.546,can0  204  [16]  E1 22 D2 44 D4 29 90 57 28 23 30 75 30 75 00 00
2026-03-15T15:45:06.559829,13.547,can0  070  [20]  EA 2A 4D 08 FA B0 62 03 70 17 00 00 2D 16 00 00 29 00 00 00
2026-03-15T15:45:06.559921,13.548,can0  204  [16]  E1 22 D3 44 CB 29 91 57 28 23 30 75 30 75 00 00
2026-03-15T15:45:06.567224,13.555,can0  070  [20]  EA 2A 4D 08 FA B0 62 03 70 17 00 00 2D 16 00 00 28 00 00 00
2026-03-15T15:45:06.658688,13.646,can0  204  [16]  E1 22 D3 44 CB 29 91 57 28 23 30 75 30 75 00 00
2026-03-15T15:45:06.658943,13.647,can0  070  [20]  EA 2A 4D 08 FA B0 62 03 70 17 00 00 2D 16 00 00 28 00 00 00
2026-03-15T15:45:06.659206,13.647,can0  206  [24]  77 0C 5C 05 7F 0C 12 F0 7A 05 93 0C 7B 0C 00 00 00 00 00 00 00 00 00 00
2026-03-15T15:45:06.659447,13.647,can0  041  [04]  3A 01 15 00
2026-03-15T15:45:06.667262,13.655,can0  204  [16]  E1 22 D3 44 CF 29 92 57 28 23 30 75 30 75 00 00
2026-03-15T15:45:06.721093,13.709,can0  040  [04]  4A 00 14 00
2026-03-15T15:45:06.721234,13.709,can0  204  [16]  E1 22 D3 44 CF 29 92 57 28 23 30 75 30 75 00 00
2026-03-15T15:45:06.727668,13.715,can0  040  [04]  4A 00 14 00
2026-03-15T15:45:06.868512,13.856,can0  204  [16]  E1 22 D1 44 D2 29 92 57 28 23 30 75 30 75 00 00
2026-03-15T15:45:06.868631,13.856,can0  204  [16]  E1 22 D2 44 D6 29 92 57 28 23 30 75 30 75 00 00
2026-03-15T15:45:06.957986,13.946,can0  206  [24]  7B 0C 57 05 77 0C 03 F0 78 05 8B 0C 7F 0C 00 00 00 00 00 00 00 00 00 00
2026-03-15T15:45:06.958268,13.946,can0  204  [16]  E1 22 D2 44 D6 29 92 57 28 23 30 75 30 75 00 00
2026-03-15T15:45:06.958994,13.947,can0  041  [04]  2F 01 17 00
2026-03-15T15:45:06.959043,13.947,can0  040  [04]  46 00 13 00
2026-03-15T15:45:07.022894,14.010,can0  204  [16]  E1 22 D2 44 CF 29 93 57 28 23 30 75 30 75 00 00
2026-03-15T15:45:07.023211,14.011,can0  060  [32]  00 00 00 00 00 00 00 00 00 00 00 00 00 00 00 00 00 00 00 00 00 00 00 00 00 00 00 00 00 00 00 00
2026-03-15T15:45:07.034011,14.022,can0  040  [04]  46 00 13 00
2026-03-15T15:45:07.034137,14.022,can0  204  [16]  E1 22 D2 44 CF 29 93 57 28 23 30 75 30 75 00 00
2026-03-15T15:45:07.165243,14.153,can0  204  [16]  E1 22 D2 44 C8 29 93 57 28 23 30 75 30 75 00 00
2026-03-15T15:45:07.165565,14.153,can0  070  [20]  EA 2A 4D 08 FA B0 62 03 70 17 00 00 2D 16 00 00 28 00 00 00
2026-03-15T15:45:07.175514,14.163,can0  204  [16]  E1 22 D1 44 CD 29 93 57 28 23 30 75 30 75 00 00
2026-03-15T15:45:07.175678,14.163,can0  206  [24]  7F 0C 5C 05 83 0C 12 F0 76 05 83 0C 77 0C 00 00 00 00 00 00 00 00 00 00
2026-03-15T15:45:07.234050,14.222,can0  041  [04]  30 01 18 00
2026-03-15T15:45:07.239252,14.227,can0  204  [16]  E1 22 D1 44 CD 29 93 57 28 23 30 75 30 75 00 00
2026-03-15T15:45:07.239354,14.227,can0  040  [04]  43 00 14 00
2026-03-15T15:45:07.239422,14.227,can0  070  [20]  EA 2A 4D 08 FA B0 62 03 70 17 00 00 2D 16 00 00 28 00 00 00
2026-03-15T15:45:07.239495,14.227,can0  204  [16]  E1 22 D1 44 CF 29 94 57 28 23 30 75 30 75 00 00
2026-03-15T15:45:07.320641,14.308,can0  040  [04]  43 00 14 00
2026-03-15T15:45:07.321061,14.309,can0  204  [16]  E1 22 D1 44 CF 29 94 57 28 23 30 75 30 75 00 00
2026-03-15T15:45:07.457632,14.445,can0  204  [16]  E1 22 D1 44 D2 29 94 57 28 23 30 75 30 75 00 00
2026-03-15T15:45:07.457971,14.446,can0  206  [24]  7B 0C 5C 05 77 0C 03 F0 7C 05 93 0C 7F 0C 00 00 00 00 00 00 00 00 00 00
2026-03-15T15:45:07.464991,14.453,can0  204  [16]  E1 22 D1 44 D2 29 94 57 28 23 30 75 30 75 00 00
2026-03-15T15:45:07.465070,14.453,can0  041  [04]  28 01 1A 00
2026-03-15T15:45:07.564727,14.552,can0  070  [20]  EC 2A 4D 08 F8 B0 62 03 58 1B 00 00 2D 16 00 00 13 00 00 00
2026-03-15T15:45:07.566287,14.554,can0  060  [32]  00 00 00 00 00 00 00 00 00 00 00 00 00 00 00 00 00 00 00 00 00 00 00 00 00 00 00 00 00 00 00 00
2026-03-15T15:45:07.566376,14.554,can0  040  [04]  42 00 13 00
2026-03-15T15:45:07.566439,14.554,can0  060  [32]  00 00 00 00 EC 2A 4D 08 4D 06 B8 10 00 00 10 0E FF 01 00 00 00 00 00 00 01 00 00 00 00 00 00 00
2026-03-15T15:45:07.567055,14.555,can0  204  [16]  E1 22 D3 44 D2 29 95 57 28 23 30 75 30 75 00 00
2026-03-15T15:45:07.567350,14.555,can0  070  [20]  EC 2A 4D 08 F8 B0 62 03 58 1B 00 00 2D 16 00 00 13 00 00 00
2026-03-15T15:45:07.568071,14.556,can0  040  [04]  42 00 13 00
2026-03-15T15:45:07.632385,14.620,can0  100  [03]  94 4C 04
2026-03-15T15:45:07.633220,14.621,can0  120  [04]  00 00 00 00
2026-03-15T15:45:07.633633,14.621,can0  204  [16]  E1 22 D3 44 D2 29 95 57 28 23 30 75 30 75 00 00
2026-03-15T15:45:07.634212,14.622,can0  070  [20]  EC 2A 4D 08 F8 B0 62 03 58 1B 00 00 2D 16 00 00 13 00 00 00
2026-03-15T15:45:07.634287,14.622,can0  204  [16]  E1 22 D2 44 CD 29 96 57 28 23 30 75 30 75 00 00
2026-03-15T15:45:07.760392,14.748,can0  204  [16]  E1 22 D2 44 CD 29 96 57 28 23 30 75 30 75 00 00
2026-03-15T15:45:07.760846,14.748,can0  206  [24]  77 0C 5C 05 77 0C 20 F0 7C 05 8B 0C 83 0C 00 00 00 00 00 00 00 00 00 00
2026-03-15T15:45:07.761114,14.749,can0  132  [00]
2026-03-15T15:45:07.772412,14.760,can0  041  [04]  24 01 19 00
2026-03-15T15:45:07.833787,14.821,can0  040  [04]  43 00 15 00
2026-03-15T15:45:07.835027,14.823,can0  204  [16]  E1 22 D1 44 D2 29 96 57 28 23 30 75 30 75 00 00
2026-03-15T15:45:07.835123,14.823,can0  040  [04]  43 00 15 00
2026-03-15T15:45:07.837134,14.825,can0  204  [16]  E1 22 D1 44 D2 29 96 57 28 23 30 75 30 75 00 00
2026-03-15T15:45:07.972260,14.960,can0  204  [16]  E1 22 D2 44 D2 29 97 57 28 23 30 75 30 75 00 00
2026-03-15T15:45:07.972370,14.960,can0  206  [24]  87 0C 59 05 77 0C E4 EF 7A 05 8F 0C 77 0C 00 00 00 00 00 00 00 00 00 00
2026-03-15T15:45:07.972438,14.960,can0  204  [16]  E1 22 D2 44 D2 29 97 57 28 23 30 75 30 75 00 00
2026-03-15T15:45:08.047131,15.035,can0  110  [02]  AF 1B
2026-03-15T15:45:08.047971,15.036,can0  041  [04]  23 01 19 00
2026-03-15T15:45:08.048059,15.036,can0  204  [16]  E1 22 D2 44 D2 29 97 57 28 23 30 75 30 75 00 00
2026-03-15T15:45:08.048206,15.036,can0  060  [32]  00 00 00 00 00 00 00 00 00 00 00 00 00 00 00 00 00 00 00 00 00 00 00 00 00 00 00 00 00 00 00 00
2026-03-15T15:45:08.049008,15.037,can0  040  [04]  37 00 15 00
2026-03-15T15:45:08.058923,15.047,can0  204  [16]  E1 22 D2 44 CF 29 97 57 28 23 30 75 30 75 00 00
2026-03-15T15:45:08.059004,15.047,can0  040  [04]  37 00 15 00
2026-03-15T15:45:08.149589,15.137,can0  070  [20]  EC 2A 4D 08 F8 B0 62 03 58 1B 00 00 2D 16 00 00 13 00 00 00
2026-03-15T15:45:08.154434,15.142,can0  204  [16]  E1 22 D2 44 CF 29 97 57 28 23 30 75 30 75 00 00
2026-03-15T15:45:08.249075,15.237,can0  204  [16]  E1 22 D1 44 CB 29 98 57 28 23 30 75 30 75 00 00
2026-03-15T15:45:08.249474,15.237,can0  206  [24]  7B 0C 5C 05 77 0C 03 F0 78 05 93 0C 7F 0C 00 00 00 00 00 00 00 00 00 00
2026-03-15T15:45:08.249686,15.237,can0  070  [20]  EC 2A 4D 08 F8 B0 62 03 58 1B 00 00 2D 16 00 00 13 00 00 00
2026-03-15T15:45:08.250056,15.238,can0  204  [16]  E1 22 D1 44 CB 29 98 57 28 23 30 75 30 75 00 00
2026-03-15T15:45:08.250098,15.238,can0  041  [04]  1C 01 19 00
2026-03-15T15:45:08.354557,15.342,can0  040  [04]  37 00 15 00
2026-03-15T15:45:08.354951,15.343,can0  204  [16]  E1 22 D1 44 CB 29 98 57 28 23 30 75 30 75 00 00
2026-03-15T15:45:08.355934,15.344,can0  040  [04]  37 00 15 00
2026-03-15T15:45:08.356011,15.344,can0  204  [16]  E1 22 D1 44 CB 29 98 57 28 23 30 75 30 75 00 00
2026-03-15T15:45:08.474917,15.463,can0  204  [16]  E1 22 D1 44 CB 29 98 57 28 23 30 75 30 75 00 00
2026-03-15T15:45:08.540545,15.528,can0  206  [24]  77 0C 57 05 73 0C F4 EF 78 05 97 0C 7F 0C 00 00 00 00 00 00 00 00 00 00
2026-03-15T15:45:08.540780,15.528,can0  070  [20]  EC 2A 4D 08 F8 B0 62 03 40 1F 00 00 2D 16 00 00 1E 00 00 00
2026-03-15T15:45:08.541117,15.529,can0  204  [16]  E1 22 D2 44 CD 29 99 57 28 23 30 75 30 75 00 00
2026-03-15T15:45:08.541301,15.529,can0  060  [32]  00 00 00 00 EC 2A 4D 08 4D 06 B8 10 00 00 10 0E FF 01 00 00 00 00 00 00 01 00 00 00 00 00 00 00
2026-03-15T15:45:08.541804,15.529,can0  041  [04]  1C 01 19 00
2026-03-15T15:45:08.542029,15.530,can0  070  [20]  EC 2A 4D 08 F8 B0 62 03 40 1F 00 00 2D 16 00 00 1D 00 00 00
2026-03-15T15:45:08.542977,15.531,can0  040  [04]  3A 00 14 00
2026-03-15T15:45:08.543025,15.531,can0  204  [16]  E1 22 D2 44 CF 29 9A 57 28 23 30 75 30 75 00 00
2026-03-15T15:45:08.643766,15.631,can0  070  [20]  EC 2A 4D 08 F8 B0 62 03 40 1F 00 00 2D 16 00 00 1D 00 00 00
2026-03-15T15:45:08.653304,15.641,can0  040  [04]  3A 00 14 00
2026-03-15T15:45:08.653389,15.641,can0  204  [16]  E1 22 D2 44 CF 29 9A 57 28 23 30 75 30 75 00 00
2026-03-15T15:45:08.739864,15.727,can0  204  [16]  E1 22 D3 44 D6 29 9A 57 28 23 30 75 30 75 00 00
2026-03-15T15:45:08.740155,15.728,can0  204  [16]  E1 22 D3 44 D2 29 9A 57 28 23 30 75 30 75 00 00
2026-03-15T15:45:08.747230,15.735,can0  206  [24]  83 0C 59 05 7B 0C F4 EF 76 05 8F 0C 77 0C 00 00 00 00 00 00 00 00 00 00
2026-03-15T15:45:08.862925,15.851,can0  100  [03]  8C 4C 04
2026-03-15T15:45:08.866288,15.854,can0  120  [04]  00 00 00 00
2026-03-15T15:45:08.866408,15.854,can0  041  [04]  20 01 17 00
2026-03-15T15:45:08.866609,15.854,can0  204  [16]  E1 22 D3 44 D2 29 9A 57 28 23 30 75 30 75 00 00
2026-03-15T15:45:08.866716,15.854,can0  040  [04]  46 00 13 00
2026-03-15T15:45:08.876964,15.865,can0  204  [16]  E1 22 D2 44 D2 29 9B 57 28 23 30 75 30 75 00 00
2026-03-15T15:45:08.941668,15.929,can0  040  [04]  46 00 13 00
2026-03-15T15:45:08.941973,15.930,can0  204  [16]  E1 22 D2 44 D2 29 9B 57 28 23 30 75 30 75 00 00
2026-03-15T15:45:09.057603,16.045,can0  204  [16]  E1 22 D2 44 CD 29 9C 57 28 23 30 75 30 75 00 00
2026-03-15T15:45:09.068293,16.056,can0  060  [32]  00 00 00 00 00 00 00 00 00 00 00 00 00 00 00 00 00 00 00 00 00 00 00 00 00 00 00 00 00 00 00 00
2026-03-15T15:45:09.068424,16.056,can0  206  [24]  7F 0C 74 05 63 0C 12 F0 7C 05 A7 0C 77 0C 00 00 00 00 00 00 00 00 00 00
2026-03-15T15:45:09.068503,16.056,can0  204  [16]  E1 22 D3 44 D2 29 9C 57 28 23 30 75 30 75 00 00
2026-03-15T15:45:09.068572,16.056,can0  041  [04]  1F 01 13 00
2026-03-15T15:45:09.126532,16.114,can0  070  [20]  EC 2A 4D 08 F8 B0 62 03 40 1F 00 00 2D 16 00 00 1D 00 00 00
2026-03-15T15:45:09.127391,16.115,can0  040  [04]  4C 00 17 00
2026-03-15T15:45:09.138174,16.126,can0  204  [16]  E1 22 D3 44 D2 29 9C 57 28 23 30 75 30 75 00 00
2026-03-15T15:45:09.138287,16.126,can0  040  [04]  4C 00 17 00
2026-03-15T15:45:09.138374,16.126,can0  204  [16]  E1 22 D1 44 CF 29 9D 57 28 23 30 75 30 75 00 00
2026-03-15T15:45:09.224074,16.212,can0  204  [16]  E1 22 D1 44 CF 29 9D 57 28 23 30 75 30 75 00 00
2026-03-15T15:45:09.232000,16.220,can0  070  [20]  EC 2A 4D 08 F8 B0 62 03 40 1F 00 00 2D 16 00 00 1D 00 00 00
2026-03-15T15:45:09.375030,16.363,can0  204  [16]  E1 22 D2 44 CF 29 9D 57 28 23 30 75 30 75 00 00
2026-03-15T15:45:09.375770,16.363,can0  206  [24]  87 0C 59 05 77 0C F4 EF 7C 05 87 0C 77 0C 00 00 00 00 00 00 00 00 00 00
2026-03-15T15:45:09.375850,16.363,can0  041  [04]  17 01 16 00
2026-03-15T15:45:09.376082,16.364,can0  204  [16]  E1 22 D2 44 CD 29 9E 57 28 23 30 75 30 75 00 00
2026-03-15T15:45:09.386240,16.374,can0  040  [04]  4F 00 1B 00
2026-03-15T15:45:09.427368,16.415,can0  040  [04]  4F 00 1B 00
2026-03-15T15:45:09.427670,16.415,can0  204  [16]  E1 22 D2 44 CD 29 9E 57 28 23 30 75 30 75 00 00
2026-03-15T15:45:09.430839,16.418,can0  204  [16]  E1 22 D2 44 CD 29 9E 57 28 23 30 75 30 75 00 00
2026-03-15T15:45:09.552191,16.540,can0  070  [20]  EC 2A 4D 08 F8 B0 62 03 28 23 00 00 2D 16 00 00 1F 00 00 00
2026-03-15T15:45:09.552442,16.540,can0  060  [32]  00 00 00 00 00 00 00 00 00 00 00 00 00 00 00 00 00 00 00 00 00 00 00 00 00 00 00 00 00 00 00 00
2026-03-15T15:45:09.552596,16.540,can0  060  [32]  00 00 00 00 EC 2A 4D 08 4D 06 B8 10 00 00 10 0E FF 01 00 00 00 00 00 00 01 00 00 00 00 00 00 00
2026-03-15T15:45:09.553146,16.541,can0  204  [16]  E1 22 D1 44 D4 29 9E 57 28 23 30 75 30 75 00 00
2026-03-15T15:45:09.554130,16.542,can0  070  [20]  EC 2A 4D 08 F8 B0 62 03 28 23 00 00 2D 16 00 00 1F 00 00 00
2026-03-15T15:45:09.560721,16.548,can0  206  [24]  83 0C 5E 05 77 0C E4 EF 7A 05 8F 0C 77 0C 00 00 00 00 00 00 00 00 00 00
2026-03-15T15:45:09.657246,16.645,can0  110  [02]  B0 1B
2026-03-15T15:45:09.657527,16.645,can0  041  [04]  23 01 15 00
2026-03-15T15:45:09.657777,16.645,can0  204  [16]  E1 22 D1 44 D4 29 9E 57 28 23 30 75 30 75 00 00
2026-03-15T15:45:09.657969,16.646,can0  070  [20]  EC 2A 4D 08 F8 B0 62 03 28 23 00 00 2D 16 00 00 1F 00 00 00
2026-03-15T15:45:09.661114,16.649,can0  040  [04]  50 00 1C 00
2026-03-15T15:45:09.661185,16.649,can0  204  [16]  E1 22 D0 44 D6 29 9E 57 28 23 30 75 30 75 00 00
2026-03-15T15:45:09.746004,16.734,can0  040  [04]  50 00 1C 00
2026-03-15T15:45:09.746300,16.734,can0  204  [16]  E1 22 D0 44 D6 29 9E 57 28 23 30 75 30 75 00 00
2026-03-15T15:45:09.833748,16.821,can0  204  [16]  E1 22 D0 44 D2 29 9E 57 28 23 30 75 30 75 00 00
2026-03-15T15:45:09.834925,16.823,can0  206  [24]  83 0C 57 05 77 0C 12 F0 78 05 BF 0C 77 0C 00 00 00 00 00 00 00 00 00 00
2026-03-15T15:45:09.835014,16.823,can0  204  [16]  E1 22 D1 44 D4 29 9F 57 28 23 30 75 30 75 00 00
2026-03-15T15:45:09.841454,16.829,can0  041  [04]  25 01 17 00
2026-03-15T15:45:09.932594,16.920,can0  040  [04]  53 00 1E 00
2026-03-15T15:45:09.934157,16.922,can0  204  [16]  E1 22 D1 44 D4 29 9F 57 28 23 30 75 30 75 00 00
2026-03-15T15:45:09.934708,16.922,can0  040  [04]  53 00 1E 00
2026-03-15T15:45:09.935101,16.923,can0  204  [16]  E1 22 D2 44 CF 29 A0 57 28 23 30 75 30 75 00 00
2026-03-15T15:45:10.051657,17.039,can0  100  [03]  89 4C 04
2026-03-15T15:45:10.059075,17.047,can0  120  [04]  00 00 00 00
2026-03-15T15:45:10.059475,17.047,can0  204  [16]  E1 22 D2 44 CF 29 A0 57 28 23 30 75 30 75 00 00
2026-03-15T15:45:10.059796,17.047,can0  060  [32]  00 00 00 00 00 00 00 00 00 00 00 00 00 00 00 00 00 00 00 00 00 00 00 00 00 00 00 00 00 00 00 00
2026-03-15T15:45:10.163244,17.151,can0  206  [24]  83 0C 5C 05 73 0C 12 F0 78 05 9B 0C 73 0C 00 00 00 00 00 00 00 00 00 00
2026-03-15T15:45:10.164872,17.152,can0  204  [16]  E1 22 D2 44 D4 29 A0 57 28 23 30 75 30 75 00 00
2026-03-15T15:45:10.164971,17.153,can0  041  [04]  24 01 18 00
2026-03-15T15:45:10.165050,17.153,can0  070  [20]  EC 2A 4D 08 F8 B0 62 03 28 23 00 00 2D 16 00 00 1F 00 00 00
2026-03-15T15:45:10.165110,17.153,can0  204  [16]  E1 22 D2 44 D2 29 A1 57 28 23 30 75 30 75 00 00
2026-03-15T15:45:10.175716,17.163,can0  040  [04]  56 00 1D 00
2026-03-15T15:45:10.230973,17.219,can0  204  [16]  E1 22 D2 44 D2 29 A1 57 28 23 30 75 30 75 00 00
2026-03-15T15:45:10.231077,17.219,can0  040  [04]  56 00 1D 00
2026-03-15T15:45:10.231250,17.219,can0  070  [20]  EC 2A 4D 08 F8 B0 62 03 28 23 00 00 2D 16 00 00 1F 00 00 00
2026-03-15T15:45:10.231870,17.219,can0  204  [16]  E1 22 D3 44 D2 29 A1 57 28 23 30 75 30 75 00 00
2026-03-15T15:45:10.232221,17.220,can0  060  [32]  C8 95 D6 02 D8 28 4D 08 61 36 B8 10 00 00 10 0E FF 01 00 00 00 00 00 00 01 00 00 00 00 00 00 00
2026-03-15T15:45:10.358018,17.346,can0  204  [16]  E1 22 D3 44 D2 29 A1 57 28 23 30 75 30 75 00 00
2026-03-15T15:45:10.365203,17.353,can0  206  [24]  7F 0C 5C 05 7B 0C 3E F0 78 05 83 0C 7B 0C 00 00 00 00 00 00 00 00 00 00
2026-03-15T15:45:10.484092,17.472,can0  204  [16]  E1 22 D2 44 D2 29 A1 57 28 23 30 75 30 75 00 00
2026-03-15T15:45:10.484418,17.472,can0  041  [04]  1A 01 1A 00
2026-03-15T15:45:10.485368,17.473,can0  040  [04]  58 00 1B 00
2026-03-15T15:45:10.495506,17.483,can0  204  [16]  E1 22 D2 44 D2 29 A1 57 28 23 30 75 30 75 00 00
2026-03-15T15:45:10.495610,17.483,can0  040  [04]  58 00 1B 00
2026-03-15T15:45:10.537329,17.525,can0  070  [20]  EC 2A 4D 08 F7 B0 62 03 10 27 00 00 2D 16 00 00 1C 00 00 00
2026-03-15T15:45:10.537547,17.525,can0  070  [20]  EC 2A 4D 08 F7 B0 62 03 10 27 00 00 2D 16 00 00 1B 00 00 00
2026-03-15T15:45:10.537825,17.525,can0  204  [16]  E1 22 D3 44 D4 29 A1 57 28 23 30 75 30 75 00 00
2026-03-15T15:45:10.538055,17.526,can0  204  [16]  E1 22 D3 44 D2 29 A2 57 28 23 30 75 30 75 00 00
2026-03-15T15:45:10.647298,17.635,can0  070  [20]  EC 2A 4D 08 F7 B0 62 03 10 27 00 00 2D 16 00 00 1B 00 00 00
2026-03-15T15:45:10.647886,17.635,can0  206  [24]  77 0C 5C 05 7F 0C 20 F0 7A 05 87 0C 83 0C 00 00 00 00 00 00 00 00 00 00
2026-03-15T15:45:10.648298,17.636,can0  204  [16]  E1 22 D4 44 CD 29 A2 57 28 23 30 75 30 75 00 00
2026-03-15T15:45:10.655940,17.644,can0  041  [04]  10 01 1B 00
2026-03-15T15:45:10.778570,17.766,can0  040  [04]  61 00 1A 00
2026-03-15T15:45:10.779086,17.767,can0  204  [16]  E1 22 D4 44 CD 29 A2 57 28 23 30 75 30 75 00 00
2026-03-15T15:45:10.779987,17.768,can0  040  [04]  61 00 1A 00
2026-03-15T15:45:10.780065,17.768,can0  204  [16]  E1 22 D3 44 C8 29 A3 57 28 23 30 75 30 75 00 00
2026-03-15T15:45:10.846022,17.834,can0  204  [16]  E1 22 D3 44 C8 29 A3 57 28 23 30 75 30 75 00 00
2026-03-15T15:45:10.846340,17.834,can0  204  [16]  E1 22 D1 44 CB 29 A3 57 28 23 30 75 30 75 00 00
2026-03-15T15:45:10.972777,17.960,can0  206  [24]  87 0C 5E 05 77 0C 12 F0 7C 05 87 0C 77 0C 00 00 00 00 00 00 00 00 00 00
2026-03-15T15:45:10.974023,17.962,can0  041  [04]  0E 01 1D 00
2026-03-15T15:45:10.974100,17.962,can0  204  [16]  E1 22 D2 44 CB 29 A4 57 28 23 30 75 30 75 00 00
2026-03-15T15:45:10.974158,17.962,can0  040  [04]  6C 00 19 00
2026-03-15T15:45:11.028941,18.017,can0  204  [16]  E1 22 D2 44 CB 29 A4 57 28 23 30 75 30 75 00 00
2026-03-15T15:45:11.029523,18.017,can0  040  [04]  6C 00 19 00
2026-03-15T15:45:11.037876,18.025,can0  204  [16]  E1 22 D3 44 CD 29 A4 57 28 23 30 75 30 75 00 00
2026-03-15T15:45:11.185066,18.173,can0  070  [20]  EC 2A 4D 08 F7 B0 62 03 10 27 00 00 2D 16 00 00 1B 00 00 00
2026-03-15T15:45:11.185465,18.173,can0  204  [16]  E1 22 D3 44 CD 29 A4 57 28 23 30 75 30 75 00 00
2026-03-15T15:45:11.186983,18.175,can0  206  [24]  7B 0C 55 05 73 0C 2F F0 7C 05 8F 0C 83 0C 00 00 00 00 00 00 00 00 00 00
2026-03-15T15:45:11.187092,18.175,can0  204  [16]  E1 22 D4 44 CF 29 A4 57 28 23 30 75 30 75 00 00
2026-03-15T15:45:11.252231,18.240,can0  100  [03]  86 4C 04
2026-03-15T15:45:11.253099,18.241,can0  110  [02]  B0 1B
2026-03-15T15:45:11.253911,18.242,can0  120  [04]  00 00 00 00
2026-03-15T15:45:11.254181,18.242,can0  041  [04]  02 01 17 00
2026-03-15T15:45:11.254666,18.242,can0  060  [32]  00 00 00 00 EC 2A 4D 08 4B 06 B8 10 00 00 10 0E FF 01 00 00 00 00 00 00 02 00 00 00 00 00 00 00
2026-03-15T15:45:11.254741,18.242,can0  060  [32]  18 14 8A 02 E6 7D 4D 08 96 9E 62 03 00 00 CF 0D 73 00 80 00 00 00 00 01 02 00 00 00 00 00 00 00
2026-03-15T15:45:11.256057,18.244,can0  040  [04]  81 00 13 00
2026-03-15T15:45:11.256142,18.244,can0  204  [16]  E1 22 D4 44 CD 29 A5 57 28 23 30 75 30 75 00 00
2026-03-15T15:45:11.256554,18.244,can0  133  [00]
2026-03-15T15:45:11.256622,18.244,can0  070  [20]  EC 2A 4D 08 F7 B0 62 03 10 27 00 00 2D 16 00 00 1B 00 00 00
2026-03-15T15:45:11.257001,18.245,can0  040  [04]  81 00 13 00
2026-03-15T15:45:11.381462,18.369,can0  204  [16]  E1 22 D4 44 CD 29 A5 57 28 23 30 75 30 75 00 00
2026-03-15T15:45:11.389914,18.378,can0  204  [16]  E1 22 D4 44 CB 29 A6 57 28 23 30 75 30 75 00 00
2026-03-15T15:45:11.437278,18.425,can0  206  [24]  83 0C 59 05 73 0C 12 F0 78 05 8F 0C 77 0C 00 00 00 00 00 00 00 00 00 00
2026-03-15T15:45:11.446296,18.434,can0  204  [16]  E1 22 D4 44 CB 29 A6 57 28 23 30 75 30 75 00 00
2026-03-15T15:45:11.446366,18.434,can0  041  [04]  0C 01 1C 00
2026-03-15T15:45:11.540706,18.528,can0  204  [16]  E1 22 D4 44 CD 29 A6 57 28 23 30 75 30 75 00 00
2026-03-15T15:45:11.541232,18.529,can0  040  [04]  8F 00 14 00
2026-03-15T15:45:11.541880,18.529,can0  070  [20]  EC 2A 4D 08 F7 B0 62 03 F8 2A 00 00 2D 16 00 00 23 00 00 00
2026-03-15T15:45:11.541922,18.530,can0  040  [04]  8F 00 14 00
2026-03-15T15:45:11.542122,18.530,can0  204  [16]  E1 22 D4 44 CF 29 A6 57 28 23 30 75 30 75 00 00
2026-03-15T15:45:11.545391,18.533,can0  070  [20]  EC 2A 4D 08 F7 B0 62 03 F8 2A 00 00 2D 16 00 00 23 00 00 00
2026-03-15T15:45:11.686452,18.674,can0  204  [16]  E1 22 D4 44 CF 29 A6 57 28 23 30 75 30 75 00 00
2026-03-15T15:45:11.687075,18.675,can0  070  [20]  EC 2A 4D 08 F7 B0 62 03 F8 2A 00 00 2D 16 00 00 23 00 00 00
2026-03-15T15:45:11.687151,18.675,can0  204  [16]  E1 22 D5 44 CF 29 A7 57 28 23 30 75 30 75 00 00
2026-03-15T15:45:11.735885,18.723,can0  206  [24]  77 0C 57 05 77 0C 20 F0 7A 05 87 0C 83 0C 00 00 00 00 00 00 00 00 00 00
2026-03-15T15:45:11.736081,18.724,can0  041  [04]  0E 01 1D 00
2026-03-15T15:45:11.736376,18.724,can0  204  [16]  E1 22 D5 44 CF 29 A7 57 28 23 30 75 30 75 00 00
2026-03-15T15:45:11.743779,18.731,can0  040  [04]  99 00 15 00
2026-03-15T15:45:11.849358,18.837,can0  204  [16]  E1 22 D5 44 CB 29 A7 57 28 23 30 75 30 75 00 00
2026-03-15T15:45:11.850201,18.838,can0  040  [04]  99 00 15 00
2026-03-15T15:45:11.857559,18.845,can0  204  [16]  E1 22 D5 44 C8 29 A8 57 28 23 30 75 30 75 00 00
2026-03-15T15:45:11.972772,18.960,can0  204  [16]  E1 22 D5 44 C8 29 A8 57 28 23 30 75 30 75 00 00
2026-03-15T15:45:11.973273,18.961,can0  206  [24]  7F 0C 5C 05 73 0C F4 EF 7C 05 8F 0C 7F 0C 00 00 00 00 00 00 00 00 00 00
2026-03-15T15:45:11.983323,18.971,can0  204  [16]  E1 22 D5 44 C6 29 A8 57 28 23 30 75 30 75 00 00
2026-03-15T15:45:12.039028,19.027,can0  041  [04]  0E 01 1B 00
2026-03-15T15:45:12.040057,19.028,can0  040  [04]  99 00 14 00
2026-03-15T15:45:12.040138,19.028,can0  204  [16]  E1 22 D5 44 C6 29 A8 57 28 23 30 75 30 75 00 00
2026-03-15T15:45:12.166669,19.154,can0  040  [04]  99 00 14 00
2026-03-15T15:45:12.167336,19.155,can0  204  [16]  E1 22 D5 44 CB 29 A8 57 28 23 30 75 30 75 00 00
2026-03-15T15:45:12.168223,19.156,can0  070  [20]  EC 2A 4D 08 F7 B0 62 03 F8 2A 00 00 2D 16 00 00 23 00 00 00
2026-03-15T15:45:12.168302,19.156,can0  204  [16]  E1 22 D5 44 CB 29 A9 57 28 23 30 75 30 75 00 00
2026-03-15T15:45:12.232702,19.220,can0  206  [24]  77 0C 59 05 77 0C 03 F0 78 05 8F 0C 83 0C 00 00 00 00 00 00 00 00 00 00
2026-03-15T15:45:12.233359,19.221,can0  204  [16]  E1 22 D5 44 CB 29 A9 57 28 23 30 75 30 75 00 00
2026-03-15T15:45:12.233439,19.221,can0  041  [04]  10 01 19 00
2026-03-15T15:45:12.233989,19.222,can0  070  [20]  EC 2A 4D 08 F7 B0 62 03 F8 2A 00 00 2D 16 00 00 23 00 00 00
2026-03-15T15:45:12.234064,19.222,can0  204  [16]  E1 22 D5 44 CD 29 A9 57 28 23 30 75 30 75 00 00
2026-03-15T15:45:12.235089,19.223,can0  040  [04]  97 00 15 00
2026-03-15T15:45:12.346148,19.334,can0  204  [16]  E1 22 D4 44 CD 29 AA 57 28 23 30 75 30 75 00 00
2026-03-15T15:45:12.349778,19.337,can0  040  [04]  97 00 15 00
2026-03-15T15:45:12.431967,19.420,can0  100  [03]  83 4C 04
2026-03-15T15:45:12.432789,19.420,can0  120  [04]  00 00 00 00
2026-03-15T15:45:12.443457,19.431,can0  204  [16]  E1 22 D4 44 CD 29 AA 57 28 23 30 75 30 75 00 00
2026-03-15T15:45:12.443569,19.431,can0  204  [16]  E1 22 D4 44 CD 29 AA 57 28 23 30 75 30 75 00 00
2026-03-15T15:45:12.443633,19.431,can0  206  [24]  7B 0C 5C 05 83 0C E4 EF 7E 05 77 0C 77 0C 00 00 00 00 00 00 00 00 00 00
2026-03-15T15:45:12.530468,19.518,can0  070  [20]  EA 2A 4D 08 F5 B0 62 03 E0 2E 00 00 2D 16 00 00 0D 00 00 00
2026-03-15T15:45:12.530723,19.518,can0  041  [04]  1D 01 16 00
2026-03-15T15:45:12.530938,19.519,can0  070  [20]  EA 2A 4D 08 F5 B0 62 03 E0 2E 00 00 2D 16 00 00 0D 00 00 00
2026-03-15T15:45:12.531159,19.519,can0  204  [16]  E1 22 D3 44 CF 29 AA 57 28 23 30 75 30 75 00 00
2026-03-15T15:45:12.531329,19.519,can0  060  [32]  00 00 00 00 EA 2A 4D 08 4A 06 B8 10 00 00 10 0E FF 01 00 00 00 00 00 00 01 00 00 00 00 00 00 00
2026-03-15T15:45:12.539113,19.527,can0  040  [04]  9D 00 18 00
2026-03-15T15:45:12.643153,19.631,can0  204  [16]  E1 22 D3 44 CD 29 AB 57 28 23 30 75 30 75 00 00
2026-03-15T15:45:12.645334,19.633,can0  070  [20]  EA 2A 4D 08 F5 B0 62 03 E0 2E 00 00 2D 16 00 00 0D 00 00 00
2026-03-15T15:45:12.645432,19.633,can0  040  [04]  9D 00 18 00
2026-03-15T15:45:12.645502,19.633,can0  204  [16]  E1 22 D5 44 CD 29 AC 57 28 23 30 75 30 75 00 00
2026-03-15T15:45:12.748190,19.736,can0  204  [16]  E1 22 D5 44 CD 29 AC 57 28 23 30 75 30 75 00 00
2026-03-15T15:45:12.753016,19.741,can0  206  [24]  83 0C 5C 05 73 0C E4 EF 7A 05 8F 0C 7B 0C 00 00 00 00 00 00 00 00 00 00
2026-03-15T15:45:12.753124,19.741,can0  204  [16]  E1 22 D4 44 CF 29 AC 57 28 23 30 75 30 75 00 00
2026-03-15T15:45:12.840087,19.828,can0  041  [04]  1D 01 17 00
2026-03-15T15:45:12.840702,19.828,can0  110  [02]  B0 1B
2026-03-15T15:45:12.841318,19.829,can0  040  [04]  97 00 15 00
2026-03-15T15:45:12.841602,19.829,can0  204  [16]  E1 22 D4 44 CF 29 AC 57 28 23 30 75 30 75 00 00
2026-03-15T15:45:12.841999,19.830,can0  040  [04]  97 00 15 00
2026-03-15T15:45:12.931173,19.919,can0  204  [16]  E1 22 D4 44 CF 29 AD 57 28 23 30 75 30 75 00 00
2026-03-15T15:45:12.935409,19.923,can0  204  [16]  E1 22 D2 44 D6 29 AD 57 28 23 30 75 30 75 00 00
2026-03-15T15:45:13.031545,20.019,can0  206  [24]  77 0C 5C 05 7B 0C 12 F0 74 05 8F 0C 83 0C 00 00 00 00 00 00 00 00 00 00
2026-03-15T15:45:13.031984,20.020,can0  204  [16]  E1 22 D2 44 D6 29 AD 57 28 23 30 75 30 75 00 00
2026-03-15T15:45:13.032293,20.020,can0  041  [04]  22 01 14 00
2026-03-15T15:45:13.032550,20.020,can0  060  [32]  00 00 00 00 00 00 00 00 00 00 00 00 00 00 00 00 00 00 00 00 00 00 00 00 00 00 00 00 00 00 00 00
2026-03-15T15:45:13.039835,20.027,can0  204  [16]  E1 22 D2 44 CF 29 AD 57 28 23 30 75 30 75 00 00
2026-03-15T15:45:13.130830,20.118,can0  040  [04]  8E 00 12 00
2026-03-15T15:45:13.131094,20.119,can0  070  [20]  EA 2A 4D 08 F5 B0 62 03 E0 2E 00 00 2D 16 00 00 0D 00 00 00
2026-03-15T15:45:13.138820,20.126,can0  204  [16]  E1 22 D2 44 CF 29 AD 57 28 23 30 75 30 75 00 00
2026-03-15T15:45:13.138929,20.127,can0  040  [04]  8E 00 12 00
2026-03-15T15:45:13.233619,20.221,can0  204  [16]  E1 22 D2 44 D2 29 AD 57 28 23 30 75 30 75 00 00
2026-03-15T15:45:13.233976,20.222,can0  204  [16]  E1 22 D3 44 CF 29 AD 57 28 23 30 75 30 75 00 00
2026-03-15T15:45:13.241144,20.229,can0  070  [20]  EA 2A 4D 08 F5 B0 62 03 E0 2E 00 00 2D 16 00 00 0D 00 00 00
2026-03-15T15:45:13.241221,20.229,can0  206  [24]  7B 0C 5C 05 97 0C F4 EF 7A 05 77 0C 77 0C 00 00 00 00 00 00 00 00 00 00
2026-03-15T15:45:13.330760,20.318,can0  204  [16]  E1 22 D3 44 CF 29 AD 57 28 23 30 75 30 75 00 00
2026-03-15T15:45:13.331022,20.319,can0  041  [04]  23 01 12 00
2026-03-15T15:45:13.340050,20.328,can0  040  [04]  8E 00 11 00
2026-03-15T15:45:13.340125,20.328,can0  204  [16]  E1 22 D4 44 D2 29 AE 57 28 23 30 75 30 75 00 00
2026-03-15T15:45:13.446913,20.435,can0  040  [04]  8E 00 11 00
2026-03-15T15:45:13.447317,20.435,can0  204  [16]  E1 22 D4 44 D2 29 AE 57 28 23 30 75 30 75 00 00
2026-03-15T15:45:13.458157,20.446,can0  070  [20]  EA 2A 4D 08 F5 B0 62 03 C8 32 00 00 2D 16 00 00 2E 00 00 00
2026-03-15T15:45:13.561647,20.549,can0  204  [16]  E1 22 D3 44 CD 29 AE 57 28 23 30 75 30 75 00 00
2026-03-15T15:45:13.562165,20.550,can0  206  [24]  77 0C 5E 05 73 0C 03 F0 7A 05 93 0C 87 0C 00 00 00 00 00 00 00 00 00 00
2026-03-15T15:45:13.562223,20.550,can0  070  [20]  EA 2A 4D 08 F5 B0 62 03 C8 32 00 00 2D 16 00 00 2E 00 00 00
2026-03-15T15:45:13.562883,20.550,can0  060  [32]  00 00 00 00 00 00 00 00 00 00 00 00 00 00 00 00 00 00 00 00 00 00 00 00 00 00 00 00 00 00 00 00
2026-03-15T15:45:13.562947,20.551,can0  204  [16]  E1 22 D2 44 CD 29 AE 57 28 23 30 75 30 75 00 00
2026-03-15T15:45:13.562997,20.551,can0  041  [04]  23 01 12 00
2026-03-15T15:45:13.563048,20.551,can0  060  [32]  00 00 00 00 EA 2A 4D 08 4A 06 B8 10 00 00 10 0E FF 01 00 00 00 00 00 00 01 00 00 00 00 00 00 00
2026-03-15T15:45:13.659579,20.647,can0  100  [03]  7B 4C 04
2026-03-15T15:45:13.660125,20.648,can0  120  [04]  00 00 00 00
2026-03-15T15:45:13.667873,20.655,can0  070  [20]  EA 2A 4D 08 F5 B0 62 03 C8 32 00 00 2D 16 00 00 2E 00 00 00
2026-03-15T15:45:13.667947,20.656,can0  040  [04]  90 00 13 00
2026-03-15T15:45:13.667996,20.656,can0  204  [16]  E1 22 D2 44 CD 29 AE 57 28 23 30 75 30 75 00 00
2026-03-15T15:45:13.668058,20.656,can0  040  [04]  90 00 13 00
2026-03-15T15:45:13.668109,20.656,can0  204  [16]  E1 22 D2 44 CF 29 AF 57 28 23 30 75 30 75 00 00
2026-03-15T15:45:13.775634,20.763,can0  204  [16]  E1 22 D3 44 D4 29 AF 57 28 23 30 75 30 75 00 00
2026-03-15T15:45:13.840207,20.828,can0  206  [24]  7F 0C 53 05 83 0C F4 EF 76 05 93 0C 73 0C 00 00 00 00 00 00 00 00 00 00
2026-03-15T15:45:13.840540,20.828,can0  204  [16]  E1 22 D3 44 D4 29 AF 57 28 23 30 75 30 75 00 00
2026-03-15T15:45:13.840758,20.828,can0  041  [04]  27 01 12 00
2026-03-15T15:45:13.840985,20.829,can0  204  [16]  E1 22 D1 44 D4 29 B0 57 28 23 30 75 30 75 00 00
2026-03-15T15:45:13.944092,20.932,can0  040  [04]  87 00 15 00
2026-03-15T15:45:13.944171,20.932,can0  204  [16]  E1 22 D1 44 D4 29 B0 57 28 23 30 75 30 75 00 00
2026-03-15T15:45:13.944210,20.932,can0  040  [04]  87 00 15 00
2026-03-15T15:45:13.944245,20.932,can0  204  [16]  E1 22 D2 44 D6 29 B0 57 28 23 30 75 30 75 00 00
2026-03-15T15:45:14.032107,21.020,can0  204  [16]  E1 22 D1 44 D8 29 B1 57 28 23 30 75 30 75 00 00
2026-03-15T15:45:14.032187,21.020,can0  206  [24]  7B 0C 5C 05 7B 0C F4 EF 7A 05 8B 0C 7B 0C 00 00 00 00 00 00 00 00 00 00
2026-03-15T15:45:14.038967,21.027,can0  060  [32]  00 00 00 00 00 00 00 00 00 00 00 00 00 00 00 00 00 00 00 00 00 00 00 00 00 00 00 00 00 00 00 00
2026-03-15T15:45:14.154907,21.143,can0  070  [20]  EA 2A 4D 08 F5 B0 62 03 C8 32 00 00 2D 16 00 00 2E 00 00 00
2026-03-15T15:45:14.155307,21.143,can0  204  [16]  E1 22 D1 44 D8 29 B1 57 28 23 30 75 30 75 00 00
2026-03-15T15:45:14.158324,21.146,can0  041  [04]  29 01 16 00
2026-03-15T15:45:14.158417,21.146,can0  040  [04]  7E 00 14 00
2026-03-15T15:45:14.158484,21.146,can0  204  [16]  E1 22 D1 44 D8 29 00 00 28 23 30 75 30 75 00 00
2026-03-15T15:45:14.281136,21.269,can0  040  [04]  7E 00 14 00
2026-03-15T15:45:14.281460,21.269,can0  204  [16]  E1 22 D1 44 D8 29 00 00 28 23 30 75 30 75 00 00
2026-03-15T15:45:14.281674,21.269,can0  070  [20]  EA 2A 4D 08 F5 B0 62 03 C8 32 00 00 2D 16 00 00 2E 00 00 00
2026-03-15T15:45:14.284996,21.273,can0  204  [16]  E1 22 D1 44 DB 29 53 54 28 23 30 75 30 75 00 00
2026-03-15T15:45:14.380824,21.368,can0  206  [24]  83 0C 5E 05 77 0C 03 F0 7A 05 8F 0C 7B 0C 00 00 00 00 00 00 00 00 00 00
2026-03-15T15:45:14.387995,21.376,can0  204  [16]  E1 22 D2 44 D6 29 5F 54 28 23 30 75 30 75 00 00
2026-03-15T15:45:14.388078,21.376,can0  041  [04]  26 01 16 00
2026-03-15T15:45:14.444741,21.432,can0  110  [02]  B0 1B
2026-03-15T15:45:14.445224,21.433,can0  204  [16]  E1 22 D2 44 D6 29 5F 54 28 23 30 75 30 75 00 00
2026-03-15T15:45:14.445977,21.434,can0  040  [04]  82 00 16 00
2026-03-15T15:45:14.446264,21.434,can0  204  [16]  E1 22 D2 44 D6 29 5F 54 28 23 30 75 30 75 00 00
2026-03-15T15:45:14.446762,21.434,can0  040  [04]  82 00 16 00
2026-03-15T15:45:14.578176,21.566,can0  070  [20]  EC 2A 4D 08 F3 B0 62 03 B0 36 00 00 2D 16 00 00 36 00 00 00
2026-03-15T15:45:14.578903,21.566,can0  070  [20]  EC 2A 4D 08 F3 B0 62 03 B0 36 00 00 2D 16 00 00 36 00 00 00
2026-03-15T15:45:14.578987,21.567,can0  204  [16]  E1 22 D1 44 D4 29 5B 54 28 23 30 75 30 75 00 00
2026-03-15T15:45:14.579075,21.567,can0  060  [32]  00 00 00 00 EC 2A 4D 08 48 06 B8 10 00 00 10 0E FF 01 00 00 00 00 00 00 01 00 00 00 00 00 00 00
2026-03-15T15:45:14.646129,21.634,can0  206  [24]  7B 0C 57 05 73 0C F4 EF 78 05 93 0C 83 0C 00 00 00 00 00 00 00 00 00 00
2026-03-15T15:45:14.646761,21.634,can0  204  [16]  E1 22 D1 44 D4 29 5B 54 28 23 30 75 30 75 00 00
2026-03-15T15:45:14.646838,21.634,can0  070  [20]  EC 2A 4D 08 F3 B0 62 03 B0 36 00 00 2D 16 00 00 36 00 00 00
2026-03-15T15:45:14.646996,21.635,can0  041  [04]  29 01 16 00
2026-03-15T15:45:14.647370,21.635,can0  204  [16]  E1 22 D2 44 D4 29 2C 53 28 23 30 75 30 75 00 00
2026-03-15T15:45:14.648030,21.636,can0  040  [04]  87 00 18 00
2026-03-15T15:45:14.770511,21.758,can0  204  [16]  E1 22 D2 44 D4 29 2C 53 28 23 30 75 30 75 00 00
2026-03-15T15:45:14.771190,21.759,can0  040  [04]  87 00 18 00
2026-03-15T15:45:14.774976,21.763,can0  204  [16]  E1 22 D2 44 D2 29 B2 54 28 23 30 75 30 75 00 00
2026-03-15T15:45:14.862636,21.850,can0  100  [03]  77 4C 04
2026-03-15T15:45:14.863424,21.851,can0  120  [04]  00 00 00 00
2026-03-15T15:45:14.863920,21.852,can0  204  [16]  E1 22 D3 44 CB 29 A8 51 28 23 30 75 30 75 00 00
2026-03-15T15:45:14.872445,21.860,can0  206  [24]  73 0C 59 05 7F 0C F4 EF 7A 05 8F 0C 7F 0C 00 00 00 00 00 00 00 00 00 00
2026-03-15T15:45:14.965426,21.953,can0  204  [16]  E1 22 D3 44 CB 29 A8 51 28 23 30 75 30 75 00 00
2026-03-15T15:45:14.965509,21.953,can0  041  [04]  24 01 18 00
2026-03-15T15:45:14.965973,21.954,can0  040  [04]  92 00 18 00
2026-03-15T15:45:14.974071,21.962,can0  204  [16]  E1 22 D3 44 C8 29 A3 54 28 23 30 75 30 75 00 00
2026-03-15T15:45:15.089122,22.077,can0  040  [04]  92 00 18 00
2026-03-15T15:45:15.096619,22.084,can0  204  [16]  E1 22 D3 44 C8 29 A3 54 28 23 30 75 30 75 00 00
2026-03-15T15:45:15.139761,22.127,can0  204  [16]  E1 22 D3 44 CD 29 2F 54 28 23 30 75 30 75 00 00
2026-03-15T15:45:15.139870,22.127,can0  060  [32]  00 00 00 00 00 00 00 00 00 00 00 00 00 00 00 00 00 00 00 00 00 00 00 00 00 00 00 00 00 00 00 00
2026-03-15T15:45:15.139947,22.128,can0  070  [20]  EC 2A 4D 08 F3 B0 62 03 B0 36 00 00 2D 16 00 00 36 00 00 00
2026-03-15T15:45:15.140120,22.128,can0  206  [24]  77 0C 57 05 7F 0C F4 EF 76 05 8F 0C 7F 0C 00 00 00 00 00 00 00 00 00 00
2026-03-15T15:45:15.140509,22.128,can0  204  [16]  E1 22 D5 44 D2 29 5C 53 28 23 30 75 30 75 00 00
2026-03-15T15:45:15.150607,22.138,can0  041  [04]  18 01 1D 00
2026-03-15T15:45:15.240474,22.228,can0  204  [16]  E1 22 D5 44 D2 29 5C 53 28 23 30 75 30 75 00 00
2026-03-15T15:45:15.241175,22.229,can0  040  [04]  99 00 18 00
2026-03-15T15:45:15.241997,22.230,can0  070  [20]  EC 2A 4D 08 F3 B0 62 03 B0 36 00 00 2D 16 00 00 36 00 00 00
2026-03-15T15:45:15.242085,22.230,can0  040  [04]  99 00 18 00
2026-03-15T15:45:15.252173,22.240,can0  204  [16]  E1 22 D6 44 D2 29 58 56 28 23 30 75 30 75 00 00
2026-03-15T15:45:15.360508,22.348,can0  204  [16]  E1 22 D6 44 D2 29 58 56 28 23 30 75 30 75 00 00
2026-03-15T15:45:15.361239,22.349,can0  206  [24]  83 0C 59 05 73 0C F4 EF 7C 05 93 0C 7B 0C 00 00 00 00 00 00 00 00 00 00
2026-03-15T15:45:15.361315,22.349,can0  204  [16]  E1 22 D4 44 CD 29 DA 55 28 23 30 75 30 75 00 00
2026-03-15T15:45:15.491053,22.479,can0  041  [04]  19 01 1D 00
2026-03-15T15:45:15.491455,22.479,can0  204  [16]  E1 22 D4 44 CD 29 DA 55 28 23 30 75 30 75 00 00
2026-03-15T15:45:15.497335,22.485,can0  070  [20]  EA 2A 4D 08 F3 B0 62 03 98 3A 00 00 2D 16 00 00 16 00 00 00
2026-03-15T15:45:15.497432,22.485,can0  040  [04]  A3 00 1B 00
2026-03-15T15:45:15.543051,22.531,can0  204  [16]  E1 22 D4 44 CF 29 7A 58 28 23 30 75 30 75 00 00
2026-03-15T15:45:15.543279,22.531,can0  070  [20]  EA 2A 4D 08 F3 B0 62 03 98 3A 00 00 2D 16 00 00 17 00 00 00
2026-03-15T15:45:15.544128,22.532,can0  040  [04]  A3 00 1B 00
2026-03-15T15:45:15.544185,22.532,can0  204  [16]  E1 22 D3 44 CD 29 2D 57 28 23 30 75 30 75 00 00
2026-03-15T15:45:15.658112,22.646,can0  060  [32]  00 00 00 00 00 00 00 00 00 00 00 00 00 00 00 00 00 00 00 00 00 00 00 00 00 00 00 00 00 00 00 00
2026-03-15T15:45:15.658321,22.646,can0  060  [32]  00 00 00 00 EA 2A 4D 08 48 06 B8 10 00 00 10 0E FF 01 00 00 00 00 00 00 01 00 00 00 00 00 00 00
2026-03-15T15:45:15.659126,22.647,can0  070  [20]  EA 2A 4D 08 F3 B0 62 03 98 3A 00 00 2D 16 00 00 17 00 00 00
2026-03-15T15:45:15.662328,22.650,can0  204  [16]  E1 22 D3 44 CB 29 B8 58 28 23 30 75 30 75 00 00
2026-03-15T15:45:15.662426,22.650,can0  206  [24]  7B 0C 59 05 77 0C F4 EF 7A 05 8F 0C 7F 0C 00 00 00 00 00 00 00 00 00 00
2026-03-15T15:45:15.789441,22.777,can0  204  [16]  E1 22 D3 44 CB 29 B8 58 28 23 30 75 30 75 00 00
2026-03-15T15:45:15.800370,22.788,can0  041  [04]  24 01 15 00
2026-03-15T15:45:15.800486,22.788,can0  040  [04]  AD 00 24 00
2026-03-15T15:45:15.800557,22.788,can0  204  [16]  E1 22 D2 44 CD 29 B2 57 28 23 30 75 30 75 00 00
2026-03-15T15:45:15.858141,22.846,can0  040  [04]  AD 00 24 00
2026-03-15T15:45:15.868339,22.856,can0  204  [16]  E1 22 D2 44 CD 29 B2 57 28 23 30 75 30 75 00 00
2026-03-15T15:45:15.868444,22.856,can0  204  [16]  E1 22 D2 44 CD 29 F6 56 28 23 30 75 30 75 00 00
2026-03-15T15:45:15.989122,22.977,can0  206  [24]  7B 0C 59 05 6B 0C E4 EF 78 05 97 0C 83 0C 00 00 00 00 00 00 00 00 00 00
2026-03-15T15:45:15.989733,22.977,can0  204  [16]  E1 22 D1 44 D2 29 9B 56 28 23 30 75 30 75 00 00
2026-03-15T15:45:15.989800,22.977,can0  041  [04]  30 01 11 00
2026-03-15T15:45:15.990504,22.978,can0  100  [03]  74 4C 04
2026-03-15T15:45:16.061464,23.049,can0  110  [02]  AF 1B
2026-03-15T15:45:16.062160,23.050,can0  120  [04]  00 00 00 00
2026-03-15T15:45:16.064029,23.052,can0  204  [16]  E1 22 D1 44 D2 29 9B 56 28 23 30 75 30 75 00 00
2026-03-15T15:45:16.064107,23.052,can0  040  [04]  B0 00 2B 00
2026-03-15T15:45:16.073957,23.062,can0  204  [16]  E1 22 D1 44 D4 29 C4 56 28 23 30 75 30 75 00 00
2026-03-15T15:45:16.074075,23.062,can0  040  [04]  B0 00 2B 00
2026-03-15T15:45:16.160647,23.148,can0  060  [32]  00 00 00 00 00 00 00 00 00 00 00 00 00 00 00 00 00 00 00 00 00 00 00 00 00 00 00 00 00 00 00 00
2026-03-15T15:45:16.168066,23.156,can0  204  [16]  E1 22 D1 44 D4 29 C4 56 28 23 30 75 30 75 00 00
2026-03-15T15:45:16.168167,23.156,can0  070  [20]  EA 2A 4D 08 F3 B0 62 03 98 3A 00 00 2D 16 00 00 17 00 00 00
2026-03-15T15:45:16.168238,23.156,can0  204  [16]  E1 22 D2 44 D4 29 71 57 28 23 30 75 30 75 00 00
2026-03-15T15:45:16.251571,23.239,can0  206  [24]  8B 0C 5C 05 77 0C 12 F0 74 05 8F 0C 6F 0C 00 00 00 00 00 00 00 00 00 00
2026-03-15T15:45:16.251807,23.239,can0  070  [20]  EA 2A 4D 08 F3 B0 62 03 98 3A 00 00 2D 16 00 00 17 00 00 00
2026-03-15T15:45:16.251992,23.240,can0  041  [04]  3C 01 11 00
2026-03-15T15:45:16.252275,23.240,can0  204  [16]  E1 22 D1 44 D2 29 AD 55 28 23 30 75 30 75 00 00
2026-03-15T15:45:16.259780,23.247,can0  040  [04]  A9 00 28 00
2026-03-15T15:45:16.342338,23.330,can0  204  [16]  E1 22 D1 44 D2 29 AD 55 28 23 30 75 30 75 00 00
2026-03-15T15:45:16.343021,23.331,can0  040  [04]  A9 00 28 00
2026-03-15T15:45:16.349643,23.337,can0  204  [16]  E1 22 D0 44 CF 29 BD 54 28 23 30 75 30 75 00 00
2026-03-15T15:45:16.481084,23.469,can0  204  [16]  E1 22 D0 44 CF 29 BD 54 28 23 30 75 30 75 00 00
2026-03-15T15:45:16.481426,23.469,can0  206  [24]  8B 0C 59 05 77 0C F4 EF 76 05 8B 0C 73 0C 00 00 00 00 00 00 00 00 00 00
2026-03-15T15:45:16.488645,23.476,can0  070  [20]  EA 2A 4D 08 F3 B0 62 03 80 3E 00 00 2D 16 00 00 07 00 00 00
2026-03-15T15:45:16.581390,23.569,can0  204  [16]  E1 22 D1 44 D8 29 D2 54 28 23 30 75 30 75 00 00
2026-03-15T15:45:16.581624,23.569,can0  041  [04]  38 01 15 00
2026-03-15T15:45:16.581832,23.569,can0  070  [20]  EA 2A 4D 08 F3 B0 62 03 80 3E 00 00 2D 16 00 00 07 00 00 00
2026-03-15T15:45:16.589484,23.577,can0  040  [04]  A1 00 22 00
2026-03-15T15:45:16.589560,23.577,can0  204  [16]  E1 22 D2 44 DD 29 BC 54 28 23 30 75 30 75 00 00
2026-03-15T15:45:16.646749,23.634,can0  070  [20]  EA 2A 4D 08 F3 B0 62 03 80 3E 00 00 2D 16 00 00 07 00 00 00
2026-03-15T15:45:16.647521,23.635,can0  040  [04]  A1 00 22 00
2026-03-15T15:45:16.647878,23.635,can0  204  [16]  E1 22 D2 44 DD 29 BC 54 28 23 30 75 30 75 00 00
2026-03-15T15:45:16.648086,23.636,can0  060  [32]  00 00 00 00 EA 2A 4D 08 48 06 B8 10 00 00 10 0E FF 01 00 00 00 00 00 00 01 00 00 00 00 00 00 00
2026-03-15T15:45:16.658972,23.647,can0  204  [16]  E1 22 D3 44 DB 29 A3 54 28 23 30 75 30 75 00 00
2026-03-15T15:45:16.775196,23.763,can0  204  [16]  E1 22 D3 44 DB 29 A3 54 28 23 30 75 30 75 00 00
2026-03-15T15:45:16.775285,23.763,can0  206  [24]  77 0C 57 05 7F 0C 03 F0 78 05 8F 0C 7F 0C 00 00 00 00 00 00 00 00 00 00
2026-03-15T15:45:16.775326,23.763,can0  041  [04]  3F 01 19 00
2026-03-15T15:45:16.859640,23.847,can0  204  [16]  E1 22 D3 44 D8 29 3E 55 28 23 30 75 30 75 00 00
2026-03-15T15:45:16.860281,23.848,can0  040  [04]  93 00 1E 00
2026-03-15T15:45:16.860605,23.848,can0  204  [16]  E1 22 D3 44 D6 29 FD 54 28 23 30 75 30 75 00 00
2026-03-15T15:45:16.867776,23.855,can0  040  [04]  93 00 1E 00
2026-03-15T15:45:16.950180,23.938,can0  204  [16]  E1 22 D3 44 D6 29 FD 54 28 23 30 75 30 75 00 00
2026-03-15T15:45:16.957665,23.945,can0  204  [16]  E1 22 D2 44 D6 29 3E 53 28 23 30 75 30 75 00 00
2026-03-15T15:45:16.957747,23.945,can0  206  [24]  83 0C 5C 05 77 0C F4 EF 78 05 97 0C 77 0C 00 00 00 00 00 00 00 00 00 00
2026-03-15T15:45:17.057930,24.046,can0  204  [16]  E1 22 D2 44 D6 29 3E 53 28 23 30 75 30 75 00 00
2026-03-15T15:45:17.058263,24.046,can0  041  [04]  3D 01 1B 00
2026-03-15T15:45:17.066041,24.054,can0  040  [04]  8B 00 1F 00
2026-03-15T15:45:17.165078,24.153,can0  070  [20]  EA 2A 4D 08 F3 B0 62 03 80 3E 00 00 2D 16 00 00 07 00 00 00
2026-03-15T15:45:17.165442,24.153,can0  204  [16]  E1 22 D3 44 D6 29 0B 54 28 23 30 75 30 75 00 00
2026-03-15T15:45:17.165665,24.153,can0  060  [32]  00 00 00 00 00 00 00 00 00 00 00 00 00 00 00 00 00 00 00 00 00 00 00 00 00 00 00 00 00 00 00 00
2026-03-15T15:45:17.174112,24.162,can0  040  [04]  8B 00 1F 00
2026-03-15T15:45:17.174198,24.162,can0  204  [16]  E1 22 D4 44 D4 29 84 52 28 23 30 75 30 75 00 00
2026-03-15T15:45:17.257224,24.245,can0  100  [03]  72 4C 04
2026-03-15T15:45:17.258166,24.246,can0  120  [04]  00 00 00 00
2026-03-15T15:45:17.258227,24.246,can0  204  [16]  E1 22 D4 44 D4 29 84 52 28 23 30 75 30 75 00 00
2026-03-15T15:45:17.258761,24.246,can0  206  [24]  8B 0C 57 05 77 0C 20 F0 78 05 7F 0C 6F 0C 00 00 00 00 00 00 00 00 00 00
2026-03-15T15:45:17.258983,24.247,can0  070  [20]  EA 2A 4D 08 F3 B0 62 03 80 3E 00 00 2D 16 00 00 07 00 00 00
2026-03-15T15:45:17.265319,24.253,can0  204  [16]  E1 22 D2 44 D8 29 A3 52 28 23 30 75 30 75 00 00
2026-03-15T15:45:17.338305,24.326,can0  041  [04]  4D 01 1A 00
2026-03-15T15:45:17.339199,24.327,can0  040  [04]  8A 00 1D 00
2026-03-15T15:45:17.342680,24.330,can0  204  [16]  E1 22 D0 44 DB 29 7B 52 28 23 30 75 30 75 00 00
2026-03-15T15:45:17.481198,24.469,can0  204  [16]  E1 22 D0 44 DB 29 7B 52 28 23 30 75 30 75 00 00
2026-03-15T15:45:17.487022,24.475,can0  040  [04]  8A 00 1D 00
2026-03-15T15:45:17.487153,24.475,can0  204  [16]  E1 22 D0 44 DB 29 7B 52 28 23 30 75 30 75 00 00
2026-03-15T15:45:17.487253,24.475,can0  070  [20]  EA 2A 4D 08 F3 B0 62 03 68 42 00 00 2D 16 00 00 25 00 00 00
2026-03-15T15:45:17.540836,24.528,can0  206  [24]  7F 0C 5C 05 7B 0C F4 EF 78 05 87 0C 7B 0C 00 00 00 00 00 00 00 00 00 00
2026-03-15T15:45:17.540950,24.529,can0  204  [16]  E1 22 D1 44 DD 29 32 53 28 23 30 75 30 75 00 00
2026-03-15T15:45:17.541035,24.529,can0  070  [20]  EA 2A 4D 08 F3 B0 62 03 68 42 00 00 2D 16 00 00 25 00 00 00
2026-03-15T15:45:17.541263,24.529,can0  041  [04]  4F 01 19 00
2026-03-15T15:45:17.545496,24.533,can0  204  [16]  E1 22 D2 44 D6 29 FC 53 28 23 30 75 30 75 00 00
2026-03-15T15:45:17.640485,24.628,can0  110  [02]  AF 1B
2026-03-15T15:45:17.641016,24.629,can0  132  [00]
2026-03-15T15:45:17.641089,24.629,can0  070  [20]  EA 2A 4D 08 F3 B0 62 03 68 42 00 00 2D 16 00 00 25 00 00 00
2026-03-15T15:45:17.641967,24.630,can0  040  [04]  83 00 1A 00
2026-03-15T15:45:17.642049,24.630,can0  060  [32]  00 00 00 00 EA 2A 4D 08 48 06 B8 10 00 00 10 0E FF 01 00 00 00 00 00 00 01 00 00 00 00 00 00 00
2026-03-15T15:45:17.642825,24.630,can0  204  [16]  E1 22 D3 44 D6 29 7E 54 28 23 30 75 30 75 00 00
2026-03-15T15:45:17.643400,24.631,can0  040  [04]  83 00 1A 00
2026-03-15T15:45:17.780641,24.768,can0  204  [16]  E1 22 D3 44 D6 29 7E 54 28 23 30 75 30 75 00 00
2026-03-15T15:45:17.781009,24.769,can0  204  [16]  E1 22 D1 44 DB 29 35 55 28 23 30 75 30 75 00 00
2026-03-15T15:45:17.892399,24.880,can0  206  [24]  7F 0C 5C 05 77 0C 12 F0 7A 05 8B 0C 7F 0C 00 00 00 00 00 00 00 00 00 00
2026-03-15T15:45:17.893047,24.881,can0  204  [16]  E1 22 D1 44 DB 29 35 55 28 23 30 75 30 75 00 00
2026-03-15T15:45:17.893127,24.881,can0  041  [04]  53 01 19 00
2026-03-15T15:45:17.904090,24.892,can0  040  [04]  81 00 1C 00
2026-03-15T15:45:17.904176,24.892,can0  204  [16]  E1 22 D1 44 DB 29 2C 54 28 23 30 75 30 75 00 00
2026-03-15T15:45:17.954768,24.942,can0  040  [04]  81 00 1C 00
2026-03-15T15:45:17.964910,24.953,can0  204  [16]  E1 22 D1 44 D6 29 B0 53 28 23 30 75 30 75 00 00
2026-03-15T15:45:18.063613,25.051,can0  204  [16]  E1 22 D1 44 D6 29 B0 53 28 23 30 75 30 75 00 00
2026-03-15T15:45:18.064022,25.052,can0  206  [24]  8B 0C 59 05 7B 0C 12 F0 74 05 8B 0C 6F 0C 00 00 00 00 00 00 00 00 00 00
2026-03-15T15:45:18.070990,25.059,can0  204  [16]  E1 22 D1 44 D6 29 16 54 28 23 30 75 30 75 00 00
2026-03-15T15:45:18.162065,25.150,can0  041  [04]  53 01 1A 00
2026-03-15T15:45:18.163158,25.151,can0  070  [20]  EA 2A 4D 08 F3 B0 62 03 68 42 00 00 2D 16 00 00 25 00 00 00
2026-03-15T15:45:18.163243,25.151,can0  204  [16]  E1 22 D1 44 D6 29 16 54 28 23 30 75 30 75 00 00
2026-03-15T15:45:18.163993,25.152,can0  060  [32]  00 00 00 00 00 00 00 00 00 00 00 00 00 00 00 00 00 00 00 00 00 00 00 00 00 00 00 00 00 00 00 00
2026-03-15T15:45:18.164085,25.152,can0  040  [04]  8D 00 1C 00
2026-03-15T15:45:18.164327,25.152,can0  204  [16]  E1 22 D1 44 D8 29 57 54 28 23 30 75 30 75 00 00
2026-03-15T15:45:18.280018,25.268,can0  040  [04]  8D 00 1C 00
2026-03-15T15:45:18.280117,25.268,can0  070  [20]  EA 2A 4D 08 F3 B0 62 03 68 42 00 00 2D 16 00 00 25 00 00 00
2026-03-15T15:45:18.284782,25.272,can0  204  [16]  E1 22 D1 44 D8 29 70 53 28 23 30 75 30 75 00 00
2026-03-15T15:45:18.384981,25.373,can0  204  [16]  E1 22 D1 44 D8 29 70 53 28 23 30 75 30 75 00 00
2026-03-15T15:45:18.385276,25.373,can0  206  [24]  7F 0C 59 05 77 0C 12 F0 7C 05 8B 0C 7B 0C 00 00 00 00 00 00 00 00 00 00
2026-03-15T15:45:18.385547,25.373,can0  041  [04]  45 01 17 00
2026-03-15T15:45:18.394483,25.382,can0  204  [16]  E1 22 D2 44 D4 29 05 53 28 23 30 75 30 75 00 00
2026-03-15T15:45:18.446759,25.434,can0  100  [03]  6C 4C 04
2026-03-15T15:45:18.447491,25.435,can0  120  [04]  00 00 00 00
2026-03-15T15:45:18.448775,25.436,can0  040  [04]  97 00 1B 00
2026-03-15T15:45:18.448884,25.436,can0  204  [16]  E1 22 D2 44 D4 29 05 53 28 23 30 75 30 75 00 00
2026-03-15T15:45:18.459990,25.448,can0  040  [04]  97 00 1B 00
2026-03-15T15:45:18.460105,25.448,can0  070  [20]  EA 2A 4D 08 F3 B0 62 03 50 46 00 00 2D 16 00 00 25 00 00 00
2026-03-15T15:45:18.560678,25.548,can0  204  [16]  E1 22 D2 44 CF 29 E8 52 28 23 30 75 30 75 00 00
2026-03-15T15:45:18.561145,25.549,can0  070  [20]  EA 2A 4D 08 F3 B0 62 03 50 46 00 00 2D 16 00 00 25 00 00 00
2026-03-15T15:45:18.561195,25.549,can0  204  [16]  E1 22 D3 44 CD 29 5B 53 28 23 30 75 30 75 00 00
2026-03-15T15:45:18.651266,25.639,can0  070  [20]  EA 2A 4D 08 F3 B0 62 03 50 46 00 00 2D 16 00 00 25 00 00 00
2026-03-15T15:45:18.651595,25.639,can0  206  [24]  77 0C 57 05 77 0C 12 F0 81 05 8F 0C 83 0C 00 00 00 00 00 00 00 00 00 00
2026-03-15T15:45:18.651847,25.639,can0  204  [16]  E1 22 D3 44 CD 29 5B 53 28 23 30 75 30 75 00 00
2026-03-15T15:45:18.652033,25.640,can0  041  [04]  3D 01 14 00
2026-03-15T15:45:18.652211,25.640,can0  060  [32]  00 00 00 00 EA 2A 4D 08 48 06 B8 10 00 00 10 0E FF 01 00 00 00 00 00 00 01 00 00 00 00 00 00 00
2026-03-15T15:45:18.653120,25.641,can0  040  [04]  9B 00 1F 00
2026-03-15T15:45:18.656802,25.644,can0  204  [16]  E1 22 D3 44 D4 29 4C 54 28 23 30 75 30 75 00 00
2026-03-15T15:45:18.799193,25.787,can0  040  [04]  9B 00 1F 00
2026-03-15T15:45:18.799303,25.787,can0  204  [16]  E1 22 D3 44 D6 29 6A 52 28 23 30 75 30 75 00 00
2026-03-15T15:45:18.852838,25.840,can0  204  [16]  E1 22 D3 44 D6 29 6A 52 28 23 30 75 30 75 00 00
2026-03-15T15:45:18.853404,25.841,can0  206  [24]  7F 0C 5C 05 77 0C 12 F0 78 05 8F 0C 7F 0C 00 00 00 00 00 00 00 00 00 00
2026-03-15T15:45:18.853814,25.841,can0  204  [16]  E1 22 D2 44 D4 29 94 54 28 23 30 75 30 75 00 00
2026-03-15T15:45:18.979248,25.967,can0  041  [04]  2E 01 17 00
2026-03-15T15:45:18.981421,25.969,can0  204  [16]  E1 22 D2 44 D4 29 94 54 28 23 30 75 30 75 00 00
2026-03-15T15:45:18.981502,25.969,can0  040  [04]  9D 00 23 00
2026-03-15T15:45:18.991420,25.979,can0  204  [16]  E1 22 D3 44 CF 29 0D 54 28 23 30 75 30 75 00 00
2026-03-15T15:45:18.991532,25.979,can0  040  [04]  9D 00 23 00
2026-03-15T15:45:19.041068,26.029,can0  204  [16]  E1 22 D2 44 CB 29 99 53 28 23 30 75 30 75 00 00
2026-03-15T15:45:19.184704,26.172,can0  070  [20]  EA 2A 4D 08 F3 B0 62 03 50 46 00 00 2D 16 00 00 25 00 00 00
2026-03-15T15:45:19.184973,26.173,can0  204  [16]  E1 22 D2 44 CB 29 99 53 28 23 30 75 30 75 00 00
2026-03-15T15:45:19.185318,26.173,can0  206  [24]  87 0C 59 05 73 0C 12 F0 78 05 8F 0C 77 0C 00 00 00 00 00 00 00 00 00 00
2026-03-15T15:45:19.185539,26.173,can0  060  [32]  00 00 00 00 00 00 00 00 00 00 00 00 00 00 00 00 00 00 00 00 00 00 00 00 00 00 00 00 00 00 00 00
2026-03-15T15:45:19.185791,26.173,can0  204  [16]  E1 22 D2 44 D2 29 B2 56 28 23 30 75 30 75 00 00
2026-03-15T15:45:19.185979,26.174,can0  041  [04]  23 01 17 00
2026-03-15T15:45:19.290289,26.278,can0  110  [02]  B0 1B
2026-03-15T15:45:19.290472,26.278,can0  040  [04]  9B 00 25 00
2026-03-15T15:45:19.290619,26.278,can0  204  [16]  E1 22 D2 44 D2 29 B2 56 28 23 30 75 30 75 00 00
2026-03-15T15:45:19.300499,26.288,can0  070  [20]  EA 2A 4D 08 F3 B0 62 03 50 46 00 00 2D 16 00 00 25 00 00 00
2026-03-15T15:45:19.300614,26.288,can0  040  [04]  9B 00 25 00
2026-03-15T15:45:19.300684,26.288,can0  204  [16]  E1 22 D2 44 D6 29 DF 54 28 23 30 75 30 75 00 00
2026-03-15T15:45:19.380662,26.368,can0  204  [16]  E1 22 D3 44 D8 29 83 52 28 23 30 75 30 75 00 00
2026-03-15T15:45:19.381015,26.369,can0  206  [24]  83 0C 51 05 7B 0C E4 EF 74 05 8B 0C 73 0C 00 00 00 00 00 00 00 00 00 00
2026-03-15T15:45:19.481305,26.469,can0  204  [16]  E1 22 D3 44 D8 29 83 52 28 23 30 75 30 75 00 00
2026-03-15T15:45:19.481534,26.469,can0  041  [04]  1D 01 1A 00
2026-03-15T15:45:19.482100,26.470,can0  040  [04]  A1 00 25 00
2026-03-15T15:45:19.489159,26.477,can0  204  [16]  E1 22 D3 44 D8 29 83 52 28 23 30 75 30 75 00 00
2026-03-15T15:45:19.593478,26.581,can0  070  [20]  EA 2A 4D 08 F3 B0 62 03 38 4A 00 00 2D 16 00 00 0B 00 00 00
2026-03-15T15:45:19.594823,26.582,can0  070  [20]  EA 2A 4D 08 F3 B0 62 03 38 4A 00 00 2D 16 00 00 0C 00 00 00
2026-03-15T15:45:19.594930,26.583,can0  040  [04]  A1 00 25 00
2026-03-15T15:45:19.605589,26.593,can0  204  [16]  E1 22 D1 44 CF 29 32 53 28 23 30 75 30 75 00 00
2026-03-15T15:45:19.659966,26.648,can0  100  [03]  6A 4C 04
2026-03-15T15:45:19.660665,26.648,can0  120  [04]  00 00 00 00
2026-03-15T15:45:19.661782,26.649,can0  204  [16]  E1 22 D1 44 CF 29 32 53 28 23 30 75 30 75 00 00
2026-03-15T15:45:19.661835,26.649,can0  070  [20]  EA 2A 4D 08 F3 B0 62 03 38 4A 00 00 2D 16 00 00 0C 00 00 00
2026-03-15T15:45:19.661882,26.649,can0  060  [32]  00 00 00 00 00 00 00 00 00 00 00 00 00 00 00 00 00 00 00 00 00 00 00 00 00 00 00 00 00 00 00 00
2026-03-15T15:45:19.662165,26.650,can0  060  [32]  00 00 00 00 EA 2A 4D 08 48 06 B8 10 00 00 10 0E FF 01 00 00 00 00 00 00 01 00 00 00 00 00 00 00
2026-03-15T15:45:19.670213,26.658,can0  206  [24]  8B 0C 59 05 73 0C F4 EF 7A 05 9F 0C 6B 0C 00 00 00 00 00 00 00 00 00 00
2026-03-15T15:45:19.670283,26.658,can0  204  [16]  E1 22 D1 44 CF 29 7A 53 28 23 30 75 30 75 00 00
2026-03-15T15:45:19.746963,26.735,can0  041  [04]  13 01 19 00
2026-03-15T15:45:19.747045,26.735,can0  204  [16]  E1 22 D1 44 CF 29 7A 53 28 23 30 75 30 75 00 00
2026-03-15T15:45:19.754484,26.742,can0  040  [04]  99 00 25 00
2026-03-15T15:45:19.754589,26.742,can0  204  [16]  E1 22 D1 44 D6 29 56 53 28 23 30 75 30 75 00 00
2026-03-15T15:45:19.881224,26.869,can0  040  [04]  99 00 25 00
2026-03-15T15:45:19.888383,26.876,can0  204  [16]  E1 22 D2 44 D2 29 E5 53 28 23 30 75 30 75 00 00
2026-03-15T15:45:19.980964,26.969,can0  204  [16]  E1 22 D2 44 D2 29 E5 53 28 23 30 75 30 75 00 00
2026-03-15T15:45:19.981317,26.969,can0  206  [24]  7F 0C 59 05 7B 0C F4 EF 78 05 83 0C 7B 0C 00 00 00 00 00 00 00 00 00 00
2026-03-15T15:45:19.981544,26.969,can0  204  [16]  E1 22 D1 44 D2 29 E6 52 28 23 30 75 30 75 00 00
2026-03-15T15:45:19.988207,26.976,can0  041  [04]  10 01 19 00
2026-03-15T15:45:20.086032,27.074,can0  040  [04]  8F 00 1C 00
2026-03-15T15:45:20.087217,27.075,can0  204  [16]  E1 22 D1 44 D2 29 E6 52 28 23 30 75 30 75 00 00
2026-03-15T15:45:20.087304,27.075,can0  040  [04]  8F 00 1C 00
2026-03-15T15:45:20.093381,27.081,can0  204  [16]  E1 22 D0 44 CD 29 F7 53 28 23 30 75 30 75 00 00
2026-03-15T15:45:20.143330,27.131,can0  070  [20]  EA 2A 4D 08 F3 B0 62 03 38 4A 00 00 2D 16 00 00 0C 00 00 00
2026-03-15T15:45:20.151595,27.139,can0  204  [16]  E1 22 D0 44 D6 29 67 53 28 23 30 75 30 75 00 00
2026-03-15T15:45:20.151680,27.139,can0  060  [32]  00 00 00 00 00 00 00 00 00 00 00 00 00 00 00 00 00 00 00 00 00 00 00 00 00 00 00 00 00 00 00 00
2026-03-15T15:45:20.151759,27.139,can0  206  [24]  7F 0C 59 05 77 0C E4 EF 7E 05 87 0C 7B 0C 00 00 00 00 00 00 00 00 00 00
2026-03-15T15:45:20.280608,27.268,can0  204  [16]  E1 22 D0 44 D6 29 67 53 28 23 30 75 30 75 00 00
2026-03-15T15:45:20.280769,27.268,can0  060  [32]  D5 AD D6 02 0A 2B 4D 08 2A 40 B8 10 00 00 10 0E FF 01 00 00 00 00 00 00 01 00 00 00 00 00 00 00
2026-03-15T15:45:20.281483,27.269,can0  041  [04]  0E 01 1A 00
2026-03-15T15:45:20.281540,27.269,can0  070  [20]  EA 2A 4D 08 F3 B0 62 03 38 4A 00 00 2D 16 00 00 0C 00 00 00
2026-03-15T15:45:20.288386,27.276,can0  204  [16]  E1 22 CF 44 CD 29 22 54 28 23 30 75 30 75 00 00
2026-03-15T15:45:20.288443,27.276,can0  040  [04]  81 00 1D 00
2026-03-15T15:45:20.381664,27.369,can0  040  [04]  81 00 1D 00
2026-03-15T15:45:20.381992,27.370,can0  204  [16]  E1 22 CF 44 CD 29 22 54 28 23 30 75 30 75 00 00
2026-03-15T15:45:20.389574,27.377,can0  204  [16]  E1 22 D1 44 D2 29 C6 53 28 23 30 75 30 75 00 00
2026-03-15T15:45:20.483091,27.471,can0  204  [16]  E1 22 D1 44 D2 29 C6 53 28 23 30 75 30 75 00 00
2026-03-15T15:45:20.490514,27.478,can0  206  [24]  77 0C 59 05 6F 0C F4 EF 78 05 8F 0C 83 0C 00 00 00 00 00 00 00 00 00 00
2026-03-15T15:45:20.490623,27.478,can0  070  [20]  E9 2A 4D 08 F3 B0 62 03 20 4E 00 00 2D 16 00 00 1A 00 00 00
2026-03-15T15:45:20.586626,27.574,can0  041  [04]  10 01 18 00
2026-03-15T15:45:20.586901,27.574,can0  070  [20]  E9 2A 4D 08 F3 B0 62 03 20 4E 00 00 2D 16 00 00 1B 00 00 00
2026-03-15T15:45:20.587193,27.575,can0  204  [16]  E1 22 D1 44 C8 29 80 53 28 23 30 75 30 75 00 00
2026-03-15T15:45:20.588242,27.576,can0  040  [04]  88 00 1C 00
2026-03-15T15:45:20.588281,27.576,can0  040  [04]  88 00 1C 00
2026-03-15T15:45:20.596214,27.584,can0  204  [16]  E1 22 D2 44 CB 29 7F 56 28 23 30 75 30 75 00 00
2026-03-15T15:45:20.648934,27.637,can0  070  [20]  E9 2A 4D 08 F3 B0 62 03 20 4E 00 00 2D 16 00 00 1B 00 00 00
2026-03-15T15:45:20.660339,27.648,can0  204  [16]  E1 22 D1 44 CB 29 D5 53 28 23 30 75 30 75 00 00
2026-03-15T15:45:20.763761,27.751,can0  204  [16]  E1 22 D1 44 CB 29 D5 53 28 23 30 75 30 75 00 00
2026-03-15T15:45:20.764235,27.752,can0  206  [24]  83 0C 59 05 7F 0C E4 EF 7A 05 83 0C 7B 0C 00 00 00 00 00 00 00 00 00 00
2026-03-15T15:45:20.764897,27.752,can0  204  [16]  E1 22 D4 44 D2 29 ED 55 28 23 30 75 30 75 00 00
2026-03-15T15:45:20.764973,27.753,can0  041  [04]  1B 01 14 00
2026-03-15T15:45:20.765855,27.753,can0  100  [03]  65 4C 04
2026-03-15T15:45:20.883230,27.871,can0  110  [02]  B0 1B
2026-03-15T15:45:20.884322,27.872,can0  040  [04]  8E 00 1D 00
2026-03-15T15:45:20.884366,27.872,can0  120  [04]  00 00 00 00
2026-03-15T15:45:20.884648,27.872,can0  204  [16]  E1 22 D4 44 D2 29 ED 55 28 23 30 75 30 75 00 00
2026-03-15T15:45:20.885224,27.873,can0  040  [04]  8E 00 1D 00
2026-03-15T15:45:20.896115,27.884,can0  204  [16]  E1 22 D3 44 CF 29 A9 53 28 23 30 75 30 75 00 00
2026-03-15T15:45:20.980910,27.969,can0  204  [16]  E1 22 D3 44 D2 29 7F 53 28 23 30 75 30 75 00 00
2026-03-15T15:45:20.988494,27.976,can0  206  [24]  7B 0C 5C 05 73 0C C5 EF 7A 05 8B 0C 7F 0C 00 00 00 00 00 00 00 00 00 00
2026-03-15T15:45:21.080577,28.068,can0  204  [16]  E1 22 D3 44 D2 29 7F 53 28 23 30 75 30 75 00 00
2026-03-15T15:45:21.081448,28.069,can0  041  [04]  1A 01 17 00
2026-03-15T15:45:21.081506,28.069,can0  040  [04]  94 00 1C 00
2026-03-15T15:45:21.088314,28.076,can0  204  [16]  E1 22 D2 44 CD 29 35 52 28 23 30 75 30 75 00 00
2026-03-15T15:45:21.186704,28.174,can0  070  [20]  E9 2A 4D 08 F3 B0 62 03 20 4E 00 00 2D 16 00 00 1B 00 00 00
2026-03-15T15:45:21.186971,28.175,can0  204  [16]  E1 22 D2 44 CD 29 35 52 28 23 30 75 30 75 00 00
2026-03-15T15:45:21.195520,28.183,can0  040  [04]  94 00 1C 00
2026-03-15T15:45:21.195607,28.183,can0  204  [16]  E1 22 D2 44 D2 29 19 53 28 23 30 75 30 75 00 00
2026-03-15T15:45:21.294823,28.282,can0  133  [00]
2026-03-15T15:45:21.295606,28.283,can0  070  [20]  E9 2A 4D 08 F3 B0 62 03 20 4E 00 00 2D 16 00 00 1B 00 00 00
2026-03-15T15:45:21.295717,28.283,can0  206  [24]  6F 0C 5C 05 8B 0C 20 F0 67 05 8F 0C 7B 0C 00 00 00 00 00 00 00 00 00 00
2026-03-15T15:45:21.305143,28.293,can0  204  [16]  E1 22 D3 44 CF 29 56 52 28 23 30 75 30 75 00 00
2026-03-15T15:45:21.391405,28.379,can0  041  [04]  22 01 1A 00
2026-03-15T15:45:21.391718,28.379,can0  204  [16]  E1 22 D3 44 CF 29 56 52 28 23 30 75 30 75 00 00
2026-03-15T15:45:21.393110,28.381,can0  040  [04]  96 00 1F 00
2026-03-15T15:45:21.393199,28.381,can0  204  [16]  E1 22 D4 44 CF 29 F2 52 28 23 30 75 30 75 00 00
2026-03-15T15:45:21.397733,28.385,can0  040  [04]  96 00 1F 00
2026-03-15T15:45:21.457562,28.445,can0  204  [16]  E1 22 D4 44 CF 29 F2 52 28 23 30 75 30 75 00 00
2026-03-15T15:45:21.457959,28.446,can0  204  [16]  E1 22 D3 44 CF 29 4F 52 28 23 30 75 30 75 00 00
2026-03-15T15:45:21.458177,28.446,can0  070  [20]  E9 2A 4D 08 F3 B0 62 03 08 52 00 00 2D 16 00 00 07 00 00 00
2026-03-15T15:45:21.469305,28.457,can0  206  [24]  77 0C 5C 05 7B 0C 03 F0 78 05 8F 0C 7F 0C 00 00 00 00 00 00 00 00 00 00
2026-03-15T15:45:21.580895,28.569,can0  204  [16]  E1 22 D3 44 D8 29 23 53 28 23 30 75 30 75 00 00
2026-03-15T15:45:21.581370,28.569,can0  070  [20]  E9 2A 4D 08 F3 B0 62 03 08 52 00 00 2D 16 00 00 08 00 00 00
2026-03-15T15:45:21.584329,28.572,can0  041  [04]  24 01 1A 00
2026-03-15T15:45:21.680815,28.668,can0  070  [20]  E9 2A 4D 08 F3 B0 62 03 08 52 00 00 2D 16 00 00 08 00 00 00
2026-03-15T15:45:21.681471,28.669,can0  040  [04]  9A 00 19 00
2026-03-15T15:45:21.682336,28.670,can0  204  [16]  E1 22 D3 44 D8 29 23 53 28 23 30 75 30 75 00 00
2026-03-15T15:45:21.682434,28.670,can0  040  [04]  9A 00 19 00
2026-03-15T15:45:21.682806,28.670,can0  204  [16]  E1 22 D2 44 D6 29 3B 54 28 23 30 75 30 75 00 00
2026-03-15T15:45:21.682902,28.670,can0  060  [32]  00 00 00 00 E9 2A 4D 08 48 06 B8 10 00 00 10 0E FF 01 00 00 00 00 00 00 01 00 00 00 00 00 00 00
2026-03-15T15:45:21.780785,28.768,can0  204  [16]  E1 22 D2 44 D6 29 5D 53 28 23 30 75 30 75 00 00
2026-03-15T15:45:21.781144,28.769,can0  206  [24]  83 0C 5C 05 77 0C E4 EF 7A 05 8F 0C 77 0C 00 00 00 00 00 00 00 00 00 00
2026-03-15T15:45:21.880968,28.869,can0  204  [16]  E1 22 D2 44 D6 29 5D 53 28 23 30 75 30 75 00 00
2026-03-15T15:45:21.881231,28.869,can0  041  [04]  24 01 1B 00
2026-03-15T15:45:21.881484,28.869,can0  204  [16]  E1 22 D3 44 CD 29 D7 52 28 23 30 75 30 75 00 00
2026-03-15T15:45:21.889339,28.877,can0  040  [04]  A8 00 1A 00
2026-03-15T15:45:21.986730,28.974,can0  204  [16]  E1 22 D3 44 CD 29 D7 52 28 23 30 75 30 75 00 00
2026-03-15T15:45:21.987382,28.975,can0  040  [04]  A8 00 1A 00
2026-03-15T15:45:21.987667,28.975,can0  204  [16]  E1 22 D5 44 D4 29 AA 53 28 23 30 75 30 75 00 00
2026-03-15T15:45:21.988263,28.976,can0  100  [03]  5F 4C 04
2026-03-15T15:45:22.085992,29.074,can0  120  [04]  00 00 00 00
2026-03-15T15:45:22.086351,29.074,can0  206  [24]  7B 0C 5C 05 7B 0C 03 F0 76 05 8F 0C 7B 0C 00 00 00 00 00 00 00 00 00 00
2026-03-15T15:45:22.093737,29.081,can0  204  [16]  E1 22 D3 44 D2 29 63 54 28 23 30 75 30 75 00 00
2026-03-15T15:45:22.180842,29.168,can0  204  [16]  E1 22 D3 44 D2 29 63 54 28 23 30 75 30 75 00 00
2026-03-15T15:45:22.181200,29.169,can0  041  [04]  20 01 1B 00
2026-03-15T15:45:22.181625,29.169,can0  070  [20]  E9 2A 4D 08 F3 B0 62 03 08 52 00 00 2D 16 00 00 08 00 00 00
2026-03-15T15:45:22.182553,29.170,can0  040  [04]  A7 00 1E 00
