Timestamp,Elapsed_Time_s,CAN_Message
2026-06-06T15:05:11.375323,1.397,can0  070  [20]  CE 2C 4D 08 C7 AE 62 03 C8 32 00 00 05 16 00 00 15 00 00 00
2026-06-06T15:05:11.378255,1.400,can0  204  [16]  E1 22 72 44 21 2A 00 00 28 23 30 75 30 75 00 00
2026-06-06T15:05:11.474756,1.496,can0  204  [16]  E1 22 75 44 2B 2A 00 00 28 23 30 75 30 75 00 00
2026-06-06T15:05:11.477168,1.499,can0  041  [04]  59 01 25 00
2026-06-06T15:05:11.477211,1.499,can0  204  [16]  E1 22 75 44 2B 2A 00 00 28 23 30 75 30 75 00 00
2026-06-06T15:05:11.575472,1.597,can0  040  [04]  40 01 17 00
2026-06-06T15:05:11.575523,1.597,can0  204  [16]  E1 22 74 44 23 2A 00 00 28 23 30 75 30 75 00 00
2026-06-06T15:05:11.677023,1.698,can0  204  [16]  E1 22 70 44 3C 2A 00 00 28 23 30 75 30 75 00 00
2026-06-06T15:05:11.677071,1.698,can0  204  [16]  E1 22 70 44 3C 2A 00 00 28 23 30 75 30 75 00 00
2026-06-06T15:05:11.777091,1.798,can0  041  [04]  58 01 23 00
2026-06-06T15:05:11.777144,1.799,can0  204  [16]  E1 22 72 44 38 2A 00 00 28 23 30 75 30 75 00 00
2026-06-06T15:05:11.777180,1.799,can0  060  [32]  00 00 00 00 00 00 00 00 00 00 00 00 00 00 00 00 00 00 00 00 00 00 00 00 00 00 00 00 00 00 00 00
2026-06-06T15:05:11.777216,1.799,can0  204  [16]  E1 22 72 44 38 2A 00 00 28 23 30 75 30 75 00 00
2026-06-06T15:05:11.874638,1.896,can0  040  [04]  40 01 19 00
2026-06-06T15:05:11.874879,1.896,can0  204  [16]  E1 22 70 44 2F 2A 00 00 28 23 30 75 30 75 00 00
2026-06-06T15:05:11.875008,1.896,can0  070  [20]  CE 2C 4D 08 C7 AE 62 03 C8 32 00 00 05 16 00 00 15 00 00 00
2026-06-06T15:05:11.980133,2.002,can0  206  [24]  CB 0C CA 05 10 0D 99 C6 6D 06 1B 0D FD 0C 00 00 00 00 00 00 00 00 00 00
2026-06-06T15:05:11.980186,2.002,can0  204  [16]  E1 22 73 44 3C 2A 00 00 28 23 30 75 30 75 00 00
2026-06-06T15:05:11.980221,2.002,can0  204  [16]  E1 22 73 44 3C 2A 00 00 28 23 30 75 30 75 00 00
2026-06-06T15:05:12.049086,2.070,can0  041  [04]  5D 01 24 00
2026-06-06T15:05:12.049327,2.071,can0  204  [16]  E1 22 72 44 2B 2A 00 00 28 23 30 75 30 75 00 00
2026-06-06T15:05:12.049559,2.071,can0  040  [04]  48 01 18 00
2026-06-06T15:05:12.049767,2.071,can0  204  [16]  E1 22 72 44 2B 2A 00 00 28 23 30 75 30 75 00 00
2026-06-06T15:05:12.175101,2.196,can0  110  [02]  25 1B
2026-06-06T15:05:12.179574,2.201,can0  204  [16]  E1 22 71 44 3E 2A 00 00 28 23 30 75 30 75 00 00
2026-06-06T15:05:12.274935,2.296,can0  070  [20]  CE 2C 4D 08 C7 AE 62 03 B0 36 00 00 05 16 00 00 0D 00 00 00
2026-06-06T15:05:12.275261,2.297,can0  204  [16]  E1 22 72 44 3A 2A 00 00 28 23 30 75 30 75 00 00
2026-06-06T15:05:12.275297,2.297,can0  070  [20]  CE 2C 4D 08 C7 AE 62 03 B0 36 00 00 05 16 00 00 0E 00 00 00
2026-06-06T15:05:12.275531,2.297,can0  133  [00]
2026-06-06T15:05:12.275676,2.297,can0  041  [04]  60 01 20 00
2026-06-06T15:05:12.275891,2.297,can0  204  [16]  E1 22 72 44 3A 2A 00 00 28 23 30 75 30 75 00 00
2026-06-06T15:05:12.374288,2.396,can0  060  [32]  00 00 00 00 CE 2C 4D 08 1B 04 B8 10 00 00 10 0E FF 01 00 00 00 00 00 00 01 00 00 00 00 00 00 00
2026-06-06T15:05:12.374765,2.396,can0  204  [16]  E1 22 6F 44 29 2A 00 00 28 23 30 75 30 75 00 00
2026-06-06T15:05:12.374908,2.396,can0  070  [20]  CE 2C 4D 08 C7 AE 62 03 B0 36 00 00 05 16 00 00 0E 00 00 00
2026-06-06T15:05:12.379153,2.401,can0  040  [04]  51 01 17 00
2026-06-06T15:05:12.474179,2.496,can0  204  [16]  E1 22 6F 44 29 2A 00 00 28 23 30 75 30 75 00 00
2026-06-06T15:05:12.478254,2.500,can0  204  [16]  E1 22 73 44 3E 2A 00 00 28 23 30 75 30 75 00 00
2026-06-06T15:05:12.577456,2.599,can0  100  [03]  21 72 04
2026-06-06T15:05:12.577501,2.599,can0  120  [04]  00 00 00 00
2026-06-06T15:05:12.577536,2.599,can0  204  [16]  E1 22 72 44 25 2A 00 00 28 23 30 75 30 75 00 00
2026-06-06T15:05:12.577571,2.599,can0  041  [04]  65 01 1A 00
2026-06-06T15:05:12.577605,2.599,can0  206  [24]  D0 0C C8 05 10 0D 99 C6 79 06 1B 0D F8 0C 00 00 00 00 00 00 00 00 00 00
2026-06-06T15:05:12.577707,2.599,can0  204  [16]  E1 22 72 44 25 2A 00 00 28 23 30 75 30 75 00 00
2026-06-06T15:05:12.677771,2.699,can0  040  [04]  4B 01 15 00
2026-06-06T15:05:12.677821,2.699,can0  204  [16]  E1 22 71 44 3A 2A 00 00 28 23 30 75 30 75 00 00
2026-06-06T15:05:12.677870,2.699,can0  204  [16]  E1 22 71 44 3A 2A 00 00 28 23 30 75 30 75 00 00
2026-06-06T15:05:12.774694,2.796,can0  204  [16]  E1 22 71 44 1F 2A 00 00 28 23 30 75 30 75 00 00
2026-06-06T15:05:12.774888,2.796,can0  060  [32]  00 00 00 00 00 00 00 00 00 00 00 00 00 00 00 00 00 00 00 00 00 00 00 00 00 00 00 00 00 00 00 00
2026-06-06T15:05:12.874384,2.896,can0  041  [04]  02 00 1B 00
2026-06-06T15:05:12.874644,2.896,can0  204  [16]  E1 22 70 44 36 2A 00 00 28 23 30 75 30 75 00 00
2026-06-06T15:05:12.874900,2.896,can0  070  [20]  CE 2C 4D 08 C7 AE 62 03 B0 36 00 00 05 16 00 00 0E 00 00 00
2026-06-06T15:05:12.879018,2.900,can0  204  [16]  E1 22 70 44 36 2A 00 00 28 23 30 75 30 75 00 00
2026-06-06T15:05:12.879057,2.900,can0  070  [20]  CE 2C 4D 08 C7 AE 62 03 B0 36 00 00 05 16 00 00 0E 00 00 00
2026-06-06T15:05:12.974492,2.996,can0  040  [04]  46 01 14 00
2026-06-06T15:05:12.978435,3.000,can0  204  [16]  E1 22 6F 44 25 2A 00 00 28 23 30 75 30 75 00 00
2026-06-06T15:05:12.978474,3.000,can0  204  [16]  E1 22 6F 44 25 2A 00 00 28 23 30 75 30 75 00 00
2026-06-06T15:05:13.074567,3.096,can0  204  [16]  E1 22 6F 44 3C 2A 00 00 28 23 30 75 30 75 00 00
2026-06-06T15:05:13.075914,3.097,can0  041  [04]  00 00 1B 00
2026-06-06T15:05:13.174882,3.196,can0  204  [16]  E1 22 6F 44 3C 2A 00 00 28 23 30 75 30 75 00 00
2026-06-06T15:05:13.177608,3.199,can0  040  [04]  50 01 13 00
2026-06-06T15:05:13.177647,3.199,can0  204  [16]  E1 22 70 44 29 2A 00 00 28 23 30 75 30 75 00 00
2026-06-06T15:05:13.274744,3.296,can0  070  [20]  CC 2C 4D 08 C7 AE 62 03 98 3A 00 00 05 16 00 00 16 00 00 00
2026-06-06T15:05:13.276285,3.298,can0  206  [24]  D0 0C C9 05 10 0D 99 C6 79 06 16 0D F8 0C 00 00 00 00 00 00 00 00 00 00
2026-06-06T15:05:13.276525,3.298,can0  204  [16]  E1 22 74 44 2F 2A 00 00 28 23 30 75 30 75 00 00
2026-06-06T15:05:13.276560,3.298,can0  070  [20]  CC 2C 4D 08 C7 AE 62 03 98 3A 00 00 05 16 00 00 16 00 00 00
2026-06-06T15:05:13.374260,3.396,can0  204  [16]  E1 22 74 44 2F 2A 00 00 28 23 30 75 30 75 00 00
2026-06-06T15:05:13.374375,3.396,can0  060  [32]  00 00 00 00 CC 2C 4D 08 1B 04 B8 10 00 00 10 0E FF 01 00 00 00 00 00 00 01 00 00 00 00 00 00 00
2026-06-06T15:05:13.374786,3.396,can0  041  [04]  55 01 1A 00
2026-06-06T15:05:13.374822,3.396,can0  204  [16]  E1 22 76 44 2D 2A 00 00 28 23 30 75 30 75 00 00
2026-06-06T15:05:13.374887,3.396,can0  070  [20]  CC 2C 4D 08 C7 AE 62 03 98 3A 00 00 05 16 00 00 16 00 00 00
2026-06-06T15:05:13.476767,3.498,can0  040  [04]  59 01 10 00
2026-06-06T15:05:13.476817,3.498,can0  204  [16]  E1 22 73 44 38 2A 00 00 28 23 30 75 30 75 00 00
2026-06-06T15:05:13.476852,3.498,can0  204  [16]  E1 22 73 44 38 2A 00 00 28 23 30 75 30 75 00 00
2026-06-06T15:05:13.577702,3.599,can0  204  [16]  E1 22 70 44 3A 2A 00 00 28 23 30 75 30 75 00 00
2026-06-06T15:05:13.577750,3.599,can0  204  [16]  E1 22 70 44 3A 2A 00 00 28 23 30 75 30 75 00 00
2026-06-06T15:05:13.577785,3.599,can0  041  [04]  4F 01 16 00
2026-06-06T15:05:13.674808,3.696,can0  204  [16]  E1 22 72 44 3A 2A 00 00 28 23 30 75 30 75 00 00
2026-06-06T15:05:13.676996,3.698,can0  040  [04]  67 01 0D 00
2026-06-06T15:05:13.774612,3.796,can0  100  [03]  1A 72 04
2026-06-06T15:05:13.775167,3.797,can0  110  [02]  25 1B
2026-06-06T15:05:13.775202,3.797,can0  120  [04]  00 00 00 00
2026-06-06T15:05:13.775235,3.797,can0  204  [16]  E1 22 71 44 38 2A 00 00 28 23 30 75 30 75 00 00
2026-06-06T15:05:13.775268,3.797,can0  204  [16]  E1 22 71 44 38 2A 00 00 28 23 30 75 30 75 00 00
2026-06-06T15:05:13.775300,3.797,can0  060  [32]  00 00 00 00 00 00 00 00 00 00 00 00 00 00 00 00 00 00 00 00 00 00 00 00 00 00 00 00 00 00 00 00
2026-06-06T15:05:13.878484,3.900,can0  204  [16]  E1 22 73 44 2D 2A 00 00 28 23 30 75 30 75 00 00
2026-06-06T15:05:13.878532,3.900,can0  070  [20]  CC 2C 4D 08 C7 AE 62 03 98 3A 00 00 05 16 00 00 16 00 00 00
2026-06-06T15:05:13.878567,3.900,can0  041  [04]  52 01 10 00
2026-06-06T15:05:13.878601,3.900,can0  070  [20]  CC 2C 4D 08 C7 AE 62 03 98 3A 00 00 05 16 00 00 16 00 00 00
2026-06-06T15:05:13.878643,3.900,can0  204  [16]  E1 22 73 44 2D 2A 00 00 28 23 30 75 30 75 00 00
2026-06-06T15:05:13.976475,3.998,can0  206  [24]  C5 0C C8 05 1B 0D 99 C6 7A 06 16 0D F8 0C 00 00 00 00 00 00 00 00 00 00
2026-06-06T15:05:13.976680,3.998,can0  040  [04]  2C 00 0C 00
2026-06-06T15:05:13.976865,3.998,can0  204  [16]  E1 22 75 44 34 2A 00 00 28 23 30 75 30 75 00 00
2026-06-06T15:05:14.074564,4.096,can0  204  [16]  E1 22 76 44 2B 2A 00 00 28 23 30 75 30 75 00 00
2026-06-06T15:05:14.077489,4.099,can0  204  [16]  E1 22 76 44 2B 2A 00 00 28 23 30 75 30 75 00 00
2026-06-06T15:05:14.174445,4.196,can0  060  [32]  17 F1 E8 05 DD 66 4D 08 C6 3B 64 03 00 00 69 09 71 00 8A 00 00 00 00 00 01 00 00 00 00 00 00 00
2026-06-06T15:05:14.179422,4.201,can0  041  [04]  42 01 0C 00
2026-06-06T15:05:14.179464,4.201,can0  204  [16]  E1 22 76 44 2B 2A 00 00 28 23 30 75 30 75 00 00
2026-06-06T15:05:14.275070,4.296,can0  070  [20]  CC 2C 4D 08 C7 AE 62 03 80 3E 00 00 05 16 00 00 0F 00 00 00
2026-06-06T15:05:14.275344,4.297,can0  204  [16]  E1 22 75 44 38 2A 00 00 28 23 30 75 30 75 00 00
2026-06-06T15:05:14.275550,4.297,can0  040  [04]  38 00 0C 00
2026-06-06T15:05:14.275733,4.297,can0  070  [20]  CC 2C 4D 08 C7 AE 62 03 80 3E 00 00 05 16 00 00 0E 00 00 00
2026-06-06T15:05:14.280213,4.302,can0  204  [16]  E1 22 75 44 38 2A 00 00 28 23 30 75 30 75 00 00
2026-06-06T15:05:14.374706,4.396,can0  204  [16]  E1 22 70 44 2F 2A 00 00 28 23 30 75 30 75 00 00
2026-06-06T15:05:14.374764,4.396,can0  204  [16]  E1 22 70 44 2F 2A 00 00 28 23 30 75 30 75 00 00
2026-06-06T15:05:14.374855,4.396,can0  070  [20]  CC 2C 4D 08 C7 AE 62 03 80 3E 00 00 05 16 00 00 0E 00 00 00
2026-06-06T15:05:14.379416,4.401,can0  041  [04]  3F 01 0A 00
2026-06-06T15:05:14.474579,4.496,can0  204  [16]  E1 22 71 44 2D 2A 00 00 28 23 30 75 30 75 00 00
2026-06-06T15:05:14.479539,4.501,can0  040  [04]  39 00 0E 00
2026-06-06T15:05:14.479590,4.501,can0  204  [16]  E1 22 71 44 2D 2A 00 00 28 23 30 75 30 75 00 00
2026-06-06T15:05:14.574822,4.596,can0  204  [16]  E1 22 72 44 27 2A 00 00 28 23 30 75 30 75 00 00
2026-06-06T15:05:14.576876,4.598,can0  206  [24]  CB 0C C9 05 1A 0D 99 C6 76 06 11 0D F8 0C 00 00 00 00 00 00 00 00 00 00
2026-06-06T15:05:14.674905,4.696,can0  204  [16]  E1 22 73 44 27 2A 00 00 28 23 30 75 30 75 00 00
2026-06-06T15:05:14.675112,4.696,can0  041  [04]  4E 01 09 00
2026-06-06T15:05:14.675374,4.697,can0  204  [16]  E1 22 73 44 27 2A 00 00 28 23 30 75 30 75 00 00
2026-06-06T15:05:14.774327,4.796,can0  204  [16]  E1 22 72 44 27 2A 00 00 28 23 30 75 30 75 00 00
2026-06-06T15:05:14.774501,4.796,can0  040  [04]  37 00 10 00
2026-06-06T15:05:14.874491,4.896,can0  204  [16]  E1 22 72 44 27 2A 00 00 28 23 30 75 30 75 00 00
2026-06-06T15:05:14.874680,4.896,can0  204  [16]  E1 22 71 44 34 2A 00 00 28 23 30 75 30 75 00 00
2026-06-06T15:05:14.874795,4.896,can0  070  [20]  CC 2C 4D 08 C7 AE 62 03 80 3E 00 00 05 16 00 00 0E 00 00 00
2026-06-06T15:05:14.974655,4.996,can0  100  [03]  11 72 04
2026-06-06T15:05:14.974786,4.996,can0  120  [04]  00 00 00 00
2026-06-06T15:05:14.974955,4.996,can0  204  [16]  E1 22 72 44 25 2A 00 00 28 23 30 75 30 75 00 00
2026-06-06T15:05:14.978909,5.000,can0  041  [04]  5F 01 0D 00
2026-06-06T15:05:14.978948,5.000,can0  204  [16]  E1 22 72 44 25 2A 00 00 28 23 30 75 30 75 00 00
2026-06-06T15:05:15.074380,5.096,can0  040  [04]  31 00 11 00
2026-06-06T15:05:15.074573,5.096,can0  204  [16]  E1 22 70 44 27 2A 00 00 28 23 30 75 30 75 00 00
2026-06-06T15:05:15.074762,5.096,can0  204  [16]  E1 22 70 44 27 2A 00 00 28 23 30 75 30 75 00 00
2026-06-06T15:05:15.174700,5.196,can0  204  [16]  E1 22 6F 44 2B 2A 00 00 28 23 30 75 30 75 00 00
2026-06-06T15:05:15.174859,5.196,can0  070  [20]  CC 2C 4D 08 C7 AE 62 03 68 42 00 00 05 16 00 00 11 00 00 00
2026-06-06T15:05:15.179695,5.201,can0  041  [04]  10 00 0C 00
2026-06-06T15:05:15.276550,5.298,can0  070  [20]  CC 2C 4D 08 C7 AE 62 03 68 42 00 00 05 16 00 00 10 00 00 00
2026-06-06T15:05:15.276604,5.298,can0  204  [16]  E1 22 70 44 36 2A 00 00 28 23 30 75 30 75 00 00
2026-06-06T15:05:15.276650,5.298,can0  206  [24]  D0 0C C6 05 15 0D 99 C6 72 06 16 0D F3 0C 00 00 00 00 00 00 00 00 00 00
2026-06-06T15:05:15.276769,5.298,can0  040  [04]  2C 00 13 00
2026-06-06T15:05:15.281100,5.302,can0  204  [16]  E1 22 70 44 36 2A 00 00 28 23 30 75 30 75 00 00
2026-06-06T15:05:15.379427,5.401,can0  110  [02]  26 1B
2026-06-06T15:05:15.379480,5.401,can0  060  [32]  00 00 00 00 CC 2C 4D 08 1B 04 B8 10 00 00 10 0E FF 01 00 00 00 00 00 00 01 00 00 00 00 00 00 00
2026-06-06T15:05:15.379516,5.401,can0  204  [16]  E1 22 71 44 2F 2A 00 00 28 23 30 75 30 75 00 00
2026-06-06T15:05:15.379551,5.401,can0  070  [20]  CC 2C 4D 08 C7 AE 62 03 68 42 00 00 05 16 00 00 10 00 00 00
2026-06-06T15:05:15.474984,5.496,can0  204  [16]  E1 22 72 44 34 2A 00 00 28 23 30 75 30 75 00 00
2026-06-06T15:05:15.479895,5.501,can0  204  [16]  E1 22 72 44 34 2A 00 00 28 23 30 75 30 75 00 00
2026-06-06T15:05:15.479937,5.501,can0  041  [04]  0D 00 0D 00
2026-06-06T15:05:15.574295,5.596,can0  204  [16]  E1 22 72 44 2F 2A 00 00 28 23 30 75 30 75 00 00
2026-06-06T15:05:15.575933,5.597,can0  040  [04]  2C 00 15 00
2026-06-06T15:05:15.575973,5.597,can0  204  [16]  E1 22 72 44 2F 2A 00 00 28 23 30 75 30 75 00 00
2026-06-06T15:05:15.674469,5.696,can0  204  [16]  E1 22 70 44 2B 2A 00 00 28 23 30 75 30 75 00 00
2026-06-06T15:05:15.674696,5.696,can0  204  [16]  E1 22 70 44 2B 2A 00 00 28 23 30 75 30 75 00 00
2026-06-06T15:05:15.775063,5.796,can0  041  [04]  02 00 0C 00
2026-06-06T15:05:15.775275,5.797,can0  204  [16]  E1 22 72 44 36 2A 00 00 28 23 30 75 30 75 00 00
2026-06-06T15:05:15.775425,5.797,can0  040  [04]  32 00 14 00
2026-06-06T15:05:15.874261,5.896,can0  060  [32]  00 00 00 00 00 00 00 00 00 00 00 00 00 00 00 00 00 00 00 00 00 00 00 00 00 00 00 00 00 00 00 00
2026-06-06T15:05:15.874554,5.896,can0  204  [16]  E1 22 73 44 3A 2A 00 00 28 23 30 75 30 75 00 00
2026-06-06T15:05:15.874666,5.896,can0  070  [20]  CC 2C 4D 08 C7 AE 62 03 68 42 00 00 05 16 00 00 10 00 00 00
2026-06-06T15:05:15.876903,5.898,can0  204  [16]  E1 22 73 44 3A 2A 00 00 28 23 30 75 30 75 00 00
2026-06-06T15:05:15.876941,5.898,can0  206  [24]  CB 0C C6 05 15 0D 99 C6 75 06 16 0D F8 0C 00 00 00 00 00 00 00 00 00 00
2026-06-06T15:05:15.974867,5.996,can0  204  [16]  E1 22 73 44 23 2A 00 00 28 23 30 75 30 75 00 00
2026-06-06T15:05:15.975018,5.996,can0  041  [04]  02 00 0D 00
2026-06-06T15:05:15.979451,6.001,can0  204  [16]  E1 22 73 44 23 2A 00 00 28 23 30 75 30 75 00 00
2026-06-06T15:05:16.075025,6.096,can0  204  [16]  E1 22 72 44 34 2A 00 00 28 23 30 75 30 75 00 00
2026-06-06T15:05:16.077129,6.099,can0  040  [04]  38 00 12 00
2026-06-06T15:05:16.175074,6.196,can0  204  [16]  E1 22 72 44 34 2A 00 00 28 23 30 75 30 75 00 00
2026-06-06T15:05:16.175265,6.197,can0  100  [03]  09 72 04
2026-06-06T15:05:16.179966,6.201,can0  120  [04]  00 00 00 00
2026-06-06T15:05:16.180012,6.201,can0  204  [16]  E1 22 70 44 2F 2A 00 00 28 23 30 75 30 75 00 00
2026-06-06T15:05:16.280026,6.301,can0  070  [20]  CC 2C 4D 08 C7 AE 62 03 50 46 00 00 05 16 00 00 1A 00 00 00
2026-06-06T15:05:16.280079,6.301,can0  204  [16]  E1 22 6E 44 38 2A 00 00 28 23 30 75 30 75 00 00
2026-06-06T15:05:16.280114,6.302,can0  070  [20]  CC 2C 4D 08 C7 AE 62 03 50 46 00 00 05 16 00 00 19 00 00 00
2026-06-06T15:05:16.280148,6.302,can0  041  [04]  62 01 11 00
2026-06-06T15:05:16.374439,6.396,can0  070  [20]  CC 2C 4D 08 C7 AE 62 03 50 46 00 00 05 16 00 00 19 00 00 00
2026-06-06T15:05:16.374715,6.396,can0  204  [16]  E1 22 71 44 36 2A 00 00 28 23 30 75 30 75 00 00
2026-06-06T15:05:16.374862,6.396,can0  060  [32]  00 00 00 00 CC 2C 4D 08 1B 04 B8 10 00 00 10 0E FF 01 00 00 00 00 00 00 01 00 00 00 00 00 00 00
2026-06-06T15:05:16.376190,6.398,can0  204  [16]  E1 22 71 44 36 2A 00 00 28 23 30 75 30 75 00 00
2026-06-06T15:05:16.380342,6.402,can0  040  [04]  34 00 11 00
2026-06-06T15:05:16.475090,6.496,can0  204  [16]  E1 22 6F 44 31 2A 00 00 28 23 30 75 30 75 00 00
2026-06-06T15:05:16.475289,6.497,can0  204  [16]  E1 22 6F 44 31 2A 00 00 28 23 30 75 30 75 00 00
2026-06-06T15:05:16.575094,6.596,can0  041  [04]  59 01 16 00
2026-06-06T15:05:16.575324,6.597,can0  204  [16]  E1 22 71 44 2D 2A 00 00 28 23 30 75 30 75 00 00
2026-06-06T15:05:16.577332,6.599,can0  206  [24]  CB 0C C6 05 15 0D 99 C6 75 06 20 0D F8 0C 00 00 00 00 00 00 00 00 00 00
2026-06-06T15:05:16.577524,6.599,can0  204  [16]  E1 22 71 44 2D 2A 00 00 28 23 30 75 30 75 00 00
2026-06-06T15:05:16.577753,6.599,can0  040  [04]  32 00 14 00
2026-06-06T15:05:16.678681,6.700,can0  204  [16]  E1 22 75 44 36 2A 00 00 28 23 30 75 30 75 00 00
2026-06-06T15:05:16.774892,6.796,can0  204  [16]  E1 22 75 44 34 2A 00 00 28 23 30 75 30 75 00 00
2026-06-06T15:05:16.779382,6.801,can0  204  [16]  E1 22 75 44 34 2A 00 00 28 23 30 75 30 75 00 00
2026-06-06T15:05:16.779423,6.801,can0  041  [04]  57 01 19 00
2026-06-06T15:05:16.874740,6.896,can0  070  [20]  CC 2C 4D 08 C7 AE 62 03 50 46 00 00 05 16 00 00 19 00 00 00
2026-06-06T15:05:16.874797,6.896,can0  060  [32]  00 00 00 00 00 00 00 00 00 00 00 00 00 00 00 00 00 00 00 00 00 00 00 00 00 00 00 00 00 00 00 00
2026-06-06T15:05:16.875024,6.896,can0  204  [16]  E1 22 73 44 36 2A 00 00 28 23 30 75 30 75 00 00
2026-06-06T15:05:16.875061,6.896,can0  070  [20]  CC 2C 4D 08 C7 AE 62 03 50 46 00 00 05 16 00 00 19 00 00 00
2026-06-06T15:05:16.875276,6.897,can0  204  [16]  E1 22 73 44 36 2A 00 00 28 23 30 75 30 75 00 00
2026-06-06T15:05:16.880059,6.901,can0  040  [04]  32 00 14 00
2026-06-06T15:05:16.974840,6.996,can0  110  [02]  26 1B
2026-06-06T15:05:16.975084,6.996,can0  204  [16]  E1 22 70 44 36 2A 00 00 28 23 30 75 30 75 00 00
2026-06-06T15:05:17.075107,7.096,can0  204  [16]  E1 22 6E 44 3E 2A 00 00 28 23 30 75 30 75 00 00
2026-06-06T15:05:17.075319,7.097,can0  041  [04]  59 01 1A 00
2026-06-06T15:05:17.079990,7.101,can0  204  [16]  E1 22 6E 44 3E 2A 00 00 28 23 30 75 30 75 00 00
2026-06-06T15:05:17.174512,7.196,can0  040  [04]  2E 00 14 00
2026-06-06T15:05:17.174788,7.196,can0  204  [16]  E1 22 6E 44 3E 2A 00 00 28 23 30 75 30 75 00 00
2026-06-06T15:05:17.174969,7.196,can0  070  [20]  CC 2C 4D 08 C7 AE 62 03 38 4A 00 00 05 16 00 00 11 00 00 00
2026-06-06T15:05:17.276390,7.298,can0  204  [16]  E1 22 73 44 29 2A 00 00 28 23 30 75 30 75 00 00
2026-06-06T15:05:17.276441,7.298,can0  206  [24]  CB 0C C8 05 1F 0D 99 C6 76 06 16 0D F8 0C 00 00 00 00 00 00 00 00 00 00
2026-06-06T15:05:17.276551,7.298,can0  070  [20]  CC 2C 4D 08 C7 AE 62 03 38 4A 00 00 05 16 00 00 11 00 00 00
2026-06-06T15:05:17.276799,7.298,can0  204  [16]  E1 22 73 44 29 2A 00 00 28 23 30 75 30 75 00 00
2026-06-06T15:05:17.374372,7.396,can0  070  [20]  CC 2C 4D 08 C7 AE 62 03 38 4A 00 00 05 16 00 00 11 00 00 00
2026-06-06T15:05:17.374940,7.396,can0  100  [03]  FF 71 04
2026-06-06T15:05:17.374982,7.396,can0  120  [04]  00 00 00 00
2026-06-06T15:05:17.375016,7.396,can0  041  [04]  55 01 19 00
2026-06-06T15:05:17.375050,7.396,can0  204  [16]  E1 22 74 44 29 2A 00 00 28 23 30 75 30 75 00 00
2026-06-06T15:05:17.375086,7.396,can0  060  [32]  00 00 00 00 CC 2C 4D 08 1B 04 B8 10 00 00 10 0E FF 01 00 00 00 00 00 00 01 00 00 00 00 00 00 00
2026-06-06T15:05:17.375420,7.397,can0  204  [16]  E1 22 74 44 29 2A 00 00 28 23 30 75 30 75 00 00
2026-06-06T15:05:17.379988,7.401,can0  040  [04]  29 00 12 00
2026-06-06T15:05:17.474619,7.496,can0  204  [16]  E1 22 70 44 2F 2A 00 00 28 23 30 75 30 75 00 00
2026-06-06T15:05:17.576772,7.598,can0  204  [16]  E1 22 70 44 34 2A 00 00 28 23 30 75 30 75 00 00
2026-06-06T15:05:17.576822,7.598,can0  204  [16]  E1 22 70 44 34 2A 00 00 28 23 30 75 30 75 00 00
2026-06-06T15:05:17.576856,7.598,can0  041  [04]  4B 01 18 00
2026-06-06T15:05:17.674685,7.696,can0  204  [16]  E1 22 72 44 2B 2A 00 00 28 23 30 75 30 75 00 00
2026-06-06T15:05:17.674925,7.696,can0  204  [16]  E1 22 72 44 2B 2A 00 00 28 23 30 75 30 75 00 00
2026-06-06T15:05:17.675147,7.697,can0  040  [04]  2C 00 0E 00
2026-06-06T15:05:17.774564,7.796,can0  204  [16]  E1 22 72 44 2D 2A 00 00 28 23 30 75 30 75 00 00
2026-06-06T15:05:17.774806,7.796,can0  204  [16]  E1 22 72 44 2D 2A 00 00 28 23 30 75 30 75 00 00
2026-06-06T15:05:17.774989,7.796,can0  070  [20]  CC 2C 4D 08 C7 AE 62 03 38 4A 00 00 05 16 00 00 11 00 00 00
2026-06-06T15:05:17.874586,7.896,can0  041  [04]  49 01 17 00
2026-06-06T15:05:17.874640,7.896,can0  204  [16]  E1 22 6F 44 2F 2A 00 00 28 23 30 75 30 75 00 00
2026-06-06T15:05:17.874706,7.896,can0  070  [20]  CC 2C 4D 08 C7 AE 62 03 38 4A 00 00 05 16 00 00 11 00 00 00
2026-06-06T15:05:17.877059,7.898,can0  206  [24]  D0 0C C9 05 1A 0D 99 C6 76 06 1F 0D F3 0C 00 00 00 00 00 00 00 00 00 00
2026-06-06T15:05:17.978768,8.000,can0  204  [16]  E1 22 72 44 2F 2A 00 00 28 23 30 75 30 75 00 00
2026-06-06T15:05:17.978819,8.000,can0  040  [04]  21 00 0A 00
2026-06-06T15:05:17.978854,8.000,can0  204  [16]  E1 22 72 44 2F 2A 00 00 28 23 30 75 30 75 00 00
2026-06-06T15:05:18.074450,8.096,can0  204  [16]  E1 22 75 44 29 2A 00 00 28 23 30 75 30 75 00 00
2026-06-06T15:05:18.074686,8.096,can0  204  [16]  E1 22 75 44 29 2A 00 00 28 23 30 75 30 75 00 00
2026-06-06T15:05:18.174525,8.196,can0  041  [04]  4F 01 16 00
2026-06-06T15:05:18.174778,8.196,can0  204  [16]  E1 22 73 44 27 2A 00 00 28 23 30 75 30 75 00 00
2026-06-06T15:05:18.274768,8.296,can0  070  [20]  CC 2C 4D 08 C7 AE 62 03 20 4E 00 00 05 16 00 00 1A 00 00 00
2026-06-06T15:05:18.275113,8.297,can0  040  [04]  1C 00 0A 00
2026-06-06T15:05:18.275266,8.297,can0  204  [16]  E1 22 71 44 25 2A 00 00 28 23 30 75 30 75 00 00
2026-06-06T15:05:18.275363,8.297,can0  070  [20]  CC 2C 4D 08 C7 AE 62 03 20 4E 00 00 05 16 00 00 1A 00 00 00
2026-06-06T15:05:18.279521,8.301,can0  204  [16]  E1 22 71 44 25 2A 00 00 28 23 30 75 30 75 00 00
2026-06-06T15:05:18.374228,8.396,can0  070  [20]  CC 2C 4D 08 C7 AE 62 03 20 4E 00 00 05 16 00 00 1A 00 00 00
2026-06-06T15:05:18.374624,8.396,can0  204  [16]  E1 22 6D 44 18 2A 00 00 28 23 30 75 30 75 00 00
2026-06-06T15:05:18.374800,8.396,can0  060  [32]  EB DC D5 02 3F C0 4D 08 9B DD 62 03 4D 00 C0 09 FF 01 00 00 00 00 00 00 02 00 00 00 00 00 00 00
2026-06-06T15:05:18.375014,8.396,can0  041  [04]  52 01 16 00
2026-06-06T15:05:18.375064,8.396,can0  060  [32]  00 00 00 00 CC 2C 4D 08 1B 04 B8 10 00 00 10 0E FF 01 00 00 00 00 00 01 02 00 00 00 00 00 00 00
2026-06-06T15:05:18.475201,8.497,can0  204  [16]  E1 22 71 44 31 2A 00 00 28 23 30 75 30 75 00 00
2026-06-06T15:05:18.475401,8.497,can0  040  [04]  15 00 09 00
2026-06-06T15:05:18.480348,8.502,can0  204  [16]  E1 22 71 44 31 2A 00 00 28 23 30 75 30 75 00 00
2026-06-06T15:05:18.574479,8.596,can0  100  [03]  F7 71 04
2026-06-06T15:05:18.574663,8.596,can0  110  [02]  26 1B
2026-06-06T15:05:18.574795,8.596,can0  120  [04]  00 00 00 00
2026-06-06T15:05:18.574992,8.596,can0  204  [16]  E1 22 73 44 29 2A 00 00 28 23 30 75 30 75 00 00
2026-06-06T15:05:18.581392,8.603,can0  206  [24]  C5 0C CA 05 20 0D 99 C6 76 06 1F 0D F8 0C 00 00 00 00 00 00 00 00 00 00
2026-06-06T15:05:18.581432,8.603,can0  204  [16]  E1 22 73 44 29 2A 00 00 28 23 30 75 30 75 00 00
2026-06-06T15:05:18.674807,8.696,can0  204  [16]  E1 22 74 44 29 2A 00 00 28 23 30 75 30 75 00 00
2026-06-06T15:05:18.674984,8.696,can0  041  [04]  49 01 19 00
2026-06-06T15:05:18.774749,8.796,can0  204  [16]  E1 22 73 44 3C 2A 00 00 28 23 30 75 30 75 00 00
2026-06-06T15:05:18.779685,8.801,can0  040  [04]  25 00 07 00
2026-06-06T15:05:18.779732,8.801,can0  204  [16]  E1 22 73 44 3C 2A 00 00 28 23 30 75 30 75 00 00
2026-06-06T15:05:18.875110,8.897,can0  070  [20]  CC 2C 4D 08 C7 AE 62 03 20 4E 00 00 05 16 00 00 1A 00 00 00
2026-06-06T15:05:18.875588,8.897,can0  204  [16]  E1 22 73 44 29 2A 00 00 28 23 30 75 30 75 00 00
2026-06-06T15:05:18.875625,8.897,can0  204  [16]  E1 22 73 44 29 2A 00 00 28 23 30 75 30 75 00 00
2026-06-06T15:05:18.875658,8.897,can0  070  [20]  CC 2C 4D 08 C7 AE 62 03 20 4E 00 00 05 16 00 00 1A 00 00 00
2026-06-06T15:05:18.880214,8.902,can0  060  [32]  00 00 00 00 00 00 00 00 00 00 00 00 00 00 00 00 00 00 00 00 00 00 00 00 00 00 00 00 00 00 00 00
2026-06-06T15:05:18.974540,8.996,can0  041  [04]  46 01 1B 00
2026-06-06T15:05:18.974797,8.996,can0  204  [16]  E1 22 6E 44 2D 2A 00 00 28 23 30 75 30 75 00 00
2026-06-06T15:05:18.979743,9.001,can0  204  [16]  E1 22 6E 44 2D 2A 00 00 28 23 30 75 30 75 00 00
2026-06-06T15:05:18.979796,9.001,can0  040  [04]  39 00 07 00
2026-06-06T15:05:19.079404,9.101,can0  204  [16]  E1 22 69 44 21 2A 00 00 28 23 30 75 30 75 00 00
2026-06-06T15:05:19.176776,9.198,can0  204  [16]  E1 22 69 44 21 2A 00 00 28 23 30 75 30 75 00 00
2026-06-06T15:05:19.176828,9.198,can0  041  [04]  42 01 22 00
2026-06-06T15:05:19.176862,9.198,can0  204  [16]  E1 22 6D 44 3A 2A 00 00 28 23 30 75 30 75 00 00
2026-06-06T15:05:19.176896,9.198,can0  070  [20]  CC 2C 4D 08 C5 AE 62 03 08 52 00 00 05 16 00 00 0F 00 00 00
2026-06-06T15:05:19.276361,9.298,can0  206  [24]  CA 0C CB 05 1B 0D 99 C6 73 06 24 0D F3 0C 00 00 00 00 00 00 00 00 00 00
2026-06-06T15:05:19.276499,9.298,can0  070  [20]  CC 2C 4D 08 C5 AE 62 03 08 52 00 00 05 16 00 00 0E 00 00 00
2026-06-06T15:05:19.276857,9.298,can0  204  [16]  E1 22 73 44 2F 2A 00 00 28 23 30 75 30 75 00 00
2026-06-06T15:05:19.281183,9.303,can0  040  [04]  3E 00 09 00
2026-06-06T15:05:19.374374,9.396,can0  204  [16]  E1 22 77 44 40 2A 00 00 28 23 30 75 30 75 00 00
2026-06-06T15:05:19.374508,9.396,can0  070  [20]  CC 2C 4D 08 C5 AE 62 03 08 52 00 00 05 16 00 00 0E 00 00 00
2026-06-06T15:05:19.374826,9.396,can0  204  [16]  E1 22 77 44 40 2A 00 00 28 23 30 75 30 75 00 00
2026-06-06T15:05:19.474990,9.496,can0  060  [32]  00 00 00 00 CC 2C 4D 08 1A 04 B8 10 00 00 10 0E FF 01 00 00 00 00 00 00 01 00 00 00 00 00 00 00
2026-06-06T15:05:19.475468,9.497,can0  204  [16]  E1 22 70 44 2B 2A 00 00 28 23 30 75 30 75 00 00
2026-06-06T15:05:19.475614,9.497,can0  041  [04]  44 01 24 00
2026-06-06T15:05:19.475751,9.497,can0  204  [16]  E1 22 70 44 2B 2A 00 00 28 23 30 75 30 75 00 00
2026-06-06T15:05:19.674734,9.696,can0  040  [04]  3E 00 0A 00
2026-06-06T15:05:19.674974,9.696,can0  204  [16]  E1 22 6C 44 3E 2A 00 00 28 23 30 75 30 75 00 00
2026-06-06T15:05:19.675182,9.697,can0  204  [16]  E1 22 6A 44 27 2A 00 00 28 23 30 75 30 75 00 00
2026-06-06T15:05:19.679812,9.701,can0  204  [16]  E1 22 6A 44 27 2A 00 00 28 23 30 75 30 75 00 00
2026-06-06T15:05:19.974398,9.996,can0  100  [03]  F4 71 04
2026-06-06T15:05:19.974601,9.996,can0  120  [04]  00 00 00 00
2026-06-06T15:05:19.974728,9.996,can0  041  [04]  4A 01 25 00
2026-06-06T15:05:19.974912,9.996,can0  204  [16]  E1 22 6C 44 44 2A 00 00 28 23 30 75 30 75 00 00
2026-06-06T15:05:19.975077,9.996,can0  204  [16]  E1 22 6C 44 44 2A 00 00 28 23 30 75 30 75 00 00
2026-06-06T15:05:19.975202,9.997,can0  040  [04]  33 00 07 00
2026-06-06T15:05:19.975348,9.997,can0  204  [16]  E1 22 6F 44 2B 2A 00 00 28 23 30 75 30 75 00 00
2026-06-06T15:05:19.975422,9.997,can0  070  [20]  CC 2C 4D 08 C5 AE 62 03 08 52 00 00 05 16 00 00 0E 00 00 00
2026-06-06T15:05:19.977604,9.999,can0  206  [24]  CB 0C C8 05 15 0D 99 C6 74 06 1B 0D F8 0C 00 00 00 00 00 00 00 00 00 00
2026-06-06T15:05:19.977768,9.999,can0  060  [32]  00 00 00 00 00 00 00 00 00 00 00 00 00 00 00 00 00 00 00 00 00 00 00 00 00 00 00 00 00 00 00 00
2026-06-06T15:05:19.982146,10.004,can0  204  [16]  E1 22 73 44 48 2A 00 00 28 23 30 75 30 75 00 00
2026-06-06T15:05:20.174623,10.196,can0  204  [16]  E1 22 73 44 48 2A 00 00 28 23 30 75 30 75 00 00
2026-06-06T15:05:20.174803,10.196,can0  041  [04]  50 01 1F 00
2026-06-06T15:05:20.174980,10.196,can0  204  [16]  E1 22 75 44 27 2A 00 00 28 23 30 75 30 75 00 00
2026-06-06T15:05:20.175087,10.196,can0  060  [32]  12 63 11 00 50 82 4D 08 25 D8 62 03 03 00 34 01 2B 01 78 00 00 00 00 00 01 00 00 00 00 00 00 00
2026-06-06T15:05:20.175384,10.197,can0  040  [04]  0B 00 05 00
2026-06-06T15:05:20.175511,10.197,can0  204  [16]  E1 22 75 44 27 2A 00 00 28 23 30 75 30 75 00 00
2026-06-06T15:05:20.274420,10.296,can0  110  [02]  25 1B
2026-06-06T15:05:20.274723,10.296,can0  204  [16]  E1 22 6F 44 29 2A 00 00 28 23 30 75 30 75 00 00
2026-06-06T15:05:20.274836,10.296,can0  070  [20]  CA 2C 4D 08 C5 AE 62 03 F0 55 00 00 05 16 00 00 1E 00 00 00
2026-06-06T15:05:20.275371,10.297,can0  204  [16]  E1 22 6E 44 34 2A 00 00 28 23 30 75 30 75 00 00
2026-06-06T15:05:20.275446,10.297,can0  070  [20]  CA 2C 4D 08 C5 AE 62 03 F0 55 00 00 05 16 00 00 1D 00 00 00
2026-06-06T15:05:20.275743,10.297,can0  041  [04]  5B 01 1A 00
2026-06-06T15:05:20.275879,10.297,can0  204  [16]  E1 22 6E 44 34 2A 00 00 28 23 30 75 30 75 00 00
2026-06-06T15:05:20.374424,10.396,can0  070  [20]  CA 2C 4D 08 C5 AE 62 03 F0 55 00 00 05 16 00 00 1D 00 00 00
2026-06-06T15:05:20.374763,10.396,can0  204  [16]  E1 22 68 44 3E 2A 00 00 28 23 30 75 30 75 00 00
2026-06-06T15:05:20.379369,10.401,can0  040  [04]  4D 01 05 00
2026-06-06T15:05:20.474977,10.496,can0  204  [16]  E1 22 68 44 3E 2A 00 00 28 23 30 75 30 75 00 00
2026-06-06T15:05:20.574983,10.596,can0  204  [16]  E1 22 6C 44 3C 2A 00 00 28 23 30 75 30 75 00 00
2026-06-06T15:05:20.575214,10.597,can0  204  [16]  E1 22 70 44 38 2A 00 00 28 23 30 75 30 75 00 00
2026-06-06T15:05:20.575362,10.597,can0  041  [04]  5E 01 17 00
2026-06-06T15:05:20.577452,10.599,can0  206  [24]  CB 0C CB 05 06 0D 99 C6 75 06 2A 0D F8 0C 00 00 00 00 00 00 00 00 00 00
2026-06-06T15:05:20.675096,10.696,can0  204  [16]  E1 22 70 44 38 2A 00 00 28 23 30 75 30 75 00 00
2026-06-06T15:05:20.675319,10.697,can0  130  [00]
2026-06-06T15:05:20.680207,10.702,can0  040  [04]  54 01 07 00
2026-06-06T15:05:20.680252,10.702,can0  204  [16]  E1 22 72 44 36 2A 00 00 28 23 30 75 30 75 00 00
2026-06-06T15:05:20.775002,10.796,can0  132  [00]
2026-06-06T15:05:20.775243,10.797,can0  204  [16]  E1 22 72 44 36 2A 00 00 28 23 30 75 30 75 00 00
2026-06-06T15:05:20.874269,10.896,can0  204  [16]  E1 22 70 44 38 2A 00 00 28 23 30 75 30 75 00 00
2026-06-06T15:05:20.874582,10.896,can0  041  [04]  61 01 16 00
2026-06-06T15:05:20.874781,10.896,can0  204  [16]  E1 22 6C 44 2B 2A 00 00 28 23 30 75 30 75 00 00
2026-06-06T15:05:20.874885,10.896,can0  070  [20]  CA 2C 4D 08 C5 AE 62 03 F0 55 00 00 05 16 00 00 1D 00 00 00
2026-06-06T15:05:20.875111,10.896,can0  040  [04]  67 01 09 00
2026-06-06T15:05:20.879734,10.901,can0  204  [16]  E1 22 6C 44 2B 2A 00 00 28 23 30 75 30 75 00 00
2026-06-06T15:05:20.975025,10.996,can0  070  [20]  CA 2C 4D 08 C5 AE 62 03 F0 55 00 00 05 16 00 00 1D 00 00 00
2026-06-06T15:05:20.980239,11.002,can0  100  [03]  F4 71 04
2026-06-06T15:05:20.980286,11.002,can0  120  [04]  00 00 00 00
2026-06-06T15:05:21.079768,11.101,can0  204  [16]  E1 22 6B 44 1C 2A 00 00 28 23 30 75 30 75 00 00
2026-06-06T15:05:21.079819,11.101,can0  204  [16]  E1 22 6B 44 1C 2A 00 00 28 23 30 75 30 75 00 00
2026-06-06T15:05:21.079853,11.101,can0  204  [16]  E1 22 6E 44 23 2A 00 00 28 23 30 75 30 75 00 00
2026-06-06T15:05:21.079888,11.101,can0  041  [04]  5D 01 19 00
2026-06-06T15:05:21.179453,11.201,can0  204  [16]  E1 22 6E 44 23 2A 00 00 28 23 30 75 30 75 00 00
2026-06-06T15:05:21.179503,11.201,can0  040  [04]  67 01 08 00
2026-06-06T15:05:21.277024,11.298,can0  204  [16]  E1 22 6F 44 23 2A 00 00 28 23 30 75 30 75 00 00
2026-06-06T15:05:21.277078,11.298,can0  070  [20]  CA 2C 4D 08 C5 AE 62 03 D8 59 00 00 05 16 00 00 09 00 00 00
2026-06-06T15:05:21.277113,11.299,can0  206  [24]  D0 0C CA 05 01 0D 99 C6 78 06 2A 0D F8 0C 00 00 00 00 00 00 00 00 00 00
2026-06-06T15:05:21.277320,11.299,can0  204  [16]  E1 22 72 44 34 2A 00 00 28 23 30 75 30 75 00 00
2026-06-06T15:05:21.277450,11.299,can0  070  [20]  CA 2C 4D 08 C5 AE 62 03 D8 59 00 00 05 16 00 00 0A 00 00 00
2026-06-06T15:05:21.374537,11.396,can0  204  [16]  E1 22 72 44 34 2A 00 00 28 23 30 75 30 75 00 00
2026-06-06T15:05:21.374767,11.396,can0  041  [04]  5B 01 1D 00
2026-06-06T15:05:21.474929,11.496,can0  070  [20]  CA 2C 4D 08 C5 AE 62 03 D8 59 00 00 05 16 00 00 0A 00 00 00
2026-06-06T15:05:21.475421,11.497,can0  204  [16]  E1 22 73 44 36 2A 00 00 28 23 30 75 30 75 00 00
2026-06-06T15:05:21.475459,11.497,can0  060  [32]  BC 56 8B 00 FC 35 4D 08 0A AF B8 10 01 00 7F 08 D9 00 00 00 00 00 00 00 02 00 00 00 00 00 00 00
2026-06-06T15:05:21.475641,11.497,can0  204  [16]  E1 22 72 44 36 2A 00 00 28 23 30 75 30 75 00 00
2026-06-06T15:05:21.475676,11.497,can0  060  [32]  00 00 00 00 CA 2C 4D 08 1A 04 B8 10 00 00 10 0E FF 01 00 00 00 00 00 01 02 00 00 00 00 00 00 00
2026-06-06T15:05:21.475987,11.497,can0  040  [04]  67 01 08 00
2026-06-06T15:05:21.480120,11.502,can0  204  [16]  E1 22 72 44 36 2A 00 00 28 23 30 75 30 75 00 00
2026-06-06T15:05:21.674423,11.696,can0  204  [16]  E1 22 70 44 31 2A 00 00 28 23 30 75 30 75 00 00
2026-06-06T15:05:21.674638,11.696,can0  041  [04]  56 01 1D 00
2026-06-06T15:05:21.674812,11.696,can0  204  [16]  E1 22 70 44 31 2A 00 00 28 23 30 75 30 75 00 00
2026-06-06T15:05:21.674988,11.696,can0  204  [16]  E1 22 6F 44 34 2A 00 00 28 23 30 75 30 75 00 00
2026-06-06T15:05:21.679142,11.701,can0  040  [04]  67 01 06 00
2026-06-06T15:05:21.775067,11.796,can0  110  [02]  25 1B
2026-06-06T15:05:21.775301,11.797,can0  204  [16]  E1 22 6E 44 2F 2A 00 00 28 23 30 75 30 75 00 00
2026-06-06T15:05:21.874182,11.896,can0  204  [16]  E1 22 6E 44 2F 2A 00 00 28 23 30 75 30 75 00 00
2026-06-06T15:05:21.874358,11.896,can0  070  [20]  CA 2C 4D 08 C5 AE 62 03 D8 59 00 00 05 16 00 00 0A 00 00 00
2026-06-06T15:05:21.874658,11.896,can0  204  [16]  E1 22 6C 44 2B 2A 00 00 28 23 30 75 30 75 00 00
2026-06-06T15:05:21.874785,11.896,can0  041  [04]  53 01 1C 00
2026-06-06T15:05:21.876902,11.898,can0  206  [24]  C6 0C C9 05 06 0D 99 C6 7C 06 25 0D 02 0D 00 00 00 00 00 00 00 00 00 00
2026-06-06T15:05:21.877012,11.898,can0  070  [20]  CA 2C 4D 08 C5 AE 62 03 D8 59 00 00 05 16 00 00 0A 00 00 00
2026-06-06T15:05:21.881390,11.903,can0  204  [16]  E1 22 6C 44 2B 2A 00 00 28 23 30 75 30 75 00 00
2026-06-06T15:05:21.974666,11.996,can0  060  [32]  00 00 00 00 00 00 00 00 00 00 00 00 00 00 00 00 00 00 00 00 00 00 00 00 00 00 00 00 00 00 00 00
2026-06-06T15:05:21.974824,11.996,can0  040  [04]  67 01 06 00
2026-06-06T15:05:22.074469,12.096,can0  204  [16]  E1 22 6E 44 31 2A 00 00 28 23 30 75 30 75 00 00
2026-06-06T15:05:22.074713,12.096,can0  204  [16]  E1 22 71 44 2F 2A 00 00 28 23 30 75 30 75 00 00
2026-06-06T15:05:22.074876,12.096,can0  204  [16]  E1 22 71 44 2F 2A 00 00 28 23 30 75 30 75 00 00
2026-06-06T15:05:22.174307,12.196,can0  100  [03]  F4 71 04
2026-06-06T15:05:22.174477,12.196,can0  120  [04]  00 00 00 00
2026-06-06T15:05:22.174790,12.196,can0  041  [04]  56 01 17 00
2026-06-06T15:05:22.174825,12.196,can0  204  [16]  E1 22 71 44 2F 2A 00 00 28 23 30 75 30 75 00 00
2026-06-06T15:05:22.274832,12.296,can0  133  [00]
2026-06-06T15:05:22.274884,12.296,can0  070  [20]  CA 2C 4D 08 C3 AE 62 03 C0 5D 00 00 05 16 00 00 21 00 00 00
2026-06-06T15:05:22.275345,12.297,can0  204  [16]  E1 22 75 44 29 2A 00 00 28 23 30 75 30 75 00 00
2026-06-06T15:05:22.275380,12.297,can0  040  [04]  67 01 08 00
2026-06-06T15:05:22.275414,12.297,can0  204  [16]  E1 22 71 44 34 2A 00 00 28 23 30 75 30 75 00 00
2026-06-06T15:05:22.275453,12.297,can0  070  [20]  CA 2C 4D 08 C3 AE 62 03 C0 5D 00 00 05 16 00 00 21 00 00 00
2026-06-06T15:05:22.374197,12.396,can0  070  [20]  CA 2C 4D 08 C3 AE 62 03 C0 5D 00 00 05 16 00 00 21 00 00 00
2026-06-06T15:05:22.374454,12.396,can0  204  [16]  E1 22 6F 44 31 2A 00 00 28 23 30 75 30 75 00 00
2026-06-06T15:05:22.475208,12.497,can0  204  [16]  E1 22 6F 44 31 2A 00 00 28 23 30 75 30 75 00 00
2026-06-06T15:05:22.475260,12.497,can0  041  [04]  02 00 17 00
2026-06-06T15:05:22.475295,12.497,can0  060  [32]  00 00 00 00 CA 2C 4D 08 18 04 B8 10 00 00 10 0E FF 01 00 00 00 00 00 00 01 00 00 00 00 00 00 00
2026-06-06T15:05:22.475331,12.497,can0  204  [16]  E1 22 6F 44 25 2A 00 00 28 23 30 75 30 75 00 00
2026-06-06T15:05:22.475378,12.497,can0  040  [04]  67 01 08 00
2026-06-06T15:05:22.575001,12.596,can0  204  [16]  E1 22 6F 44 25 2A 00 00 28 23 30 75 30 75 00 00
2026-06-06T15:05:22.577178,12.599,can0  206  [24]  CB 0C C8 05 FC 0C 99 C6 7B 06 2A 0D 02 0D 00 00 00 00 00 00 00 00 00 00
2026-06-06T15:05:22.577456,12.599,can0  204  [16]  E1 22 70 44 29 2A 00 00 28 23 30 75 30 75 00 00
2026-06-06T15:05:22.775069,12.796,can0  204  [16]  E1 22 70 44 25 2A 00 00 28 23 30 75 30 75 00 00
2026-06-06T15:05:22.780257,12.802,can0  041  [04]  06 00 16 00
2026-06-06T15:05:22.780298,12.802,can0  204  [16]  E1 22 70 44 25 2A 00 00 28 23 30 75 30 75 00 00
2026-06-06T15:05:22.780332,12.802,can0  040  [04]  67 01 09 00
2026-06-06T15:05:22.780374,12.802,can0  204  [16]  E1 22 71 44 27 2A 00 00 28 23 30 75 30 75 00 00
2026-06-06T15:05:22.875271,12.897,can0  204  [16]  E1 22 71 44 27 2A 00 00 28 23 30 75 30 75 00 00
2026-06-06T15:05:22.875324,12.897,can0  070  [20]  CA 2C 4D 08 C3 AE 62 03 C0 5D 00 00 05 16 00 00 21 00 00 00
2026-06-06T15:05:22.875484,12.897,can0  204  [16]  E1 22 70 44 27 2A 00 00 28 23 30 75 30 75 00 00
2026-06-06T15:05:22.875556,12.897,can0  070  [20]  CA 2C 4D 08 C3 AE 62 03 C0 5D 00 00 05 16 00 00 21 00 00 00
2026-06-06T15:05:22.974753,12.996,can0  060  [32]  00 00 00 00 00 00 00 00 00 00 00 00 00 00 00 00 00 00 00 00 00 00 00 00 00 00 00 00 00 00 00 00
2026-06-06T15:05:22.974983,12.996,can0  041  [04]  02 00 15 00
2026-06-06T15:05:22.979750,13.001,can0  204  [16]  E1 22 72 44 2D 2A 00 00 28 23 30 75 30 75 00 00
2026-06-06T15:05:23.074982,13.096,can0  204  [16]  E1 22 72 44 2D 2A 00 00 28 23 30 75 30 75 00 00
2026-06-06T15:05:23.075155,13.097,can0  040  [04]  5C 01 08 00
2026-06-06T15:05:23.075334,13.097,can0  204  [16]  E1 22 70 44 2D 2A 00 00 28 23 30 75 30 75 00 00
2026-06-06T15:05:23.080067,13.101,can0  204  [16]  E1 22 70 44 2D 2A 00 00 28 23 30 75 30 75 00 00
2026-06-06T15:05:23.174344,13.196,can0  204  [16]  E1 22 6F 44 2B 2A 00 00 28 23 30 75 30 75 00 00
2026-06-06T15:05:23.274113,13.296,can0  041  [04]  67 01 15 00
2026-06-06T15:05:23.276336,13.298,can0  206  [24]  CB 0C C9 05 06 0D 99 C6 7B 06 25 0D FD 0C 00 00 00 00 00 00 00 00 00 00
2026-06-06T15:05:23.276878,13.298,can0  070  [20]  CA 2C 4D 08 C3 AE 62 03 A8 61 00 00 05 16 00 00 09 00 00 00
2026-06-06T15:05:23.276917,13.298,can0  204  [16]  E1 22 70 44 2B 2A 00 00 28 23 30 75 30 75 00 00
2026-06-06T15:05:23.276951,13.298,can0  070  [20]  CA 2C 4D 08 C3 AE 62 03 A8 61 00 00 05 16 00 00 09 00 00 00
2026-06-06T15:05:23.277084,13.298,can0  040  [04]  48 01 08 00
2026-06-06T15:05:23.281903,13.303,can0  204  [16]  E1 22 70 44 2B 2A 00 00 28 23 30 75 30 75 00 00
2026-06-06T15:05:23.374650,13.396,can0  100  [03]  F1 71 04
2026-06-06T15:05:23.375014,13.396,can0  110  [02]  25 1B
2026-06-06T15:05:23.375054,13.396,can0  120  [04]  00 00 00 00
2026-06-06T15:05:23.375149,13.397,can0  070  [20]  CA 2C 4D 08 C3 AE 62 03 A8 61 00 00 05 16 00 00 09 00 00 00
2026-06-06T15:05:23.379926,13.401,can0  204  [16]  E1 22 71 44 27 2A 00 00 28 23 30 75 30 75 00 00
2026-06-06T15:05:23.474511,13.496,can0  204  [16]  E1 22 71 44 27 2A 00 00 28 23 30 75 30 75 00 00
2026-06-06T15:05:23.474663,13.496,can0  060  [32]  00 00 00 00 CA 2C 4D 08 18 04 B8 10 00 00 10 0E FF 01 00 00 00 00 00 00 01 00 00 00 00 00 00 00
2026-06-06T15:05:23.479709,13.501,can0  041  [04]  67 01 16 00
2026-06-06T15:05:23.479750,13.501,can0  204  [16]  E1 22 72 44 29 2A 00 00 28 23 30 75 30 75 00 00
2026-06-06T15:05:23.575223,13.597,can0  204  [16]  E1 22 70 44 2F 2A 00 00 28 23 30 75 30 75 00 00
2026-06-06T15:05:23.575276,13.597,can0  040  [04]  3A 01 07 00
2026-06-06T15:05:23.575416,13.597,can0  204  [16]  E1 22 70 44 2F 2A 00 00 28 23 30 75 30 75 00 00
2026-06-06T15:05:23.774735,13.796,can0  204  [16]  E1 22 70 44 31 2A 00 00 28 23 30 75 30 75 00 00
2026-06-06T15:05:23.774917,13.796,can0  204  [16]  E1 22 70 44 31 2A 00 00 28 23 30 75 30 75 00 00
2026-06-06T15:05:23.775059,13.796,can0  041  [04]  02 00 17 00
2026-06-06T15:05:23.775217,13.797,can0  204  [16]  E1 22 6E 44 38 2A 00 00 28 23 30 75 30 75 00 00
2026-06-06T15:05:23.777532,13.799,can0  040  [04]  3A 01 05 00
2026-06-06T15:05:23.874377,13.896,can0  204  [16]  E1 22 6F 44 2D 2A 00 00 28 23 30 75 30 75 00 00
2026-06-06T15:05:23.874541,13.896,can0  070  [20]  CA 2C 4D 08 C3 AE 62 03 A8 61 00 00 05 16 00 00 09 00 00 00
2026-06-06T15:05:23.876713,13.898,can0  206  [24]  CB 0C C8 05 01 0D 99 C6 7D 06 2F 0D FD 0C 00 00 00 00 00 00 00 00 00 00
2026-06-06T15:05:23.876916,13.898,can0  204  [16]  E1 22 6F 44 2D 2A 00 00 28 23 30 75 30 75 00 00
2026-06-06T15:05:23.974204,13.996,can0  070  [20]  CA 2C 4D 08 C3 AE 62 03 A8 61 00 00 05 16 00 00 09 00 00 00
2026-06-06T15:05:23.974369,13.996,can0  060  [32]  00 00 00 00 00 00 00 00 00 00 00 00 00 00 00 00 00 00 00 00 00 00 00 00 00 00 00 00 00 00 00 00
2026-06-06T15:05:23.974649,13.996,can0  204  [16]  E1 22 6E 44 36 2A 00 00 28 23 30 75 30 75 00 00
2026-06-06T15:05:23.974813,13.996,can0  041  [04]  67 01 15 00
2026-06-06T15:05:23.979793,14.001,can0  204  [16]  E1 22 6E 44 36 2A 00 00 28 23 30 75 30 75 00 00
2026-06-06T15:05:24.074903,14.096,can0  204  [16]  E1 22 6F 44 34 2A 00 00 28 23 30 75 30 75 00 00
2026-06-06T15:05:24.079625,14.101,can0  040  [04]  4D 01 05 00
2026-06-06T15:05:24.174552,14.196,can0  204  [16]  E1 22 6F 44 34 2A 00 00 28 23 30 75 30 75 00 00
2026-06-06T15:05:24.179421,14.201,can0  204  [16]  E1 22 6D 44 34 2A 00 00 28 23 30 75 30 75 00 00
2026-06-06T15:05:24.179463,14.201,can0  070  [20]  CA 2C 4D 08 C3 AE 62 03 90 65 00 00 05 16 00 00 36 00 00 00
2026-06-06T15:05:24.279461,14.301,can0  070  [20]  CA 2C 4D 08 C3 AE 62 03 90 65 00 00 05 16 00 00 36 00 00 00
2026-06-06T15:05:24.279514,14.301,can0  204  [16]  E1 22 70 44 31 2A 00 00 28 23 30 75 30 75 00 00
2026-06-06T15:05:24.279549,14.301,can0  041  [04]  66 01 11 00
2026-06-06T15:05:24.374642,14.396,can0  204  [16]  E1 22 70 44 31 2A 00 00 28 23 30 75 30 75 00 00
2026-06-06T15:05:24.374830,14.396,can0  070  [20]  CA 2C 4D 08 C3 AE 62 03 90 65 00 00 05 16 00 00 36 00 00 00
2026-06-06T15:05:24.375099,14.396,can0  040  [04]  67 01 06 00
2026-06-06T15:05:24.375300,14.397,can0  204  [16]  E1 22 6E 44 31 2A 00 00 28 23 30 75 30 75 00 00
2026-06-06T15:05:24.474628,14.496,can0  204  [16]  E1 22 70 44 2D 2A 00 00 28 23 30 75 30 75 00 00
2026-06-06T15:05:24.474803,14.496,can0  060  [32]  00 00 00 00 CA 2C 4D 08 18 04 B8 10 00 00 10 0E FF 01 00 00 00 00 00 00 01 00 00 00 00 00 00 00
2026-06-06T15:05:24.479366,14.501,can0  204  [16]  E1 22 70 44 2D 2A 00 00 28 23 30 75 30 75 00 00
2026-06-06T15:05:24.575104,14.596,can0  100  [03]  F5 71 04
2026-06-06T15:05:24.577415,14.599,can0  120  [04]  00 00 00 00
2026-06-06T15:05:24.577455,14.599,can0  041  [04]  0D 00 0F 00
2026-06-06T15:05:24.577490,14.599,can0  206  [24]  C6 0C C7 05 0B 0D 99 C6 78 06 25 0D FD 0C 00 00 00 00 00 00 00 00 00 00
2026-06-06T15:05:24.577671,14.599,can0  204  [16]  E1 22 6E 44 38 2A 00 00 28 23 30 75 30 75 00 00
2026-06-06T15:05:24.577820,14.599,can0  040  [04]  67 01 06 00
2026-06-06T15:05:24.582302,14.604,can0  204  [16]  E1 22 6E 44 38 2A 00 00 28 23 30 75 30 75 00 00
2026-06-06T15:05:24.674647,14.696,can0  204  [16]  E1 22 6C 44 2F 2A 00 00 28 23 30 75 30 75 00 00
2026-06-06T15:05:24.774436,14.796,can0  204  [16]  E1 22 6E 44 34 2A 00 00 28 23 30 75 30 75 00 00
2026-06-06T15:05:24.774490,14.796,can0  204  [16]  E1 22 6E 44 34 2A 00 00 28 23 30 75 30 75 00 00
2026-06-06T15:05:24.774643,14.796,can0  041  [04]  11 00 0F 00
2026-06-06T15:05:24.874555,14.896,can0  070  [20]  CA 2C 4D 08 C3 AE 62 03 90 65 00 00 05 16 00 00 36 00 00 00
2026-06-06T15:05:24.879075,14.900,can0  204  [16]  E1 22 72 44 34 2A 00 00 28 23 30 75 30 75 00 00
2026-06-06T15:05:24.879120,14.901,can0  040  [04]  67 01 06 00
2026-06-06T15:05:24.974350,14.996,can0  204  [16]  E1 22 72 44 34 2A 00 00 28 23 30 75 30 75 00 00
2026-06-06T15:05:24.974462,14.996,can0  070  [20]  CA 2C 4D 08 C3 AE 62 03 90 65 00 00 05 16 00 00 36 00 00 00
2026-06-06T15:05:24.979179,15.001,can0  110  [02]  24 1B
2026-06-06T15:05:24.979224,15.001,can0  204  [16]  E1 22 71 44 31 2A 00 00 28 23 30 75 30 75 00 00
2026-06-06T15:05:25.074394,15.096,can0  204  [16]  E1 22 70 44 29 2A 00 00 28 23 30 75 30 75 00 00
2026-06-06T15:05:25.074540,15.096,can0  041  [04]  14 00 0C 00
2026-06-06T15:05:25.079420,15.101,can0  204  [16]  E1 22 70 44 29 2A 00 00 28 23 30 75 30 75 00 00
2026-06-06T15:05:25.174990,15.196,can0  040  [04]  0D 00 09 00
2026-06-06T15:05:25.179964,15.201,can0  204  [16]  E1 22 70 44 29 2A 00 00 28 23 30 75 30 75 00 00
2026-06-06T15:05:25.276136,15.298,can0  206  [24]  D5 0C C6 05 0B 0D 99 C6 74 06 25 0D EE 0C 00 00 00 00 00 00 00 00 00 00
2026-06-06T15:05:25.276300,15.298,can0  070  [20]  CA 2C 4D 08 C3 AE 62 03 78 69 00 00 05 16 00 00 1C 00 00 00
2026-06-06T15:05:25.276588,15.298,can0  204  [16]  E1 22 6A 44 10 2A 00 00 28 23 30 75 30 75 00 00
2026-06-06T15:05:25.276659,15.298,can0  070  [20]  CA 2C 4D 08 C3 AE 62 03 78 69 00 00 05 16 00 00 1B 00 00 00
2026-06-06T15:05:25.281292,15.303,can0  204  [16]  E1 22 6A 44 10 2A 00 00 28 23 30 75 30 75 00 00
2026-06-06T15:05:25.375077,15.396,can0  041  [04]  64 01 0A 00
2026-06-06T15:05:25.375246,15.397,can0  070  [20]  CA 2C 4D 08 C3 AE 62 03 78 69 00 00 05 16 00 00 1B 00 00 00
2026-06-06T15:05:25.375546,15.397,can0  204  [16]  E1 22 6F 44 1C 2A 00 00 28 23 30 75 30 75 00 00
2026-06-06T15:05:25.375739,15.397,can0  204  [16]  E1 22 6F 44 1C 2A 00 00 28 23 30 75 30 75 00 00
2026-06-06T15:05:25.375854,15.397,can0  040  [04]  0F 00 09 00
2026-06-06T15:05:25.474544,15.496,can0  204  [16]  E1 22 6D 44 1C 2A 00 00 28 23 30 75 30 75 00 00
2026-06-06T15:05:25.474766,15.496,can0  060  [32]  8A 36 D6 02 04 6A 4D 08 28 31 64 03 7A 00 A9 01 2F 00 FF 00 00 00 00 00 03 00 00 00 00 00 00 00
2026-06-06T15:05:25.474937,15.496,can0  060  [32]  D7 93 D6 02 94 66 4D 08 07 FA 63 03 01 00 DB 08 C1 00 80 00 00 00 00 01 03 00 00 00 00 00 00 00
2026-06-06T15:05:25.475002,15.496,can0  060  [32]  00 00 00 00 CA 2C 4D 08 18 04 B8 10 00 00 10 0E FF 01 00 00 00 00 00 02 03 00 00 00 00 00 00 00
2026-06-06T15:05:25.480063,15.501,can0  204  [16]  E1 22 6D 44 1C 2A 00 00 28 23 30 75 30 75 00 00
2026-06-06T15:05:25.574545,15.596,can0  204  [16]  E1 22 6C 44 1A 2A 00 00 28 23 30 75 30 75 00 00
2026-06-06T15:05:25.574751,15.596,can0  041  [04]  52 01 0D 00
2026-06-06T15:05:25.674599,15.696,can0  204  [16]  E1 22 6F 44 34 2A 00 00 28 23 30 75 30 75 00 00
2026-06-06T15:05:25.674833,15.696,can0  204  [16]  E1 22 6F 44 34 2A 00 00 28 23 30 75 30 75 00 00
2026-06-06T15:05:25.674977,15.696,can0  040  [04]  0B 00 06 00
2026-06-06T15:05:25.675127,15.697,can0  100  [03]  F0 71 04
2026-06-06T15:05:25.679883,15.701,can0  120  [04]  00 00 00 00
2026-06-06T15:05:25.774397,15.796,can0  204  [16]  E1 22 6F 44 31 2A 00 00 28 23 30 75 30 75 00 00
2026-06-06T15:05:25.774608,15.796,can0  204  [16]  E1 22 6F 44 31 2A 00 00 28 23 30 75 30 75 00 00
2026-06-06T15:05:25.774709,15.796,can0  070  [20]  CA 2C 4D 08 C3 AE 62 03 78 69 00 00 05 16 00 00 1B 00 00 00
2026-06-06T15:05:25.875090,15.896,can0  041  [04]  44 01 11 00
2026-06-06T15:05:25.877291,15.899,can0  206  [24]  CA 0C C7 05 16 0D 99 C6 76 06 1A 0D F3 0C 00 00 00 00 00 00 00 00 00 00
2026-06-06T15:05:25.877586,15.899,can0  204  [16]  E1 22 72 44 48 2A 00 00 28 23 30 75 30 75 00 00
2026-06-06T15:05:25.877744,15.899,can0  070  [20]  CA 2C 4D 08 C3 AE 62 03 78 69 00 00 05 16 00 00 1B 00 00 00
2026-06-06T15:05:25.882368,15.904,can0  040  [04]  67 01 05 00
2026-06-06T15:05:25.974615,15.996,can0  204  [16]  E1 22 70 44 31 2A 00 00 28 23 30 75 30 75 00 00
2026-06-06T15:05:25.975016,15.996,can0  204  [16]  E1 22 70 44 31 2A 00 00 28 23 30 75 30 75 00 00
2026-06-06T15:05:25.975052,15.996,can0  060  [32]  5F AE D6 02 48 C9 4D 08 EF 2C 62 03 7A 00 A7 03 FF 01 00 00 00 00 00 00 02 00 00 00 00 00 00 00
2026-06-06T15:05:25.975152,15.997,can0  060  [32]  EB DC D5 02 DB BF 4D 08 04 DC 62 03 4E 00 C0 09 FF 01 00 00 00 00 00 01 02 00 00 00 00 00 00 00
2026-06-06T15:05:26.074456,16.096,can0  204  [16]  E1 22 69 44 42 2A 00 00 28 23 30 75 30 75 00 00
2026-06-06T15:05:26.074649,16.096,can0  204  [16]  E1 22 69 44 42 2A 00 00 28 23 30 75 30 75 00 00
2026-06-06T15:05:26.074887,16.096,can0  041  [04]  39 01 10 00
2026-06-06T15:05:26.174652,16.196,can0  204  [16]  E1 22 62 44 38 2A 00 00 28 23 30 75 30 75 00 00
2026-06-06T15:05:26.174713,16.196,can0  070  [20]  CA 2C 4D 08 C3 AE 62 03 60 6D 00 00 05 16 00 00 4E 00 00 00
2026-06-06T15:05:26.174929,16.196,can0  040  [04]  59 01 05 00
2026-06-06T15:05:26.274269,16.296,can0  204  [16]  E1 22 67 44 46 2A 00 00 28 23 30 75 30 75 00 00
2026-06-06T15:05:26.274445,16.296,can0  070  [20]  CA 2C 4D 08 C3 AE 62 03 60 6D 00 00 05 16 00 00 4E 00 00 00
2026-06-06T15:05:26.274766,16.296,can0  204  [16]  E1 22 67 44 46 2A 00 00 28 23 30 75 30 75 00 00
2026-06-06T15:05:26.274873,16.296,can0  070  [20]  CA 2C 4D 08 C3 AE 62 03 60 6D 00 00 05 16 00 00 4E 00 00 00
2026-06-06T15:05:26.375028,16.396,can0  204  [16]  E1 22 69 44 36 2A 00 00 28 23 30 75 30 75 00 00
2026-06-06T15:05:26.380083,16.401,can0  041  [04]  32 01 11 00
2026-06-06T15:05:26.380143,16.402,can0  204  [16]  E1 22 69 44 36 2A 00 00 28 23 30 75 30 75 00 00
2026-06-06T15:05:26.474753,16.496,can0  204  [16]  E1 22 6F 44 42 2A 00 00 28 23 30 75 30 75 00 00
2026-06-06T15:05:26.477348,16.499,can0  040  [04]  4D 01 05 00
2026-06-06T15:05:26.477392,16.499,can0  110  [02]  25 1B
2026-06-06T15:05:26.477429,16.499,can0  206  [24]  CA 0C CA 05 16 0D 99 C6 7A 06 1F 0D F3 0C 00 00 00 00 00 00 00 00 00 00
2026-06-06T15:05:26.574958,16.596,can0  204  [16]  E1 22 6F 44 3E 2A 00 00 28 23 30 75 30 75 00 00
2026-06-06T15:05:26.579149,16.601,can0  204  [16]  E1 22 6F 44 3E 2A 00 00 28 23 30 75 30 75 00 00
2026-06-06T15:05:26.674912,16.696,can0  204  [16]  E1 22 6C 44 36 2A 00 00 28 23 30 75 30 75 00 00
2026-06-06T15:05:26.675146,16.697,can0  041  [04]  31 01 13 00
2026-06-06T15:05:26.678171,16.700,can0  204  [16]  E1 22 6C 44 36 2A 00 00 28 23 30 75 30 75 00 00
2026-06-06T15:05:26.775061,16.796,can0  040  [04]  48 01 07 00
2026-06-06T15:05:26.775109,16.796,can0  204  [16]  E1 22 69 44 34 2A 00 00 28 23 30 75 30 75 00 00
2026-06-06T15:05:26.775142,16.797,can0  070  [20]  CA 2C 4D 08 C3 AE 62 03 60 6D 00 00 05 16 00 00 4E 00 00 00
2026-06-06T15:05:26.875150,16.897,can0  204  [16]  E1 22 67 44 31 2A 00 00 28 23 30 75 30 75 00 00
2026-06-06T15:05:26.875200,16.897,can0  204  [16]  E1 22 67 44 31 2A 00 00 28 23 30 75 30 75 00 00
2026-06-06T15:05:26.875234,16.897,can0  070  [20]  CA 2C 4D 08 C3 AE 62 03 60 6D 00 00 05 16 00 00 4E 00 00 00
2026-06-06T15:05:26.875352,16.897,can0  100  [03]  ED 71 04
2026-06-06T15:05:26.878004,16.899,can0  120  [04]  00 00 00 00
2026-06-06T15:05:26.878041,16.899,can0  041  [04]  38 01 15 00
2026-06-06T15:05:26.979935,17.001,can0  204  [16]  E1 22 68 44 3C 2A 00 00 28 23 30 75 30 75 00 00
2026-06-06T15:05:26.979985,17.001,can0  204  [16]  E1 22 68 44 3C 2A 00 00 28 23 30 75 30 75 00 00
2026-06-06T15:05:26.980019,17.001,can0  040  [04]  4D 01 08 00
2026-06-06T15:05:27.074592,17.096,can0  204  [16]  E1 22 6C 44 40 2A 00 00 28 23 30 75 30 75 00 00
2026-06-06T15:05:27.074784,17.096,can0  204  [16]  E1 22 6C 44 40 2A 00 00 28 23 30 75 30 75 00 00
2026-06-06T15:05:27.174882,17.196,can0  041  [04]  3D 01 13 00
2026-06-06T15:05:27.177048,17.198,can0  206  [24]  CA 0C C8 05 1B 0D 99 C6 74 06 16 0D F3 0C 00 00 00 00 00 00 00 00 00 00
2026-06-06T15:05:27.177321,17.199,can0  204  [16]  E1 22 6D 44 44 2A 00 00 28 23 30 75 30 75 00 00
2026-06-06T15:05:27.177459,17.199,can0  070  [20]  CA 2C 4D 08 C3 AE 62 03 48 71 00 00 05 16 00 00 1F 00 00 00
2026-06-06T15:05:27.280094,17.301,can0  070  [20]  CA 2C 4D 08 C3 AE 62 03 48 71 00 00 05 16 00 00 20 00 00 00
2026-06-06T15:05:27.280148,17.302,can0  204  [16]  E1 22 6A 44 23 2A 00 00 28 23 30 75 30 75 00 00
2026-06-06T15:05:27.280184,17.302,can0  040  [04]  48 01 07 00
2026-06-06T15:05:27.280218,17.302,can0  204  [16]  E1 22 6A 44 3A 2A 00 00 28 23 30 75 30 75 00 00
2026-06-06T15:05:27.374568,17.396,can0  070  [20]  CA 2C 4D 08 C3 AE 62 03 48 71 00 00 05 16 00 00 20 00 00 00
2026-06-06T15:05:27.378425,17.400,can0  204  [16]  E1 22 6A 44 3A 2A 00 00 28 23 30 75 30 75 00 00
2026-06-06T15:05:27.475073,17.496,can0  204  [16]  E1 22 63 44 34 2A 00 00 28 23 30 75 30 75 00 00
2026-06-06T15:05:27.475121,17.497,can0  041  [04]  46 01 13 00
2026-06-06T15:05:27.475155,17.497,can0  060  [32]  00 00 00 00 CA 2C 4D 08 18 04 B8 10 00 00 10 0E FF 01 00 00 00 00 00 00 02 00 00 00 00 00 00 00
2026-06-06T15:05:27.475190,17.497,can0  060  [32]  D0 67 EF 04 4B 7D 4D 08 5B 5C 62 03 01 00 98 02 A9 00 80 00 00 00 00 01 02 00 00 00 00 00 00 00
2026-06-06T15:05:27.479919,17.501,can0  204  [16]  E1 22 63 44 34 2A 00 00 28 23 30 75 30 75 00 00
2026-06-06T15:05:27.579985,17.601,can0  040  [04]  45 01 05 00
2026-06-06T15:05:27.580039,17.601,can0  204  [16]  E1 22 63 44 50 2A 00 00 28 23 30 75 30 75 00 00
2026-06-06T15:05:27.580087,17.601,can0  204  [16]  E1 22 63 44 50 2A 00 00 28 23 30 75 30 75 00 00
2026-06-06T15:05:27.675073,17.696,can0  204  [16]  E1 22 6A 44 38 2A 00 00 28 23 30 75 30 75 00 00
2026-06-06T15:05:27.675229,17.697,can0  041  [04]  4B 01 18 00
2026-06-06T15:05:27.774243,17.796,can0  204  [16]  E1 22 71 44 40 2A 00 00 28 23 30 75 30 75 00 00
2026-06-06T15:05:27.774541,17.796,can0  204  [16]  E1 22 71 44 40 2A 00 00 28 23 30 75 30 75 00 00
2026-06-06T15:05:27.779486,17.801,can0  040  [04]  26 01 05 00
2026-06-06T15:05:27.874456,17.896,can0  070  [20]  CA 2C 4D 08 C3 AE 62 03 48 71 00 00 05 16 00 00 20 00 00 00
2026-06-06T15:05:27.876571,17.898,can0  206  [24]  C1 0C C9 05 1F 0D 99 C6 75 06 16 0D F8 0C 00 00 00 00 00 00 00 00 00 00
2026-06-06T15:05:27.876842,17.898,can0  204  [16]  E1 22 71 44 2F 2A 00 00 28 23 30 75 30 75 00 00
2026-06-06T15:05:27.877007,17.898,can0  070  [20]  CA 2C 4D 08 C3 AE 62 03 48 71 00 00 05 16 00 00 20 00 00 00
2026-06-06T15:05:27.881731,17.903,can0  204  [16]  E1 22 71 44 2F 2A 00 00 28 23 30 75 30 75 00 00
2026-06-06T15:05:27.979435,18.001,can0  204  [16]  E1 22 6A 44 29 2A 00 00 28 23 30 75 30 75 00 00
2026-06-06T15:05:27.979487,18.001,can0  041  [04]  4D 01 1C 00
2026-06-06T15:05:28.080319,18.102,can0  204  [16]  E1 22 65 44 2B 2A 00 00 28 23 30 75 30 75 00 00
2026-06-06T15:05:28.080369,18.102,can0  040  [04]  19 01 07 00
2026-06-06T15:05:28.080402,18.102,can0  204  [16]  E1 22 65 44 2B 2A 00 00 28 23 30 75 30 75 00 00
2026-06-06T15:05:28.080434,18.102,can0  100  [03]  ED 71 04
2026-06-06T15:05:28.080466,18.102,can0  110  [02]  25 1B
2026-06-06T15:05:28.080675,18.102,can0  120  [04]  00 00 00 00
2026-06-06T15:05:28.178911,18.200,can0  204  [16]  E1 22 65 44 2B 2A 00 00 28 23 30 75 30 75 00 00
2026-06-06T15:05:28.178964,18.200,can0  070  [20]  CA 2C 4D 08 C2 AE 62 03 30 75 00 00 05 16 00 00 43 00 00 00
2026-06-06T15:05:28.179000,18.200,can0  204  [16]  E1 22 67 44 50 2A 00 00 28 23 30 75 30 75 00 00
2026-06-06T15:05:28.274754,18.296,can0  041  [04]  50 01 1F 00
2026-06-06T15:05:28.279958,18.301,can0  204  [16]  E1 22 67 44 50 2A 00 00 28 23 30 75 30 75 00 00
2026-06-06T15:05:28.280004,18.301,can0  070  [20]  CA 2C 4D 08 C2 AE 62 03 30 75 00 00 05 16 00 00 42 00 00 00
2026-06-06T15:05:28.280041,18.301,can0  070  [20]  CA 2C 4D 08 C2 AE 62 03 30 75 00 00 05 16 00 00 42 00 00 00
2026-06-06T15:05:28.374780,18.396,can0  204  [16]  E1 22 66 44 36 2A 00 00 28 23 30 75 30 75 00 00
2026-06-06T15:05:28.379151,18.401,can0  040  [04]  19 01 06 00
2026-06-06T15:05:28.379192,18.401,can0  204  [16]  E1 22 66 44 36 2A 00 00 28 23 30 75 30 75 00 00
2026-06-06T15:05:28.474409,18.496,can0  204  [16]  E1 22 68 44 40 2A 00 00 28 23 30 75 30 75 00 00
2026-06-06T15:05:28.474457,18.496,can0  060  [32]  00 00 00 00 CA 2C 4D 08 16 04 B8 10 00 00 10 0E FF 01 00 00 00 00 00 00 02 00 00 00 00 00 00 00
2026-06-06T15:05:28.474494,18.496,can0  060  [32]  8A 36 D6 02 7C 6A 4D 08 E6 31 64 03 7B 00 C1 01 31 00 FF 00 00 00 00 01 02 00 00 00 00 00 00 00
2026-06-06T15:05:28.475911,18.497,can0  206  [24]  C5 0C CA 05 1B 0D 99 C6 76 06 11 0D F8 0C 00 00 00 00 00 00 00 00 00 00
2026-06-06T15:05:28.478446,18.500,can0  041  [04]  51 01 22 00
2026-06-06T15:05:28.478485,18.500,can0  204  [16]  E1 22 6C 44 3A 2A 00 00 28 23 30 75 30 75 00 00
2026-06-06T15:05:28.574795,18.596,can0  204  [16]  E1 22 6C 44 3A 2A 00 00 28 23 30 75 30 75 00 00
2026-06-06T15:05:28.574972,18.596,can0  040  [04]  0C 01 05 00
2026-06-06T15:05:28.674203,18.696,can0  204  [16]  E1 22 6F 44 29 2A 00 00 28 23 30 75 30 75 00 00
2026-06-06T15:05:28.679227,18.701,can0  204  [16]  E1 22 6F 44 29 2A 00 00 28 23 30 75 30 75 00 00
2026-06-06T15:05:28.775292,18.797,can0  204  [16]  E1 22 70 44 1F 2A 00 00 28 23 30 75 30 75 00 00
2026-06-06T15:05:28.775346,18.797,can0  041  [04]  51 01 25 00
2026-06-06T15:05:28.775381,18.797,can0  204  [16]  E1 22 70 44 1F 2A 00 00 28 23 30 75 30 75 00 00
2026-06-06T15:05:28.775415,18.797,can0  070  [20]  CA 2C 4D 08 C2 AE 62 03 30 75 00 00 05 16 00 00 42 00 00 00
2026-06-06T15:05:28.874669,18.896,can0  040  [04]  B3 00 02 00
2026-06-06T15:05:28.874910,18.896,can0  204  [16]  E1 22 6F 44 46 2A 00 00 28 23 30 75 30 75 00 00
2026-06-06T15:05:28.874948,18.896,can0  070  [20]  CA 2C 4D 08 C2 AE 62 03 30 75 00 00 05 16 00 00 42 00 00 00
2026-06-06T15:05:28.974495,18.996,can0  204  [16]  E1 22 72 44 1F 2A 00 00 28 23 30 75 30 75 00 00
2026-06-06T15:05:28.975826,18.997,can0  060  [32]  00 00 00 00 00 00 00 00 00 00 00 00 00 00 00 00 00 00 00 00 00 00 00 00 00 00 00 00 00 00 00 00
2026-06-06T15:05:28.975866,18.997,can0  204  [16]  E1 22 72 44 1F 2A 00 00 28 23 30 75 30 75 00 00
2026-06-06T15:05:29.074285,19.096,can0  041  [04]  4B 01 24 00
2026-06-06T15:05:29.074592,19.096,can0  204  [16]  E1 22 70 44 3E 2A 00 00 28 23 30 75 30 75 00 00
2026-06-06T15:05:29.074627,19.096,can0  204  [16]  E1 22 70 44 3E 2A 00 00 28 23 30 75 30 75 00 00
2026-06-06T15:05:29.079195,19.101,can0  040  [04]  B3 00 02 00
2026-06-06T15:05:29.175550,19.197,can0  206  [24]  CB 0C C9 05 1A 0D 99 C6 73 06 16 0D F8 0C 00 00 00 00 00 00 00 00 00 00
2026-06-06T15:05:29.175767,19.197,can0  204  [16]  E1 22 6E 44 3C 2A 00 00 28 23 30 75 30 75 00 00
2026-06-06T15:05:29.175954,19.197,can0  070  [20]  CC 2C 4D 08 C3 AE 62 03 18 79 00 00 05 16 00 00 36 00 00 00
2026-06-06T15:05:29.274424,19.296,can0  070  [20]  CC 2C 4D 08 C3 AE 62 03 18 79 00 00 05 16 00 00 37 00 00 00
2026-06-06T15:05:29.274849,19.296,can0  204  [16]  E1 22 6B 44 27 2A 00 00 28 23 30 75 30 75 00 00
2026-06-06T15:05:29.275049,19.296,can0  204  [16]  E1 22 6B 44 27 2A 00 00 28 23 30 75 30 75 00 00
2026-06-06T15:05:29.275204,19.297,can0  100  [03]  F0 71 04
2026-06-06T15:05:29.280247,19.302,can0  120  [04]  00 00 00 00
2026-06-06T15:05:29.280286,19.302,can0  041  [04]  4B 01 1F 00
2026-06-06T15:05:29.374297,19.396,can0  070  [20]  CC 2C 4D 08 C3 AE 62 03 18 79 00 00 05 16 00 00 37 00 00 00
2026-06-06T15:05:29.374664,19.396,can0  204  [16]  E1 22 70 44 2D 2A 00 00 28 23 30 75 30 75 00 00
2026-06-06T15:05:29.374853,19.396,can0  040  [04]  B3 00 05 00
2026-06-06T15:05:29.379778,19.401,can0  204  [16]  E1 22 72 44 29 2A 00 00 28 23 30 75 30 75 00 00
2026-06-06T15:05:29.474936,19.496,can0  204  [16]  E1 22 72 44 29 2A 00 00 28 23 30 75 30 75 00 00
2026-06-06T15:05:29.475050,19.496,can0  060  [32]  00 00 00 00 CC 2C 4D 08 18 04 B8 10 00 00 10 0E FF 01 00 00 00 00 00 00 01 00 00 00 00 00 00 00
2026-06-06T15:05:29.574314,19.596,can0  204  [16]  E1 22 75 44 3E 2A 00 00 28 23 30 75 30 75 00 00
2026-06-06T15:05:29.578463,19.600,can0  041  [04]  4C 01 1B 00
2026-06-06T15:05:29.578503,19.600,can0  204  [16]  E1 22 75 44 3E 2A 00 00 28 23 30 75 30 75 00 00
2026-06-06T15:05:29.675020,19.696,can0  040  [04]  99 00 02 00
2026-06-06T15:05:29.679276,19.701,can0  204  [16]  E1 22 72 44 3A 2A 00 00 28 23 30 75 30 75 00 00
2026-06-06T15:05:29.679316,19.701,can0  110  [02]  24 1B
2026-06-06T15:05:29.679351,19.701,can0  204  [16]  E1 22 6F 44 29 2A 00 00 28 23 30 75 30 75 00 00
2026-06-06T15:05:29.774734,19.796,can0  204  [16]  E1 22 6F 44 29 2A 00 00 28 23 30 75 30 75 00 00
2026-06-06T15:05:29.774838,19.796,can0  070  [20]  CC 2C 4D 08 C3 AE 62 03 18 79 00 00 05 16 00 00 37 00 00 00
2026-06-06T15:05:29.875129,19.897,can0  204  [16]  E1 22 6D 44 3A 2A 00 00 28 23 30 75 30 75 00 00
2026-06-06T15:05:29.877237,19.899,can0  206  [24]  CB 0C C5 05 15 0D 99 C6 6E 06 1B 0D F8 0C 00 00 00 00 00 00 00 00 00 00
2026-06-06T15:05:29.877431,19.899,can0  041  [04]  4C 01 17 00
2026-06-06T15:05:29.877582,19.899,can0  070  [20]  CC 2C 4D 08 C3 AE 62 03 18 79 00 00 05 16 00 00 37 00 00 00
2026-06-06T15:05:29.877847,19.899,can0  204  [16]  E1 22 6D 44 3A 2A 00 00 28 23 30 75 30 75 00 00
2026-06-06T15:05:29.878060,19.899,can0  040  [04]  B3 00 02 00
2026-06-06T15:05:29.974259,19.996,can0  204  [16]  E1 22 71 44 36 2A 00 00 28 23 30 75 30 75 00 00
2026-06-06T15:05:29.974421,19.996,can0  060  [32]  00 00 00 00 00 00 00 00 00 00 00 00 00 00 00 00 00 00 00 00 00 00 00 00 00 00 00 00 00 00 00 00
2026-06-06T15:05:29.974608,19.996,can0  204  [16]  E1 22 71 44 36 2A 00 00 28 23 30 75 30 75 00 00
2026-06-06T15:05:30.074345,20.096,can0  204  [16]  E1 22 75 44 21 2A 00 00 28 23 30 75 30 75 00 00
2026-06-06T15:05:30.078548,20.100,can0  041  [04]  50 01 11 00
2026-06-06T15:05:30.174977,20.196,can0  204  [16]  E1 22 75 44 21 2A 00 00 28 23 30 75 30 75 00 00
2026-06-06T15:05:30.175220,20.197,can0  204  [16]  E1 22 75 44 3E 2A 00 00 28 23 30 75 30 75 00 00
2026-06-06T15:05:30.175401,20.197,can0  070  [20]  CC 2C 4D 08 C3 AE 62 03 00 7D 00 00 05 16 00 00 09 00 00 00
2026-06-06T15:05:30.180479,20.202,can0  040  [04]  B3 00 02 00
2026-06-06T15:05:30.274691,20.296,can0  204  [16]  E1 22 72 44 3A 2A 00 00 28 23 30 75 30 75 00 00
2026-06-06T15:05:30.274795,20.296,can0  070  [20]  CC 2C 4D 08 C3 AE 62 03 00 7D 00 00 05 16 00 00 09 00 00 00
2026-06-06T15:05:30.275954,20.297,can0  204  [16]  E1 22 70 44 38 2A 00 00 28 23 30 75 30 75 00 00
2026-06-06T15:05:30.275992,20.297,can0  070  [20]  CC 2C 4D 08 C3 AE 62 03 00 7D 00 00 05 16 00 00 09 00 00 00
2026-06-06T15:05:30.374624,20.396,can0  041  [04]  4B 01 0F 00
2026-06-06T15:05:30.374823,20.396,can0  204  [16]  E1 22 70 44 38 2A 00 00 28 23 30 75 30 75 00 00
2026-06-06T15:05:30.475024,20.496,can0  204  [16]  E1 22 71 44 2B 2A 00 00 28 23 30 75 30 75 00 00
2026-06-06T15:05:30.475231,20.497,can0  040  [04]  B3 00 07 00
2026-06-06T15:05:30.475480,20.497,can0  204  [16]  E1 22 71 44 2B 2A 00 00 28 23 30 75 30 75 00 00
2026-06-06T15:05:30.477598,20.499,can0  206  [24]  C6 0C C3 05 15 0D 99 C6 70 06 1B 0D FD 0C 00 00 00 00 00 00 00 00 00 00
2026-06-06T15:05:30.477835,20.499,can0  100  [03]  F5 71 04
2026-06-06T15:05:30.478023,20.499,can0  120  [04]  00 00 00 00
2026-06-06T15:05:30.478204,20.500,can0  130  [00]
2026-06-06T15:05:30.574297,20.596,can0  060  [32]  00 00 00 00 CC 2C 4D 08 18 04 B8 10 00 00 10 0E FF 01 00 00 00 00 00 00 01 00 00 00 00 00 00 00
2026-06-06T15:05:30.574757,20.596,can0  204  [16]  E1 22 70 44 2F 2A 00 00 28 23 30 75 30 75 00 00
2026-06-06T15:05:30.579896,20.601,can0  132  [00]
2026-06-06T15:05:30.579944,20.601,can0  204  [16]  E1 22 6F 44 2B 2A 00 00 28 23 30 75 30 75 00 00
2026-06-06T15:05:30.679187,20.701,can0  041  [04]  42 01 10 00
2026-06-06T15:05:30.679238,20.701,can0  204  [16]  E1 22 6F 44 2B 2A 00 00 28 23 30 75 30 75 00 00
2026-06-06T15:05:30.679274,20.701,can0  040  [04]  BF 00 05 00
2026-06-06T15:05:30.774279,20.796,can0  204  [16]  E1 22 70 44 34 2A 00 00 28 23 30 75 30 75 00 00
2026-06-06T15:05:30.774501,20.796,can0  204  [16]  E1 22 70 44 34 2A 00 00 28 23 30 75 30 75 00 00
2026-06-06T15:05:30.774536,20.796,can0  070  [20]  CC 2C 4D 08 C3 AE 62 03 00 7D 00 00 05 16 00 00 09 00 00 00
2026-06-06T15:05:30.875108,20.897,can0  204  [16]  E1 22 71 44 34 2A 00 00 28 23 30 75 30 75 00 00
2026-06-06T15:05:30.875211,20.897,can0  070  [20]  CC 2C 4D 08 C3 AE 62 03 00 7D 00 00 05 16 00 00 09 00 00 00
2026-06-06T15:05:30.880474,20.902,can0  041  [04]  3C 01 11 00
2026-06-06T15:05:30.880938,20.902,can0  204  [16]  E1 22 71 44 3A 2A 00 00 28 23 30 75 30 75 00 00
2026-06-06T15:05:30.974946,20.996,can0  204  [16]  E1 22 71 44 3A 2A 00 00 28 23 30 75 30 75 00 00
2026-06-06T15:05:30.978445,21.000,can0  040  [04]  C3 00 05 00
2026-06-06T15:05:31.074278,21.096,can0  204  [16]  E1 22 6F 44 34 2A 00 00 28 23 30 75 30 75 00 00
2026-06-06T15:05:31.074437,21.096,can0  060  [32]  00 00 00 00 00 00 00 00 00 00 00 00 00 00 00 00 00 00 00 00 00 00 00 00 00 00 00 00 00 00 00 00
2026-06-06T15:05:31.074614,21.096,can0  204  [16]  E1 22 6F 44 34 2A 00 00 28 23 30 75 30 75 00 00
2026-06-06T15:05:31.174626,21.196,can0  204  [16]  E1 22 6F 44 31 2A 00 00 28 23 30 75 30 75 00 00
2026-06-06T15:05:31.176837,21.198,can0  206  [24]  D0 0C C3 05 0C 0D 99 C6 72 06 1F 0D F8 0C 00 00 00 00 00 00 00 00 00 00
2026-06-06T15:05:31.177013,21.198,can0  041  [04]  4A 01 16 00
2026-06-06T15:05:31.177117,21.199,can0  070  [20]  CC 2C 4D 08 C3 AE 62 03 E8 80 00 00 05 16 00 00 38 00 00 00
2026-06-06T15:05:31.181590,21.203,can0  204  [16]  E1 22 70 44 2D 2A 00 00 28 23 30 75 30 75 00 00
2026-06-06T15:05:31.274819,21.296,can0  070  [20]  CC 2C 4D 08 C3 AE 62 03 E8 80 00 00 05 16 00 00 37 00 00 00
2026-06-06T15:05:31.275355,21.297,can0  040  [04]  D3 00 05 00
2026-06-06T15:05:31.275393,21.297,can0  204  [16]  E1 22 70 44 2D 2A 00 00 28 23 30 75 30 75 00 00
2026-06-06T15:05:31.275429,21.297,can0  110  [02]  26 1B
2026-06-06T15:05:31.275464,21.297,can0  070  [20]  CC 2C 4D 08 C3 AE 62 03 E8 80 00 00 05 16 00 00 37 00 00 00
2026-06-06T15:05:31.374389,21.396,can0  204  [16]  E1 22 72 44 31 2A 00 00 28 23 30 75 30 75 00 00
2026-06-06T15:05:31.379487,21.401,can0  204  [16]  E1 22 72 44 31 2A 00 00 28 23 30 75 30 75 00 00
2026-06-06T15:05:31.474311,21.496,can0  041  [04]  4A 01 16 00
2026-06-06T15:05:31.474551,21.496,can0  204  [16]  E1 22 73 44 36 2A 00 00 28 23 30 75 30 75 00 00
2026-06-06T15:05:31.474699,21.496,can0  040  [04]  DF 00 05 00
2026-06-06T15:05:31.474842,21.496,can0  204  [16]  E1 22 72 44 3C 2A 00 00 28 23 30 75 30 75 00 00
2026-06-06T15:05:31.574572,21.596,can0  060  [32]  00 00 00 00 CC 2C 4D 08 18 04 B8 10 00 00 10 0E FF 01 00 00 00 00 00 00 01 00 00 00 00 00 00 00
2026-06-06T15:05:31.580204,21.602,can0  204  [16]  E1 22 72 44 3C 2A 00 00 28 23 30 75 30 75 00 00
2026-06-06T15:05:31.674344,21.696,can0  204  [16]  E1 22 70 44 38 2A 00 00 28 23 30 75 30 75 00 00
2026-06-06T15:05:31.674571,21.696,can0  204  [16]  E1 22 70 44 38 2A 00 00 28 23 30 75 30 75 00 00
2026-06-06T15:05:31.674836,21.696,can0  041  [04]  4F 01 16 00
2026-06-06T15:05:31.674875,21.696,can0  100  [03]  FC 71 04
2026-06-06T15:05:31.679807,21.701,can0  120  [04]  00 00 00 00
2026-06-06T15:05:31.779988,21.801,can0  204  [16]  E1 22 70 44 36 2A 00 00 28 23 30 75 30 75 00 00
2026-06-06T15:05:31.780041,21.801,can0  040  [04]  FE 00 06 00
2026-06-06T15:05:31.780077,21.801,can0  204  [16]  E1 22 70 44 38 2A 00 00 28 23 30 75 30 75 00 00
2026-06-06T15:05:31.780112,21.801,can0  070  [20]  CC 2C 4D 08 C3 AE 62 03 E8 80 00 00 05 16 00 00 37 00 00 00
2026-06-06T15:05:31.876959,21.898,can0  206  [24]  C6 0C C0 05 11 0D 99 C6 6E 06 24 0D FD 0C 00 00 00 00 00 00 00 00 00 00
2026-06-06T15:05:31.877207,21.899,can0  204  [16]  E1 22 70 44 38 2A 00 00 28 23 30 75 30 75 00 00
2026-06-06T15:05:31.877384,21.899,can0  070  [20]  CC 2C 4D 08 C3 AE 62 03 E8 80 00 00 05 16 00 00 37 00 00 00
2026-06-06T15:05:31.975148,21.997,can0  204  [16]  E1 22 72 44 16 2A 00 00 28 23 30 75 30 75 00 00
2026-06-06T15:05:31.975357,21.997,can0  041  [04]  55 01 14 00
2026-06-06T15:05:31.975533,21.997,can0  204  [16]  E1 22 72 44 16 2A 00 00 28 23 30 75 30 75 00 00
2026-06-06T15:05:32.074648,22.096,can0  204  [16]  E1 22 72 44 25 2A 00 00 28 23 30 75 30 75 00 00
2026-06-06T15:05:32.074804,22.096,can0  040  [04]  F2 00 06 00
2026-06-06T15:05:32.074990,22.096,can0  204  [16]  E1 22 72 44 25 2A 00 00 28 23 30 75 30 75 00 00
2026-06-06T15:05:32.080009,22.101,can0  133  [00]
2026-06-06T15:05:32.174788,22.196,can0  204  [16]  E1 22 72 44 27 2A 00 00 28 23 30 75 30 75 00 00
2026-06-06T15:05:32.174940,22.196,can0  070  [20]  CC 2C 4D 08 C3 AE 62 03 D0 84 00 00 05 16 00 00 1F 00 00 00
2026-06-06T15:05:32.275081,22.296,can0  041  [04]  57 01 13 00
2026-06-06T15:05:32.275276,22.297,can0  204  [16]  E1 22 6F 44 2F 2A 00 00 28 23 30 75 30 75 00 00
2026-06-06T15:05:32.275387,22.297,can0  070  [20]  CC 2C 4D 08 C3 AE 62 03 D0 84 00 00 05 16 00 00 1F 00 00 00
2026-06-06T15:05:32.275759,22.297,can0  204  [16]  E1 22 6F 44 2F 2A 00 00 28 23 30 75 30 75 00 00
2026-06-06T15:05:32.275798,22.297,can0  070  [20]  CC 2C 4D 08 C3 AE 62 03 D0 84 00 00 05 16 00 00 1F 00 00 00
2026-06-06T15:05:32.374561,22.396,can0  040  [04]  DF 00 07 00
2026-06-06T15:05:32.374773,22.396,can0  204  [16]  E1 22 72 44 29 2A 00 00 28 23 30 75 30 75 00 00
2026-06-06T15:05:32.380259,22.402,can0  204  [16]  E1 22 70 44 31 2A 00 00 28 23 30 75 30 75 00 00
2026-06-06T15:05:32.474502,22.496,can0  204  [16]  E1 22 70 44 31 2A 00 00 28 23 30 75 30 75 00 00
2026-06-06T15:05:32.476889,22.498,can0  206  [24]  CB 0C C1 05 11 0D 99 C6 76 06 1F 0D F8 0C 00 00 00 00 00 00 00 00 00 00
2026-06-06T15:05:32.477101,22.498,can0  041  [04]  50 01 11 00
2026-06-06T15:05:32.574930,22.596,can0  204  [16]  E1 22 73 44 3C 2A 00 00 28 23 30 75 30 75 00 00
2026-06-06T15:05:32.575128,22.597,can0  060  [32]  4B D5 D5 02 79 B9 4D 08 0D 1F 64 03 00 00 F0 0A 66 01 80 00 00 00 00 00 02 00 00 00 00 00 00 00
2026-06-06T15:05:32.575251,22.597,can0  060  [32]  00 00 00 00 CC 2C 4D 08 18 04 B8 10 00 00 10 0E FF 01 00 00 00 00 00 01 02 00 00 00 00 00 00 00
2026-06-06T15:05:32.575838,22.597,can0  040  [04]  E8 00 0B 00
2026-06-06T15:05:32.575876,22.597,can0  204  [16]  E1 22 73 44 3C 2A 00 00 28 23 30 75 30 75 00 00
2026-06-06T15:05:32.674827,22.696,can0  204  [16]  E1 22 72 44 29 2A 00 00 28 23 30 75 30 75 00 00
2026-06-06T15:05:32.675073,22.696,can0  204  [16]  E1 22 73 44 36 2A 00 00 28 23 30 75 30 75 00 00
2026-06-06T15:05:32.774667,22.796,can0  204  [16]  E1 22 73 44 36 2A 00 00 28 23 30 75 30 75 00 00
2026-06-06T15:05:32.774918,22.796,can0  041  [04]  44 01 13 00
2026-06-06T15:05:32.775100,22.796,can0  070  [20]  CC 2C 4D 08 C3 AE 62 03 D0 84 00 00 05 16 00 00 1F 00 00 00
2026-06-06T15:05:32.874696,22.896,can0  204  [16]  E1 22 70 44 25 2A 00 00 28 23 30 75 30 75 00 00
2026-06-06T15:05:32.874910,22.896,can0  040  [04]  EF 00 0C 00
2026-06-06T15:05:32.875079,22.896,can0  204  [16]  E1 22 70 44 25 2A 00 00 28 23 30 75 30 75 00 00
2026-06-06T15:05:32.875186,22.897,can0  070  [20]  CC 2C 4D 08 C3 AE 62 03 D0 84 00 00 05 16 00 00 1F 00 00 00
2026-06-06T15:05:32.875399,22.897,can0  100  [03]  05 72 04
2026-06-06T15:05:32.875581,22.897,can0  110  [02]  25 1B
2026-06-06T15:05:32.875795,22.897,can0  120  [04]  00 00 00 00
2026-06-06T15:05:32.975036,22.996,can0  204  [16]  E1 22 6F 44 2F 2A 00 00 28 23 30 75 30 75 00 00
2026-06-06T15:05:32.975262,22.997,can0  204  [16]  E1 22 6E 44 34 2A 00 00 28 23 30 75 30 75 00 00
2026-06-06T15:05:33.074877,23.096,can0  060  [32]  00 00 00 00 00 00 00 00 00 00 00 00 00 00 00 00 00 00 00 00 00 00 00 00 00 00 00 00 00 00 00 00
2026-06-06T15:05:33.075065,23.096,can0  041  [04]  3D 01 13 00
2026-06-06T15:05:33.075264,23.097,can0  204  [16]  E1 22 6E 44 34 2A 00 00 28 23 30 75 30 75 00 00
2026-06-06T15:05:33.075402,23.097,can0  040  [04]  EB 00 10 00
2026-06-06T15:05:33.174369,23.196,can0  204  [16]  E1 22 6E 44 34 2A 00 00 28 23 30 75 30 75 00 00
2026-06-06T15:05:33.176506,23.198,can0  206  [24]  C1 0C C4 05 11 0D 99 C6 7A 06 1F 0D 02 0D 00 00 00 00 00 00 00 00 00 00
2026-06-06T15:05:33.176819,23.198,can0  204  [16]  E1 22 6F 44 3A 2A 00 00 28 23 30 75 30 75 00 00
2026-06-06T15:05:33.176857,23.198,can0  070  [20]  CC 2C 4D 08 C3 AE 62 03 B8 88 00 00 05 16 00 00 14 00 00 00
2026-06-06T15:05:33.274491,23.296,can0  070  [20]  CC 2C 4D 08 C3 AE 62 03 B8 88 00 00 05 16 00 00 15 00 00 00
2026-06-06T15:05:33.274844,23.296,can0  204  [16]  E1 22 6F 44 3C 2A 00 00 28 23 30 75 30 75 00 00
2026-06-06T15:05:33.275067,23.296,can0  041  [04]  31 01 13 00
2026-06-06T15:05:33.275236,23.297,can0  070  [20]  CC 2C 4D 08 C3 AE 62 03 B8 88 00 00 05 16 00 00 15 00 00 00
2026-06-06T15:05:33.279996,23.301,can0  204  [16]  E1 22 70 44 27 2A 00 00 28 23 30 75 30 75 00 00
2026-06-06T15:05:33.374284,23.396,can0  204  [16]  E1 22 70 44 27 2A 00 00 28 23 30 75 30 75 00 00
2026-06-06T15:05:33.374524,23.396,can0  040  [04]  F2 00 10 00
2026-06-06T15:05:33.480152,23.502,can0  204  [16]  E1 22 71 44 2B 2A 00 00 28 23 30 75 30 75 00 00
2026-06-06T15:05:33.480206,23.502,can0  204  [16]  E1 22 71 44 2B 2A 00 00 28 23 30 75 30 75 00 00
2026-06-06T15:05:33.574966,23.596,can0  204  [16]  E1 22 75 44 1F 2A 00 00 28 23 30 75 30 75 00 00
2026-06-06T15:05:33.575387,23.597,can0  060  [32]  00 00 00 00 CC 2C 4D 08 18 04 B8 10 00 00 10 0E FF 01 00 00 00 00 00 00 01 00 00 00 00 00 00 00
2026-06-06T15:05:33.575571,23.597,can0  041  [04]  36 01 16 00
2026-06-06T15:05:33.575764,23.597,can0  204  [16]  E1 22 70 44 21 2A 00 00 28 23 30 75 30 75 00 00
2026-06-06T15:05:33.674459,23.696,can0  040  [04]  F2 00 0D 00
2026-06-06T15:05:33.674657,23.696,can0  204  [16]  E1 22 70 44 21 2A 00 00 28 23 30 75 30 75 00 00
2026-06-06T15:05:33.774550,23.796,can0  204  [16]  E1 22 6F 44 4A 2A 00 00 28 23 30 75 30 75 00 00
2026-06-06T15:05:33.774790,23.796,can0  204  [16]  E1 22 6F 44 4A 2A 00 00 28 23 30 75 30 75 00 00
2026-06-06T15:05:33.774986,23.796,can0  070  [20]  CC 2C 4D 08 C3 AE 62 03 B8 88 00 00 05 16 00 00 15 00 00 00
2026-06-06T15:05:33.777322,23.799,can0  206  [24]  C6 0C C5 05 15 0D 99 C6 7B 06 1B 0D FD 0C 00 00 00 00 00 00 00 00 00 00
2026-06-06T15:05:33.874426,23.896,can0  041  [04]  33 01 16 00
2026-06-06T15:05:33.875516,23.897,can0  204  [16]  E1 22 6C 44 48 2A 00 00 28 23 30 75 30 75 00 00
2026-06-06T15:05:33.875557,23.897,can0  070  [20]  CC 2C 4D 08 C3 AE 62 03 B8 88 00 00 05 16 00 00 15 00 00 00
2026-06-06T15:05:33.875591,23.897,can0  040  [04]  EE 00 0A 00
2026-06-06T15:05:33.875624,23.897,can0  204  [16]  E1 22 70 44 36 2A 00 00 28 23 30 75 30 75 00 00
2026-06-06T15:05:33.979331,24.001,can0  204  [16]  E1 22 70 44 36 2A 00 00 28 23 30 75 30 75 00 00
2026-06-06T15:05:34.075048,24.096,can0  204  [16]  E1 22 70 44 25 2A 00 00 28 23 30 75 30 75 00 00
2026-06-06T15:05:34.075242,24.097,can0  204  [16]  E1 22 70 44 25 2A 00 00 28 23 30 75 30 75 00 00
2026-06-06T15:05:34.075472,24.097,can0  041  [04]  39 01 18 00
2026-06-06T15:05:34.080541,24.102,can0  100  [03]  10 72 04
2026-06-06T15:05:34.080586,24.102,can0  120  [04]  00 00 00 00
2026-06-06T15:05:34.174972,24.196,can0  204  [16]  E1 22 71 44 29 2A 00 00 28 23 30 75 30 75 00 00
2026-06-06T15:05:34.175167,24.197,can0  040  [04]  EA 00 0A 00
2026-06-06T15:05:34.175424,24.197,can0  204  [16]  E1 22 6F 44 1F 2A 00 00 28 23 30 75 30 75 00 00
2026-06-06T15:05:34.275516,24.297,can0  070  [20]  CE 2C 4D 08 C5 AE 62 03 A0 8C 00 00 05 16 00 00 14 00 00 00
2026-06-06T15:05:34.275561,24.297,can0  204  [16]  E1 22 6F 44 1F 2A 00 00 28 23 30 75 30 75 00 00
2026-06-06T15:05:34.275633,24.297,can0  070  [20]  CE 2C 4D 08 C5 AE 62 03 A0 8C 00 00 05 16 00 00 15 00 00 00
2026-06-06T15:05:34.375073,24.396,can0  204  [16]  E1 22 6F 44 27 2A 00 00 28 23 30 75 30 75 00 00
2026-06-06T15:05:34.375233,24.397,can0  041  [04]  46 01 1A 00
2026-06-06T15:05:34.375353,24.397,can0  070  [20]  CE 2C 4D 08 C5 AE 62 03 A0 8C 00 00 05 16 00 00 15 00 00 00
2026-06-06T15:05:34.380686,24.402,can0  204  [16]  E1 22 6F 44 27 2A 00 00 28 23 30 75 30 75 00 00
2026-06-06T15:05:34.477262,24.499,can0  040  [04]  DF 00 0B 00
2026-06-06T15:05:34.477318,24.499,can0  204  [16]  E1 22 6F 44 34 2A 00 00 28 23 30 75 30 75 00 00
2026-06-06T15:05:34.477353,24.499,can0  206  [24]  C0 0C C3 05 1B 0D 99 C6 7B 06 1B 0D FD 0C 00 00 00 00 00 00 00 00 00 00
2026-06-06T15:05:34.574556,24.596,can0  110  [02]  25 1B
2026-06-06T15:05:34.575260,24.597,can0  204  [16]  E1 22 6D 44 25 2A 00 00 28 23 30 75 30 75 00 00
2026-06-06T15:05:34.575300,24.597,can0  060  [32]  D7 93 D6 02 95 66 4D 08 07 FA 63 03 00 00 07 09 C1 00 80 00 00 00 00 00 02 00 00 00 00 00 00 00
2026-06-06T15:05:34.575336,24.597,can0  204  [16]  E1 22 6D 44 25 2A 00 00 28 23 30 75 30 75 00 00
2026-06-06T15:05:34.575369,24.597,can0  060  [32]  00 00 00 00 CE 2C 4D 08 1A 04 B8 10 00 00 10 0E FF 01 00 00 00 00 00 01 02 00 00 00 00 00 00 00
2026-06-06T15:05:34.675066,24.696,can0  041  [04]  48 01 1B 00
2026-06-06T15:05:34.680276,24.702,can0  204  [16]  E1 22 6B 44 36 2A 00 00 28 23 30 75 30 75 00 00
2026-06-06T15:05:34.775026,24.796,can0  204  [16]  E1 22 6B 44 36 2A 00 00 28 23 30 75 30 75 00 00
2026-06-06T15:05:34.775212,24.797,can0  040  [04]  DF 00 0C 00
2026-06-06T15:05:34.775478,24.797,can0  204  [16]  E1 22 6C 44 29 2A 00 00 28 23 30 75 30 75 00 00
2026-06-06T15:05:34.874637,24.896,can0  204  [16]  E1 22 6F 44 2B 2A 00 00 28 23 30 75 30 75 00 00
2026-06-06T15:05:34.874683,24.896,can0  070  [20]  CE 2C 4D 08 C5 AE 62 03 A0 8C 00 00 05 16 00 00 15 00 00 00
2026-06-06T15:05:34.879675,24.901,can0  204  [16]  E1 22 6F 44 2B 2A 00 00 28 23 30 75 30 75 00 00
2026-06-06T15:05:34.879726,24.901,can0  041  [04]  4A 01 1C 00
2026-06-06T15:05:34.879761,24.901,can0  070  [20]  CE 2C 4D 08 C5 AE 62 03 A0 8C 00 00 05 16 00 00 15 00 00 00
2026-06-06T15:05:34.974573,24.996,can0  204  [16]  E1 22 72 44 21 2A 00 00 28 23 30 75 30 75 00 00
2026-06-06T15:05:34.979650,25.001,can0  040  [04]  D5 00 0C 00
2026-06-06T15:05:35.074666,25.096,can0  204  [16]  E1 22 72 44 21 2A 00 00 28 23 30 75 30 75 00 00
2026-06-06T15:05:35.074832,25.096,can0  060  [32]  00 00 00 00 00 00 00 00 00 00 00 00 00 00 00 00 00 00 00 00 00 00 00 00 00 00 00 00 00 00 00 00
2026-06-06T15:05:35.175133,25.197,can0  204  [16]  E1 22 72 44 36 2A 00 00 28 23 30 75 30 75 00 00
2026-06-06T15:05:35.177422,25.199,can0  204  [16]  E1 22 72 44 36 2A 00 00 28 23 30 75 30 75 00 00
2026-06-06T15:05:35.177461,25.199,can0  206  [24]  C5 0C C6 05 1B 0D 99 C6 7C 06 20 0D F8 0C 00 00 00 00 00 00 00 00 00 00
2026-06-06T15:05:35.177623,25.199,can0  041  [04]  4A 01 1C 00
2026-06-06T15:05:35.177817,25.199,can0  204  [16]  E1 22 6E 44 2B 2A 00 00 28 23 30 75 30 75 00 00
2026-06-06T15:05:35.177928,25.199,can0  070  [20]  CE 2C 4D 08 C5 AE 62 03 88 90 00 00 05 16 00 00 1F 00 00 00
2026-06-06T15:05:35.274878,25.296,can0  070  [20]  CE 2C 4D 08 C5 AE 62 03 88 90 00 00 05 16 00 00 1F 00 00 00
2026-06-06T15:05:35.275347,25.297,can0  204  [16]  E1 22 6C 44 29 2A 00 00 28 23 30 75 30 75 00 00
2026-06-06T15:05:35.275382,25.297,can0  040  [04]  C8 00 0B 00
2026-06-06T15:05:35.275588,25.297,can0  204  [16]  E1 22 6C 44 29 2A 00 00 28 23 30 75 30 75 00 00
2026-06-06T15:05:35.275729,25.297,can0  100  [03]  1A 72 04
2026-06-06T15:05:35.374672,25.396,can0  120  [04]  00 00 00 00
2026-06-06T15:05:35.374934,25.396,can0  070  [20]  CE 2C 4D 08 C5 AE 62 03 88 90 00 00 05 16 00 00 1F 00 00 00
2026-06-06T15:05:35.375211,25.397,can0  204  [16]  E1 22 6D 44 27 2A 00 00 28 23 30 75 30 75 00 00
2026-06-06T15:05:35.475059,25.496,can0  204  [16]  E1 22 6F 44 27 2A 00 00 28 23 30 75 30 75 00 00
2026-06-06T15:05:35.480393,25.502,can0  041  [04]  46 01 1B 00
2026-06-06T15:05:35.480438,25.502,can0  204  [16]  E1 22 6F 44 27 2A 00 00 28 23 30 75 30 75 00 00
2026-06-06T15:05:35.480473,25.502,can0  040  [04]  BF 00 0B 00
2026-06-06T15:05:35.674912,25.696,can0  204  [16]  E1 22 70 44 31 2A 00 00 28 23 30 75 30 75 00 00
2026-06-06T15:05:35.675043,25.696,can0  060  [32]  00 00 00 00 CE 2C 4D 08 1A 04 B8 10 00 00 10 0E FF 01 00 00 00 00 00 00 01 00 00 00 00 00 00 00
2026-06-06T15:05:35.680585,25.702,can0  204  [16]  E1 22 70 44 31 2A 00 00 28 23 30 75 30 75 00 00
2026-06-06T15:05:35.680632,25.702,can0  204  [16]  E1 22 72 44 36 2A 00 00 28 23 30 75 30 75 00 00
2026-06-06T15:05:35.774598,25.796,can0  041  [04]  4A 01 1C 00
2026-06-06T15:05:35.799280,25.821,can0  204  [16]  E1 22 72 44 3C 2A 00 00 28 23 30 75 30 75 00 00
2026-06-06T15:05:35.801730,25.823,can0  204  [16]  E1 22 72 44 3C 2A 00 00 28 23 30 75 30 75 00 00
2026-06-06T15:05:35.801775,25.823,can0  040  [04]  B8 00 0C 00
2026-06-06T15:05:35.801812,25.823,can0  206  [24]  C5 0C C5 05 1B 0D 99 C6 76 06 1B 0D F8 0C 00 00 00 00 00 00 00 00 00 00
2026-06-06T15:05:35.874421,25.896,can0  204  [16]  E1 22 6E 44 29 2A 00 00 28 23 30 75 30 75 00 00
2026-06-06T15:05:35.874579,25.896,can0  070  [20]  CE 2C 4D 08 C5 AE 62 03 88 90 00 00 05 16 00 00 1F 00 00 00
2026-06-06T15:05:35.975098,25.996,can0  070  [20]  CE 2C 4D 08 C5 AE 62 03 88 90 00 00 05 16 00 00 1F 00 00 00
2026-06-06T15:05:35.975763,25.997,can0  204  [16]  E1 22 6E 44 29 2A 00 00 28 23 30 75 30 75 00 00
2026-06-06T15:05:35.975802,25.997,can0  204  [16]  E1 22 69 44 36 2A 00 00 28 23 30 75 30 75 00 00
2026-06-06T15:05:35.975836,25.997,can0  041  [04]  4B 01 1F 00
2026-06-06T15:05:35.975870,25.997,can0  204  [16]  E1 22 6C 44 2B 2A 00 00 28 23 30 75 30 75 00 00
2026-06-06T15:05:36.079752,26.101,can0  040  [04]  B8 00 0D 00
2026-06-06T15:05:36.079805,26.101,can0  204  [16]  E1 22 6C 44 2B 2A 00 00 28 23 30 75 30 75 00 00
2026-06-06T15:05:36.079840,26.101,can0  060  [32]  00 00 00 00 00 00 00 00 00 00 00 00 00 00 00 00 00 00 00 00 00 00 00 00 00 00 00 00 00 00 00 00
2026-06-06T15:05:36.174140,26.196,can0  110  [02]  25 1B
2026-06-06T15:05:36.174362,26.196,can0  204  [16]  E1 22 6C 44 2B 2A 00 00 28 23 30 75 30 75 00 00
2026-06-06T15:05:36.174616,26.196,can0  204  [16]  E1 22 70 44 1F 2A 00 00 28 23 30 75 30 75 00 00
2026-06-06T15:05:36.174666,26.196,can0  070  [20]  CE 2C 4D 08 C7 AE 62 03 70 94 00 00 05 16 00 00 59 00 00 00
2026-06-06T15:05:36.274984,26.296,can0  041  [04]  46 01 22 00
2026-06-06T15:05:36.275226,26.297,can0  070  [20]  CE 2C 4D 08 C7 AE 62 03 70 94 00 00 05 16 00 00 59 00 00 00
2026-06-06T15:05:36.280412,26.302,can0  204  [16]  E1 22 73 44 2F 2A 00 00 28 23 30 75 30 75 00 00
2026-06-06T15:05:36.374300,26.396,can0  070  [20]  CE 2C 4D 08 C7 AE 62 03 70 94 00 00 05 16 00 00 59 00 00 00
2026-06-06T15:05:36.374662,26.396,can0  204  [16]  E1 22 72 44 31 2A 00 00 28 23 30 75 30 75 00 00
2026-06-06T15:05:36.374850,26.396,can0  040  [04]  C6 00 0E 00
2026-06-06T15:05:36.379632,26.401,can0  204  [16]  E1 22 72 44 31 2A 00 00 28 23 30 75 30 75 00 00
2026-06-06T15:05:36.474342,26.496,can0  204  [16]  E1 22 70 44 31 2A 00 00 28 23 30 75 30 75 00 00
2026-06-06T15:05:36.476456,26.498,can0  206  [24]  D5 0C C3 05 15 0D 99 C6 73 06 16 0D EE 0C 00 00 00 00 00 00 00 00 00 00
2026-06-06T15:05:36.476587,26.498,can0  060  [32]  1D 00 D6 02 89 A3 4D 08 87 65 64 03 76 00 CC 08 E0 00 80 00 00 00 00 00 01 00 00 00 00 00 00 00
2026-06-06T15:05:36.574830,26.596,can0  041  [04]  49 01 22 00
2026-06-06T15:05:36.575114,26.597,can0  204  [16]  E1 22 70 44 31 2A 00 00 28 23 30 75 30 75 00 00
2026-06-06T15:05:36.575299,26.597,can0  100  [03]  27 72 04
2026-06-06T15:05:36.575464,26.597,can0  120  [04]  00 00 00 00
2026-06-06T15:05:36.575703,26.597,can0  204  [16]  E1 22 70 44 2B 2A 00 00 28 23 30 75 30 75 00 00
2026-06-06T15:05:36.575868,26.597,can0  040  [04]  CE 00 0D 00
2026-06-06T15:05:36.674510,26.696,can0  204  [16]  E1 22 72 44 36 2A 00 00 28 23 30 75 30 75 00 00
2026-06-06T15:05:36.674737,26.696,can0  204  [16]  E1 22 72 44 36 2A 00 00 28 23 30 75 30 75 00 00
2026-06-06T15:05:36.774583,26.796,can0  204  [16]  E1 22 6D 44 21 2A 00 00 28 23 30 75 30 75 00 00
2026-06-06T15:05:36.774975,26.796,can0  041  [04]  4C 01 22 00
2026-06-06T15:05:36.775011,26.796,can0  204  [16]  E1 22 6D 44 21 2A 00 00 28 23 30 75 30 75 00 00
2026-06-06T15:05:36.775108,26.796,can0  070  [20]  CE 2C 4D 08 C7 AE 62 03 70 94 00 00 05 16 00 00 59 00 00 00
2026-06-06T15:05:36.780275,26.802,can0  040  [04]  D7 00 0C 00
2026-06-06T15:05:36.875140,26.897,can0  204  [16]  E1 22 6F 44 21 2A 00 00 28 23 30 75 30 75 00 00
2026-06-06T15:05:36.875254,26.897,can0  070  [20]  CE 2C 4D 08 C7 AE 62 03 70 94 00 00 05 16 00 00 59 00 00 00
2026-06-06T15:05:36.974379,26.996,can0  204  [16]  E1 22 6E 44 2F 2A 00 00 28 23 30 75 30 75 00 00
2026-06-06T15:05:36.974615,26.996,can0  204  [16]  E1 22 6E 44 2F 2A 00 00 28 23 30 75 30 75 00 00
2026-06-06T15:05:37.075016,27.096,can0  041  [04]  4D 01 23 00
2026-06-06T15:05:37.075223,27.097,can0  204  [16]  E1 22 72 44 2F 2A 00 00 28 23 30 75 30 75 00 00
2026-06-06T15:05:37.075400,27.097,can0  204  [16]  E1 22 72 44 2F 2A 00 00 28 23 30 75 30 75 00 00
2026-06-06T15:05:37.174149,27.196,can0  040  [04]  CF 00 0C 00
2026-06-06T15:05:37.176052,27.197,can0  206  [24]  CF 0C C6 05 16 0D 99 C6 73 06 1A 0D EE 0C 00 00 00 00 00 00 00 00 00 00
2026-06-06T15:05:37.176583,27.198,can0  204  [16]  E1 22 70 44 3A 2A 00 00 28 23 30 75 30 75 00 00
2026-06-06T15:05:37.176714,27.198,can0  070  [20]  CE 2C 4D 08 C7 AE 62 03 58 98 00 00 05 16 00 00 29 00 00 00
2026-06-06T15:05:37.274312,27.296,can0  204  [16]  E1 22 73 44 25 2A 00 00 28 23 30 75 30 75 00 00
2026-06-06T15:05:37.274431,27.296,can0  070  [20]  CE 2C 4D 08 C7 AE 62 03 58 98 00 00 05 16 00 00 29 00 00 00
2026-06-06T15:05:37.274748,27.296,can0  204  [16]  E1 22 73 44 25 2A 00 00 28 23 30 75 30 75 00 00
2026-06-06T15:05:37.274881,27.296,can0  041  [04]  4D 01 21 00
2026-06-06T15:05:37.374312,27.396,can0  070  [20]  CE 2C 4D 08 C7 AE 62 03 58 98 00 00 05 16 00 00 29 00 00 00
2026-06-06T15:05:37.379683,27.401,can0  204  [16]  E1 22 75 44 38 2A 00 00 28 23 30 75 30 75 00 00
2026-06-06T15:05:37.379728,27.401,can0  040  [04]  BF 00 0C 00
2026-06-06T15:05:37.379762,27.401,can0  204  [16]  E1 22 75 44 38 2A 00 00 28 23 30 75 30 75 00 00
2026-06-06T15:05:37.479497,27.501,can0  204  [16]  E1 22 76 44 1C 2A 00 00 28 23 30 75 30 75 00 00
2026-06-06T15:05:37.675016,27.696,can0  204  [16]  E1 22 6F 44 3A 2A 00 00 28 23 30 75 30 75 00 00
2026-06-06T15:05:37.675182,27.697,can0  041  [04]  4A 01 20 00
2026-06-06T15:05:37.675450,27.697,can0  204  [16]  E1 22 6F 44 3A 2A 00 00 28 23 30 75 30 75 00 00
2026-06-06T15:05:37.675485,27.697,can0  060  [32]  00 00 00 00 CE 2C 4D 08 1B 04 B8 10 00 00 10 0E FF 01 00 00 00 00 00 00 01 00 00 00 00 00 00 00
2026-06-06T15:05:37.675846,27.697,can0  040  [04]  B9 00 0B 00
2026-06-06T15:05:37.676167,27.698,can0  204  [16]  E1 22 6B 44 2B 2A 00 00 28 23 30 75 30 75 00 00
2026-06-06T15:05:37.676202,27.698,can0  204  [16]  E1 22 6B 44 2B 2A 00 00 28 23 30 75 30 75 00 00
2026-06-06T15:05:37.676311,27.698,can0  100  [03]  30 72 04
2026-06-06T15:05:37.681649,27.703,can0  110  [02]  24 1B
2026-06-06T15:05:37.681691,27.703,can0  120  [04]  00 00 00 00
2026-06-06T15:05:37.775029,27.796,can0  204  [16]  E1 22 6D 44 3C 2A 00 00 28 23 30 75 30 75 00 00
2026-06-06T15:05:37.776714,27.798,can0  206  [24]  D5 0C CA 05 15 0D 99 C6 72 06 11 0D EE 0C 00 00 00 00 00 00 00 00 00 00
2026-06-06T15:05:37.776833,27.798,can0  070  [20]  CE 2C 4D 08 C7 AE 62 03 58 98 00 00 05 16 00 00 29 00 00 00
2026-06-06T15:05:37.781030,27.802,can0  204  [16]  E1 22 6F 44 2F 2A 00 00 28 23 30 75 30 75 00 00
2026-06-06T15:05:37.781067,27.802,can0  041  [04]  4D 01 1F 00
2026-06-06T15:05:37.874682,27.896,can0  204  [16]  E1 22 6F 44 2F 2A 00 00 28 23 30 75 30 75 00 00
2026-06-06T15:05:37.874850,27.896,can0  070  [20]  CE 2C 4D 08 C7 AE 62 03 58 98 00 00 05 16 00 00 29 00 00 00
2026-06-06T15:05:38.074808,28.096,can0  040  [04]  B3 00 09 00
2026-06-06T15:05:38.075093,28.096,can0  204  [16]  E1 22 73 44 36 2A 00 00 28 23 30 75 30 75 00 00
2026-06-06T15:05:38.075306,28.097,can0  204  [16]  E1 22 73 44 36 2A 00 00 28 23 30 75 30 75 00 00
2026-06-06T15:05:38.075556,28.097,can0  204  [16]  E1 22 70 44 38 2A 00 00 28 23 30 75 30 75 00 00
2026-06-06T15:05:38.075836,28.097,can0  060  [32]  00 00 00 00 00 00 00 00 00 00 00 00 00 00 00 00 00 00 00 00 00 00 00 00 00 00 00 00 00 00 00 00
2026-06-06T15:05:38.075874,28.097,can0  041  [04]  4D 01 1F 00
2026-06-06T15:05:38.080998,28.102,can0  204  [16]  E1 22 70 44 38 2A 00 00 28 23 30 75 30 75 00 00
2026-06-06T15:05:38.274305,28.296,can0  040  [04]  B3 00 09 00
2026-06-06T15:05:38.274563,28.296,can0  204  [16]  E1 22 6F 44 48 2A 00 00 28 23 30 75 30 75 00 00
2026-06-06T15:05:38.275111,28.296,can0  070  [20]  CE 2C 4D 08 C8 AE 62 03 40 9C 00 00 05 16 00 00 21 00 00 00
2026-06-06T15:05:38.275153,28.297,can0  204  [16]  E1 22 71 44 2F 2A 00 00 28 23 30 75 30 75 00 00
2026-06-06T15:05:38.275189,28.297,can0  070  [20]  CE 2C 4D 08 C8 AE 62 03 40 9C 00 00 05 16 00 00 21 00 00 00
2026-06-06T15:05:38.275224,28.297,can0  070  [20]  CE 2C 4D 08 C8 AE 62 03 40 9C 00 00 05 16 00 00 21 00 00 00
2026-06-06T15:05:38.280518,28.302,can0  204  [16]  E1 22 74 44 36 2A 00 00 28 23 30 75 30 75 00 00
2026-06-06T15:05:38.474789,28.496,can0  041  [04]  54 01 20 00
2026-06-06T15:05:38.475693,28.497,can0  204  [16]  E1 22 74 44 36 2A 00 00 28 23 30 75 30 75 00 00
2026-06-06T15:05:38.475907,28.497,can0  204  [16]  E1 22 73 44 4A 2A 00 00 28 23 30 75 30 75 00 00
2026-06-06T15:05:38.476056,28.497,can0  040  [04]  B3 00 0B 00
2026-06-06T15:05:38.479030,28.500,can0  206  [24]  DA 0C CD 05 1A 0D 99 C6 72 06 0C 0D E9 0C 00 00 00 00 00 00 00 00 00 00
2026-06-06T15:05:38.479080,28.500,can0  204  [16]  E1 22 73 44 4A 2A 00 00 28 23 30 75 30 75 00 00
2026-06-06T15:05:38.674384,28.696,can0  204  [16]  E1 22 67 44 34 2A 00 00 28 23 30 75 30 75 00 00
2026-06-06T15:05:38.674563,28.696,can0  060  [32]  00 00 00 00 00 00 00 00 00 00 00 00 00 00 00 00 00 00 00 00 00 00 00 00 00 00 00 00 00 00 00 00
2026-06-06T15:05:38.674738,28.696,can0  204  [16]  E1 22 67 44 34 2A 00 00 28 23 30 75 30 75 00 00
2026-06-06T15:05:38.674853,28.696,can0  041  [04]  58 01 20 00
2026-06-06T15:05:38.674953,28.696,can0  060  [32]  00 00 00 00 CE 2C 4D 08 1D 04 B8 10 00 00 10 0E FF 01 00 00 00 00 00 00 01 00 00 00 00 00 00 00
2026-06-06T15:05:38.680415,28.702,can0  204  [16]  E1 22 66 44 38 2A 00 00 28 23 30 75 30 75 00 00
2026-06-06T15:05:38.775018,28.796,can0  040  [04]  B3 00 0C 00
2026-06-06T15:05:38.775242,28.797,can0  204  [16]  E1 22 6E 44 25 2A 00 00 28 23 30 75 30 75 00 00
2026-06-06T15:05:38.775437,28.797,can0  204  [16]  E1 22 6E 44 25 2A 00 00 28 23 30 75 30 75 00 00
2026-06-06T15:05:38.775516,28.797,can0  070  [20]  CE 2C 4D 08 C8 AE 62 03 40 9C 00 00 05 16 00 00 21 00 00 00
2026-06-06T15:05:38.874224,28.896,can0  204  [16]  E1 22 72 44 1F 2A 00 00 28 23 30 75 30 75 00 00
2026-06-06T15:05:38.874386,28.896,can0  070  [20]  CE 2C 4D 08 C8 AE 62 03 40 9C 00 00 05 16 00 00 21 00 00 00
2026-06-06T15:05:38.874625,28.896,can0  041  [04]  59 01 1E 00
2026-06-06T15:05:38.874777,28.896,can0  204  [16]  E1 22 72 44 1F 2A 00 00 28 23 30 75 30 75 00 00
2026-06-06T15:05:38.874916,28.896,can0  100  [03]  38 72 04
2026-06-06T15:05:38.880081,28.901,can0  120  [04]  00 00 00 00
2026-06-06T15:05:38.975148,28.997,can0  204  [16]  E1 22 73 44 1C 2A 00 00 28 23 30 75 30 75 00 00
2026-06-06T15:05:38.975360,28.997,can0  040  [04]  B3 00 0E 00
2026-06-06T15:05:38.975537,28.997,can0  204  [16]  E1 22 74 44 34 2A 00 00 28 23 30 75 30 75 00 00
2026-06-06T15:05:39.074275,29.096,can0  204  [16]  E1 22 74 44 34 2A 00 00 28 23 30 75 30 75 00 00
2026-06-06T15:05:39.175084,29.196,can0  060  [32]  00 00 00 00 00 00 00 00 00 00 00 00 00 00 00 00 00 00 00 00 00 00 00 00 00 00 00 00 00 00 00 00
2026-06-06T15:05:39.177326,29.199,can0  206  [24]  D5 0C CE 05 15 0D 99 C6 72 06 11 0D EE 0C 00 00 00 00 00 00 00 00 00 00
2026-06-06T15:05:39.177519,29.199,can0  204  [16]  E1 22 74 44 34 2A 00 00 28 23 30 75 30 75 00 00
2026-06-06T15:05:39.177714,29.199,can0  041  [04]  58 01 1B 00
2026-06-06T15:05:39.177883,29.199,can0  060  [32]  EB 31 D6 02 3D 48 4D 08 FB EB B7 10 44 00 7F 03 FF 01 00 00 00 00 00 00 01 00 00 00 00 00 00 00
2026-06-06T15:05:39.274159,29.296,can0  204  [16]  E1 22 73 44 54 2A 00 00 28 23 30 75 30 75 00 00
2026-06-06T15:05:39.274272,29.296,can0  070  [20]  CE 2C 4D 08 C8 AE 62 03 28 A0 00 00 05 16 00 00 1E 00 00 00
2026-06-06T15:05:39.274625,29.296,can0  040  [04]  AD 00 0D 00
2026-06-06T15:05:39.274661,29.296,can0  204  [16]  E1 22 73 44 54 2A 00 00 28 23 30 75 30 75 00 00
2026-06-06T15:05:39.274707,29.296,can0  070  [20]  CE 2C 4D 08 C8 AE 62 03 28 A0 00 00 05 16 00 00 1E 00 00 00
2026-06-06T15:05:39.280145,29.302,can0  110  [02]  24 1B
2026-06-06T15:05:39.374616,29.396,can0  204  [16]  E1 22 78 44 0B 2A 00 00 28 23 30 75 30 75 00 00
2026-06-06T15:05:39.374812,29.396,can0  204  [16]  E1 22 78 44 0B 2A 00 00 28 23 30 75 30 75 00 00
2026-06-06T15:05:39.374922,29.396,can0  070  [20]  CE 2C 4D 08 C8 AE 62 03 28 A0 00 00 05 16 00 00 1E 00 00 00
2026-06-06T15:05:39.474927,29.496,can0  041  [04]  57 01 1A 00
2026-06-06T15:05:39.475166,29.497,can0  204  [16]  E1 22 76 44 3E 2A 00 00 28 23 30 75 30 75 00 00
2026-06-06T15:05:39.475329,29.497,can0  040  [04]  AD 00 0D 00
2026-06-06T15:05:39.480558,29.502,can0  204  [16]  E1 22 70 44 42 2A 00 00 28 23 30 75 30 75 00 00
2026-06-06T15:05:39.574197,29.596,can0  204  [16]  E1 22 70 44 42 2A 00 00 28 23 30 75 30 75 00 00
2026-06-06T15:05:39.674972,29.696,can0  204  [16]  E1 22 6D 44 48 2A 00 00 28 23 30 75 30 75 00 00
2026-06-06T15:05:39.675182,29.697,can0  204  [16]  E1 22 6D 44 48 2A 00 00 28 23 30 75 30 75 00 00
2026-06-06T15:05:39.675334,29.697,can0  041  [04]  57 01 17 00
2026-06-06T15:05:39.774516,29.796,can0  204  [16]  E1 22 70 44 3E 2A 00 00 28 23 30 75 30 75 00 00
2026-06-06T15:05:39.774662,29.796,can0  040  [04]  A9 00 0E 00
2026-06-06T15:05:39.776817,29.798,can0  206  [24]  C6 0C D1 05 1F 0D 99 C6 70 06 16 0D F3 0C 00 00 00 00 00 00 00 00 00 00
2026-06-06T15:05:39.776999,29.798,can0  204  [16]  E1 22 70 44 3E 2A 00 00 28 23 30 75 30 75 00 00
2026-06-06T15:05:39.874924,29.896,can0  204  [16]  E1 22 75 44 46 2A 00 00 28 23 30 75 30 75 00 00
2026-06-06T15:05:39.875077,29.896,can0  070  [20]  CE 2C 4D 08 C8 AE 62 03 28 A0 00 00 05 16 00 00 1E 00 00 00
2026-06-06T15:05:39.974530,29.996,can0  204  [16]  E1 22 72 44 3C 2A 00 00 28 23 30 75 30 75 00 00
2026-06-06T15:05:39.974737,29.996,can0  041  [04]  5A 01 17 00
2026-06-06T15:05:39.974991,29.996,can0  204  [16]  E1 22 72 44 3C 2A 00 00 28 23 30 75 30 75 00 00
2026-06-06T15:05:40.074331,30.096,can0  040  [04]  A8 00 0F 00
2026-06-06T15:05:40.074530,30.096,can0  204  [16]  E1 22 6C 44 34 2A 00 00 28 23 30 75 30 75 00 00
2026-06-06T15:05:40.074812,30.096,can0  204  [16]  E1 22 6C 44 34 2A 00 00 28 23 30 75 30 75 00 00
2026-06-06T15:05:40.074852,30.096,can0  100  [03]  3E 72 04
2026-06-06T15:05:40.079930,30.101,can0  120  [04]  00 00 00 00
2026-06-06T15:05:40.175083,30.196,can0  204  [16]  E1 22 70 44 3C 2A 00 00 28 23 30 75 30 75 00 00
2026-06-06T15:05:40.175260,30.197,can0  070  [20]  CE 2C 4D 08 CA AE 62 03 10 A4 00 00 05 16 00 00 48 00 00 00
2026-06-06T15:05:40.180834,30.202,can0  041  [04]  5B 01 19 00
2026-06-06T15:05:40.274581,30.296,can0  204  [16]  E1 22 71 44 34 2A 00 00 28 23 30 75 30 75 00 00
2026-06-06T15:05:40.274698,30.296,can0  070  [20]  CE 2C 4D 08 CA AE 62 03 10 A4 00 00 05 16 00 00 47 00 00 00
2026-06-06T15:05:40.275059,30.296,can0  204  [16]  E1 22 71 44 34 2A 00 00 28 23 30 75 30 75 00 00
2026-06-06T15:05:40.280001,30.301,can0  070  [20]  CE 2C 4D 08 CA AE 62 03 10 A4 00 00 05 16 00 00 47 00 00 00
2026-06-06T15:05:40.280039,30.301,can0  040  [04]  AA 00 10 00
2026-06-06T15:05:40.374884,30.396,can0  204  [16]  E1 22 71 44 2D 2A 00 00 28 23 30 75 30 75 00 00
2026-06-06T15:05:40.380173,30.402,can0  204  [16]  E1 22 70 44 3C 2A 00 00 28 23 30 75 30 75 00 00
2026-06-06T15:05:40.476739,30.498,can0  206  [24]  C6 0C CD 05 24 0D 99 C6 6E 06 16 0D F3 0C 00 00 00 00 00 00 00 00 00 00
2026-06-06T15:05:40.476791,30.498,can0  130  [00]
2026-06-06T15:05:40.476946,30.498,can0  204  [16]  E1 22 70 44 3C 2A 00 00 28 23 30 75 30 75 00 00
2026-06-06T15:05:40.477072,30.498,can0  132  [00]
2026-06-06T15:05:40.477292,30.499,can0  041  [04]  4F 01 16 00
2026-06-06T15:05:40.482362,30.504,can0  204  [16]  E1 22 6C 44 3C 2A 00 00 28 23 30 75 30 75 00 00
2026-06-06T15:05:40.580097,30.601,can0  040  [04]  AB 00 12 00
2026-06-06T15:05:40.580147,30.602,can0  204  [16]  E1 22 6C 44 3C 2A 00 00 28 23 30 75 30 75 00 00
2026-06-06T15:05:40.675121,30.697,can0  204  [16]  E1 22 70 44 3C 2A 00 00 28 23 30 75 30 75 00 00
2026-06-06T15:05:40.675284,30.697,can0  060  [32]  00 00 00 00 CE 2C 4D 08 1F 04 B8 10 00 00 10 0E FF 01 00 00 00 00 00 00 01 00 00 00 00 00 00 00
2026-06-06T15:05:40.680764,30.702,can0  204  [16]  E1 22 70 44 3A 2A 00 00 28 23 30 75 30 75 00 00
2026-06-06T15:05:40.774574,30.796,can0  041  [04]  49 01 13 00
2026-06-06T15:05:40.780155,30.802,can0  204  [16]  E1 22 70 44 3A 2A 00 00 28 23 30 75 30 75 00 00
2026-06-06T15:05:40.780202,30.802,can0  070  [20]  CE 2C 4D 08 CA AE 62 03 10 A4 00 00 05 16 00 00 47 00 00 00
2026-06-06T15:05:40.780238,30.802,can0  204  [16]  E1 22 6D 44 2B 2A 00 00 28 23 30 75 30 75 00 00
2026-06-06T15:05:40.874562,30.896,can0  040  [04]  B3 00 15 00
2026-06-06T15:05:40.880128,30.902,can0  204  [16]  E1 22 6D 44 2B 2A 00 00 28 23 30 75 30 75 00 00
2026-06-06T15:05:40.880175,30.902,can0  070  [20]  CE 2C 4D 08 CA AE 62 03 10 A4 00 00 05 16 00 00 47 00 00 00
2026-06-06T15:05:40.880212,30.902,can0  110  [02]  24 1B
2026-06-06T15:05:40.892562,30.914,can0   001  [05]  04 86 b0 10 08 0
2026-06-06T15:05:40.974977,30.996,can0  204  [16]  E1 22 69 44 3E 2A 00 00 28 23 30 75 30 75 00 00
2026-06-06T15:05:40.980455,31.002,can0  001  [05]  48 6B 01 00 80
2026-06-06T15:05:40.980501,31.002,can0  204  [16]  E1 22 69 44 3E 2A 00 00 54 24 30 75 30 75 00 00
2026-06-06T15:05:40.980538,31.002,can0  041  [04]  45 01 0F 00
2026-06-06T15:05:41.074160,31.096,can0  204  [16]  E1 22 6D 44 2F 2A 00 00 54 24 30 75 30 75 00 00
2026-06-06T15:05:41.075996,31.097,can0  040  [04]  B3 00 15 00
2026-06-06T15:05:41.076035,31.097,can0  206  [24]  C0 0C C9 05 24 0D 99 C6 72 06 1B 0D F3 0C 00 00 00 00 00 00 00 00 00 00
2026-06-06T15:05:41.080188,31.102,can0  204  [16]  E1 22 6D 44 2F 2A 00 00 54 24 30 75 30 75 00 00
2026-06-06T15:05:41.090286,31.112,can0   001  [05]  00 07 70 10 08 0
2026-06-06T15:05:41.174173,31.196,can0  001  [05]  00 77 01 00 80
2026-06-06T15:05:41.174397,31.196,can0  070  [20]  CE 2C 4D 08 CC AE 62 03 F8 A7 00 00 05 16 00 00 25 00 00 00
2026-06-06T15:05:41.175014,31.196,can0  060  [32]  00 00 00 00 00 00 00 00 00 00 00 00 00 00 00 00 00 00 00 00 00 00 00 00 00 00 00 00 00 00 00 00
2026-06-06T15:05:41.175252,31.197,can0  204  [16]  E1 22 6F 44 3E 2A 00 00 80 25 30 75 30 75 00 00
2026-06-06T15:05:41.175369,31.197,can0  070  [20]  CE 2C 4D 08 CC AE 62 03 F8 A7 00 00 05 16 00 00 25 00 00 00
2026-06-06T15:05:41.274789,31.296,can0  204  [16]  E1 22 72 44 34 2A 00 00 80 25 30 75 30 75 00 00
2026-06-06T15:05:41.274998,31.296,can0  041  [04]  44 01 09 00
2026-06-06T15:05:41.275213,31.297,can0  100  [03]  43 72 04
2026-06-06T15:05:41.275520,31.297,can0  120  [04]  00 00 00 00
2026-06-06T15:05:41.275555,31.297,can0  204  [16]  04 23 6D 44 3A 2A 00 00 80 25 30 75 30 75 00 00
2026-06-06T15:05:41.275667,31.297,can0  070  [20]  CE 2C 4D 08 CC AE 62 03 F8 A7 00 00 05 16 00 00 25 00 00 00
2026-06-06T15:05:41.293774,31.315,can0   001  [05]  0b 88 20 10 08 0
2026-06-06T15:05:41.379138,31.401,can0  204  [16]  04 23 6D 44 3A 2A 00 00 80 25 30 75 30 75 00 00
2026-06-06T15:05:41.379190,31.401,can0  001  [05]  B8 82 01 00 80
2026-06-06T15:05:41.379224,31.401,can0  040  [04]  B3 00 16 00
2026-06-06T15:05:41.379258,31.401,can0  204  [16]  4B 23 6B 44 2D 2A 00 00 AC 26 30 75 30 75 00 00
