Timestamp,Elapsed_Time_s,CAN_Message
2026-07-26T21:29:13.484721,3.387,can0  040  [04]  AF 00 21 00
2026-07-26T21:29:13.484863,3.387,can0  002  [04]  90 5F 01 00
2026-07-26T21:29:13.584047,3.486,can0  070  [20]  C9 28 4D 08 D1 AE 62 03 B0 36 00 00 1D 04 00 00 16 00 00 00
2026-07-26T21:29:13.587009,3.489,can0  070  [20]  C9 28 4D 08 D1 AE 62 03 B0 36 00 00 1D 04 00 00 16 00 00 00
2026-07-26T21:29:13.587106,3.489,can0  041  [04]  A8 00 16 00
2026-07-26T21:29:13.684924,3.587,can0  110  [02]  12 1B
2026-07-26T21:29:13.684992,3.587,can0  070  [20]  C9 28 4D 08 D1 AE 62 03 B0 36 00 00 1D 04 00 00 16 00 00 00
2026-07-26T21:29:13.685201,3.587,can0  060  [32]  00 00 00 00 00 00 00 00 00 00 00 00 00 00 00 00 00 00 00 00 00 00 00 00 00 00 00 00 00 00 00 00
2026-07-26T21:29:13.685459,3.587,can0  040  [04]  B3 00 22 00
2026-07-26T21:29:13.685600,3.587,can0  060  [32]  00 00 00 00 C9 28 4D 08 25 04 B8 10 00 00 10 0E FF 01 00 00 00 00 00 00 01 00 00 00 00 00 00 00
2026-07-26T21:29:13.787026,3.689,can0  040  [04]  B3 00 22 00
2026-07-26T21:29:13.884649,3.787,can0  041  [04]  AA 00 15 00
2026-07-26T21:29:14.084458,3.986,can0  040  [04]  B3 00 24 00
2026-07-26T21:29:14.084908,3.987,can0  040  [04]  B3 00 24 00
2026-07-26T21:29:14.084980,3.987,can0  100  [03]  8E 6B 04
2026-07-26T21:29:14.085119,3.987,can0  120  [04]  20 4E 00 00
2026-07-26T21:29:14.085345,3.987,can0  041  [04]  A7 00 11 00
2026-07-26T21:29:14.184958,4.087,can0  070  [20]  C9 28 4D 08 D1 AE 62 03 B0 36 00 00 1D 04 00 00 16 00 00 00
2026-07-26T21:29:14.185203,4.087,can0  060  [32]  00 00 00 00 00 00 00 00 00 00 00 00 00 00 00 00 00 00 00 00 00 00 00 00 00 00 00 00 00 00 00 00
2026-07-26T21:29:14.284458,4.186,can0  070  [20]  C9 28 4D 08 D1 AE 62 03 B0 36 00 00 1D 04 00 00 16 00 00 00
2026-07-26T21:29:14.284724,4.187,can0  040  [04]  B5 00 29 00
2026-07-26T21:29:14.284934,4.187,can0  040  [04]  B5 00 29 00
2026-07-26T21:29:14.387077,4.289,can0  041  [04]  AA 00 10 00
2026-07-26T21:29:14.484346,4.386,can0  040  [04]  B6 00 2D 00
2026-07-26T21:29:14.484571,4.386,can0  002  [04]  90 5F 01 00
2026-07-26T21:29:14.585034,4.487,can0  070  [20]  CB 28 4D 08 D1 AE 62 03 98 3A 00 00 1D 04 00 00 2C 00 00 00
2026-07-26T21:29:14.585284,4.487,can0  070  [20]  CB 28 4D 08 D1 AE 62 03 98 3A 00 00 1D 04 00 00 2D 00 00 00
2026-07-26T21:29:14.585541,4.487,can0  040  [04]  B6 00 2D 00
2026-07-26T21:29:14.684366,4.586,can0  041  [04]  A4 00 0E 00
2026-07-26T21:29:14.684635,4.587,can0  070  [20]  CB 28 4D 08 D1 AE 62 03 98 3A 00 00 1D 04 00 00 2D 00 00 00
2026-07-26T21:29:14.684890,4.587,can0  060  [32]  00 00 00 00 CB 28 4D 08 25 04 B8 10 00 00 10 0E FF 01 00 00 00 00 00 00 01 00 00 00 00 00 00 00
2026-07-26T21:29:14.784028,4.686,can0  132  [00]
2026-07-26T21:29:14.784282,4.686,can0  040  [04]  B6 00 2A 00
2026-07-26T21:29:14.784517,4.686,can0  040  [04]  B6 00 2A 00
2026-07-26T21:29:14.884607,4.787,can0  041  [04]  A5 00 0B 00
2026-07-26T21:29:14.984988,4.887,can0  001  [05]  00 00 00 00 40
2026-07-26T21:29:15.084747,4.987,can0  040  [04]  B9 00 23 00
2026-07-26T21:29:15.084992,4.987,can0  040  [04]  B9 00 23 00
2026-07-26T21:29:15.184222,5.086,can0  070  [20]  CB 28 4D 08 D1 AE 62 03 98 3A 00 00 1D 04 00 00 2D 00 00 00
2026-07-26T21:29:15.184487,5.086,can0  041  [04]  A4 00 06 00
2026-07-26T21:29:15.184698,5.087,can0  060  [32]  00 00 00 00 00 00 00 00 00 00 00 00 00 00 00 00 00 00 00 00 00 00 00 00 00 00 00 00 00 00 00 00
2026-07-26T21:29:15.284597,5.186,can0  100  [03]  8D 6B 04
2026-07-26T21:29:15.284796,5.187,can0  110  [02]  12 1B
2026-07-26T21:29:15.285007,5.187,can0  120  [04]  20 4E 00 00
2026-07-26T21:29:15.287987,5.190,can0  070  [20]  CB 28 4D 08 D1 AE 62 03 98 3A 00 00 1D 04 00 00 2D 00 00 00
2026-07-26T21:29:15.288050,5.190,can0  040  [04]  BD 00 22 00
2026-07-26T21:29:15.386661,5.289,can0  040  [04]  BD 00 22 00
2026-07-26T21:29:15.484406,5.386,can0  041  [04]  91 00 07 00
2026-07-26T21:29:15.484644,5.387,can0  002  [04]  90 5F 01 00
2026-07-26T21:29:15.584108,5.486,can0  070  [20]  CB 28 4D 08 D1 AE 62 03 80 3E 00 00 1D 04 00 00 68 00 00 00
2026-07-26T21:29:15.584356,5.486,can0  070  [20]  CB 28 4D 08 D1 AE 62 03 80 3E 00 00 1D 04 00 00 67 00 00 00
2026-07-26T21:29:15.584646,5.487,can0  040  [04]  C0 00 25 00
2026-07-26T21:29:15.684068,5.586,can0  040  [04]  C0 00 25 00
2026-07-26T21:29:15.684635,5.587,can0  070  [20]  CB 28 4D 08 D1 AE 62 03 80 3E 00 00 1D 04 00 00 67 00 00 00
2026-07-26T21:29:15.684878,5.587,can0  041  [04]  A9 00 0A 00
2026-07-26T21:29:15.687703,5.590,can0  060  [32]  00 00 00 00 00 00 00 00 00 00 00 00 00 00 00 00 00 00 00 00 00 00 00 00 00 00 00 00 00 00 00 00
2026-07-26T21:29:15.784536,5.686,can0  060  [32]  00 00 00 00 CB 28 4D 08 25 04 B8 10 00 00 10 0E FF 01 00 00 00 00 00 00 01 00 00 00 00 00 00 00
2026-07-26T21:29:15.884900,5.787,can0  040  [04]  BE 00 29 00
2026-07-26T21:29:15.886534,5.788,can0  040  [04]  BE 00 29 00
2026-07-26T21:29:15.987312,5.889,can0  041  [04]  B0 00 0D 00
2026-07-26T21:29:16.184988,6.087,can0  040  [04]  BF 00 2D 00
2026-07-26T21:29:16.188811,6.091,can0  070  [20]  CB 28 4D 08 D1 AE 62 03 80 3E 00 00 1D 04 00 00 67 00 00 00
2026-07-26T21:29:16.188896,6.091,can0  040  [04]  BF 00 2D 00
2026-07-26T21:29:16.284520,6.186,can0  041  [04]  B0 00 0F 00
2026-07-26T21:29:16.285661,6.188,can0  070  [20]  CB 28 4D 08 D1 AE 62 03 80 3E 00 00 1D 04 00 00 67 00 00 00
2026-07-26T21:29:16.285723,6.188,can0  060  [32]  00 00 00 00 00 00 00 00 00 00 00 00 00 00 00 00 00 00 00 00 00 00 00 00 00 00 00 00 00 00 00 00
2026-07-26T21:29:16.484681,6.387,can0  040  [04]  BE 00 30 00
2026-07-26T21:29:16.488980,6.391,can0  100  [03]  8D 6B 04
2026-07-26T21:29:16.489226,6.391,can0  120  [04]  20 4E 00 00
2026-07-26T21:29:16.489513,6.391,can0  040  [04]  BE 00 30 00
2026-07-26T21:29:16.489765,6.392,can0  041  [04]  A7 00 0E 00
2026-07-26T21:29:16.489942,6.392,can0  002  [04]  90 5F 01 00
2026-07-26T21:29:16.584245,6.486,can0  070  [20]  CD 28 4D 08 D1 AE 62 03 68 42 00 00 1D 04 00 00 1C 00 00 00
2026-07-26T21:29:16.584492,6.486,can0  070  [20]  CD 28 4D 08 D1 AE 62 03 68 42 00 00 1D 04 00 00 1B 00 00 00
2026-07-26T21:29:16.684896,6.587,can0  040  [04]  BE 00 2F 00
2026-07-26T21:29:16.685485,6.587,can0  070  [20]  CD 28 4D 08 D1 AE 62 03 68 42 00 00 1D 04 00 00 1B 00 00 00
2026-07-26T21:29:16.685726,6.588,can0  040  [04]  BE 00 2F 00
2026-07-26T21:29:16.784468,6.686,can0  060  [32]  00 00 00 00 CD 28 4D 08 25 04 B8 10 00 00 10 0E FF 01 00 00 00 00 00 00 01 00 00 00 00 00 00 00
2026-07-26T21:29:16.784955,6.687,can0  041  [04]  A1 00 10 00
2026-07-26T21:29:16.884767,6.787,can0  110  [02]  11 1B
2026-07-26T21:29:16.885041,6.787,can0  040  [04]  BF 00 2C 00
2026-07-26T21:29:16.984318,6.886,can0  040  [04]  BF 00 2C 00
2026-07-26T21:29:16.984558,6.886,can0  001  [05]  00 00 00 00 40
2026-07-26T21:29:17.083946,6.986,can0  041  [04]  AA 00 10 00
2026-07-26T21:29:17.184074,7.086,can0  070  [20]  CD 28 4D 08 D1 AE 62 03 68 42 00 00 1D 04 00 00 1B 00 00 00
2026-07-26T21:29:17.184340,7.086,can0  040  [04]  B9 00 2A 00
2026-07-26T21:29:17.184605,7.086,can0  040  [04]  B9 00 2A 00
2026-07-26T21:29:17.284300,7.186,can0  060  [32]  00 00 00 00 00 00 00 00 00 00 00 00 00 00 00 00 00 00 00 00 00 00 00 00 00 00 00 00 00 00 00 00
2026-07-26T21:29:17.284579,7.186,can0  070  [20]  CD 28 4D 08 D1 AE 62 03 68 42 00 00 1D 04 00 00 1B 00 00 00
2026-07-26T21:29:17.284809,7.187,can0  041  [04]  AE 00 10 00
2026-07-26T21:29:17.384606,7.287,can0  060  [32]  85 FD E8 05 EA 89 4D 08 D1 C7 62 03 00 00 B1 08 84 00 80 00 00 00 00 00 01 00 00 00 00 00 00 00
2026-07-26T21:29:17.484072,7.386,can0  040  [04]  B6 00 2A 00
2026-07-26T21:29:17.484327,7.386,can0  040  [04]  B6 00 2A 00
2026-07-26T21:29:17.484581,7.386,can0  002  [04]  90 5F 01 00
2026-07-26T21:29:17.584166,7.486,can0  070  [20]  CD 28 4D 08 D1 AE 62 03 50 46 00 00 1D 04 00 00 21 00 00 00
2026-07-26T21:29:17.584405,7.486,can0  070  [20]  CD 28 4D 08 D1 AE 62 03 50 46 00 00 1D 04 00 00 22 00 00 00
2026-07-26T21:29:17.584674,7.487,can0  041  [04]  AF 00 12 00
2026-07-26T21:29:17.685049,7.587,can0  100  [03]  8F 6B 04
2026-07-26T21:29:17.685281,7.587,can0  120  [04]  20 4E 00 00
2026-07-26T21:29:17.685849,7.588,can0  070  [20]  CD 28 4D 08 D1 AE 62 03 50 46 00 00 1D 04 00 00 22 00 00 00
2026-07-26T21:29:17.686099,7.588,can0  040  [04]  B5 00 2B 00
2026-07-26T21:29:17.784919,7.687,can0  040  [04]  B5 00 2B 00
2026-07-26T21:29:17.884026,7.786,can0  041  [04]  AC 00 13 00
2026-07-26T21:29:17.984909,7.887,can0  040  [04]  B3 00 2E 00
2026-07-26T21:29:18.084119,7.986,can0  040  [04]  B3 00 2E 00
2026-07-26T21:29:18.084440,7.986,can0  041  [04]  A4 00 16 00
2026-07-26T21:29:18.184954,8.087,can0  070  [20]  CD 28 4D 08 D1 AE 62 03 50 46 00 00 1D 04 00 00 22 00 00 00
2026-07-26T21:29:18.284709,8.187,can0  070  [20]  CD 28 4D 08 D1 AE 62 03 50 46 00 00 1D 04 00 00 22 00 00 00
2026-07-26T21:29:18.285016,8.187,can0  040  [04]  B3 00 30 00
2026-07-26T21:29:18.285265,8.187,can0  040  [04]  B3 00 30 00
2026-07-26T21:29:18.384848,8.287,can0  041  [04]  9C 00 18 00
2026-07-26T21:29:18.485035,8.387,can0  110  [02]  12 1B
2026-07-26T21:29:18.485330,8.387,can0  070  [20]  CD 28 4D 08 CF AE 62 03 38 4A 00 00 1D 04 00 00 13 00 00 00
2026-07-26T21:29:18.485589,8.387,can0  040  [04]  B3 00 35 00
2026-07-26T21:29:18.485753,8.388,can0  002  [04]  90 5F 01 00
2026-07-26T21:29:18.584822,8.487,can0  070  [20]  CD 28 4D 08 CF AE 62 03 38 4A 00 00 1D 04 00 00 13 00 00 00
2026-07-26T21:29:18.585059,8.487,can0  040  [04]  B3 00 35 00
2026-07-26T21:29:18.684859,8.587,can0  041  [04]  95 00 16 00
2026-07-26T21:29:18.685177,8.587,can0  070  [20]  CD 28 4D 08 CF AE 62 03 38 4A 00 00 1D 04 00 00 13 00 00 00
2026-07-26T21:29:18.784854,8.687,can0  060  [32]  00 00 00 00 CD 28 4D 08 24 04 B8 10 00 00 10 0E FF 01 00 00 00 00 00 00 01 00 00 00 00 00 00 00
2026-07-26T21:29:18.785370,8.687,can0  040  [04]  B3 00 33 00
2026-07-26T21:29:18.785617,8.688,can0  040  [04]  B3 00 33 00
2026-07-26T21:29:18.884403,8.786,can0  100  [03]  8E 6B 04
2026-07-26T21:29:18.884632,8.787,can0  120  [04]  16 4E 00 00
2026-07-26T21:29:18.884897,8.787,can0  041  [04]  9C 00 15 00
2026-07-26T21:29:18.984655,8.887,can0  001  [05]  00 00 00 00 40
2026-07-26T21:29:19.084274,8.986,can0  040  [04]  B3 00 32 00
2026-07-26T21:29:19.084518,8.986,can0  040  [04]  B3 00 32 00
2026-07-26T21:29:19.184605,9.086,can0  070  [20]  CD 28 4D 08 CF AE 62 03 38 4A 00 00 1D 04 00 00 13 00 00 00
2026-07-26T21:29:19.184855,9.087,can0  041  [04]  9D 00 13 00
2026-07-26T21:29:19.185093,9.087,can0  070  [20]  CD 28 4D 08 CF AE 62 03 38 4A 00 00 1D 04 00 00 13 00 00 00
2026-07-26T21:29:19.284577,9.186,can0  060  [32]  00 00 00 00 00 00 00 00 00 00 00 00 00 00 00 00 00 00 00 00 00 00 00 00 00 00 00 00 00 00 00 00
2026-07-26T21:29:19.288321,9.190,can0  040  [04]  B5 00 32 00
2026-07-26T21:29:19.387535,9.289,can0  040  [04]  B5 00 32 00
2026-07-26T21:29:19.484332,9.386,can0  041  [04]  A9 00 10 00
2026-07-26T21:29:19.484522,9.386,can0  002  [04]  90 5F 01 00
2026-07-26T21:29:19.585009,9.487,can0  070  [20]  CE 28 4D 08 CF AE 62 03 20 4E 00 00 1D 04 00 00 18 00 00 00
2026-07-26T21:29:19.585220,9.487,can0  070  [20]  CE 28 4D 08 CF AE 62 03 20 4E 00 00 1D 04 00 00 18 00 00 00
2026-07-26T21:29:19.585507,9.487,can0  040  [04]  B5 00 35 00
2026-07-26T21:29:19.587282,9.489,can0  040  [04]  B5 00 35 00
2026-07-26T21:29:19.684361,9.586,can0  070  [20]  CE 28 4D 08 CF AE 62 03 20 4E 00 00 1D 04 00 00 18 00 00 00
2026-07-26T21:29:19.684602,9.586,can0  041  [04]  B0 00 0F 00
2026-07-26T21:29:19.784436,9.686,can0  060  [32]  00 00 00 00 00 00 00 00 00 00 00 00 00 00 00 00 00 00 00 00 00 00 00 00 00 00 00 00 00 00 00 00
2026-07-26T21:29:19.784612,9.687,can0  060  [32]  00 00 00 00 CE 28 4D 08 24 04 B8 10 00 00 10 0E FF 01 00 00 00 00 00 00 01 00 00 00 00 00 00 00
2026-07-26T21:29:19.884960,9.787,can0  040  [04]  B8 00 3B 00
2026-07-26T21:29:19.885202,9.787,can0  040  [04]  B8 00 3B 00
2026-07-26T21:29:19.984671,9.887,can0  041  [04]  B5 00 0E 00
2026-07-26T21:29:19.984869,9.887,can0  100  [03]  8D 6B 04
2026-07-26T21:29:20.085027,9.987,can0  110  [02]  12 1B
2026-07-26T21:29:20.085220,9.987,can0  120  [04]  16 4E 00 00
2026-07-26T21:29:20.085476,9.987,can0  040  [04]  BA 00 3E 00
2026-07-26T21:29:20.184833,10.087,can0  070  [20]  CE 28 4D 08 CF AE 62 03 20 4E 00 00 1D 04 00 00 18 00 00 00
2026-07-26T21:29:20.185035,10.087,can0  040  [04]  BA 00 3E 00
2026-07-26T21:29:20.284539,10.186,can0  041  [04]  B5 00 0E 00
2026-07-26T21:29:20.284769,10.187,can0  070  [20]  CE 28 4D 08 CF AE 62 03 20 4E 00 00 1D 04 00 00 18 00 00 00
2026-07-26T21:29:20.285032,10.187,can0  060  [32]  00 00 00 00 00 00 00 00 00 00 00 00 00 00 00 00 00 00 00 00 00 00 00 00 00 00 00 00 00 00 00 00
2026-07-26T21:29:20.408328,10.310,can0  040  [04]  B6 00 3D 00
2026-07-26T21:29:20.408591,10.310,can0  040  [04]  B6 00 3D 00
2026-07-26T21:29:20.484141,10.386,can0  041  [04]  A5 00 0F 00
2026-07-26T21:29:20.484364,10.386,can0  070  [20]  CE 28 4D 08 CF AE 62 03 08 52 00 00 1D 04 00 00 4C 00 00 00
2026-07-26T21:29:20.484638,10.387,can0  002  [04]  90 5F 01 00
2026-07-26T21:29:20.584483,10.486,can0  070  [20]  CE 28 4D 08 CF AE 62 03 08 52 00 00 1D 04 00 00 4B 00 00 00
2026-07-26T21:29:20.587625,10.490,can0  040  [04]  B3 00 35 00
2026-07-26T21:29:20.684824,10.587,can0  070  [20]  CE 28 4D 08 CF AE 62 03 08 52 00 00 1D 04 00 00 4B 00 00 00
2026-07-26T21:29:20.684933,10.587,can0  040  [04]  B3 00 35 00
2026-07-26T21:29:20.784484,10.686,can0  041  [04]  A5 00 0F 00
2026-07-26T21:29:20.784621,10.687,can0  060  [32]  00 00 00 00 CE 28 4D 08 24 04 B8 10 00 00 10 0E FF 01 00 00 00 00 00 00 01 00 00 00 00 00 00 00
2026-07-26T21:29:20.884830,10.787,can0  040  [04]  B7 00 22 00
2026-07-26T21:29:20.984610,10.887,can0  040  [04]  B7 00 22 00
2026-07-26T21:29:20.987661,10.890,can0  001  [05]  00 00 00 00 40
2026-07-26T21:29:21.084580,10.986,can0  041  [04]  AF 00 0C 00
2026-07-26T21:29:21.285268,11.187,can0  070  [20]  CE 28 4D 08 CF AE 62 03 08 52 00 00 1D 04 00 00 4B 00 00 00
2026-07-26T21:29:21.285577,11.187,can0  040  [04]  C4 00 15 00
2026-07-26T21:29:21.285797,11.188,can0  070  [20]  CE 28 4D 08 CF AE 62 03 08 52 00 00 1D 04 00 00 4B 00 00 00
2026-07-26T21:29:21.286053,11.188,can0  040  [04]  C4 00 15 00
2026-07-26T21:29:21.286306,11.188,can0  100  [03]  8F 6B 04
2026-07-26T21:29:21.286485,11.188,can0  120  [04]  16 4E 00 00
2026-07-26T21:29:21.286820,11.189,can0  060  [32]  00 00 00 00 00 00 00 00 00 00 00 00 00 00 00 00 00 00 00 00 00 00 00 00 00 00 00 00 00 00 00 00
2026-07-26T21:29:21.286900,11.189,can0  041  [04]  B5 00 0B 00
2026-07-26T21:29:21.484521,11.386,can0  040  [04]  CE 00 12 00
2026-07-26T21:29:21.484802,11.387,can0  040  [04]  CE 00 12 00
2026-07-26T21:29:21.488903,11.391,can0  002  [04]  90 5F 01 00
2026-07-26T21:29:21.490726,11.393,can0  070  [20]  CE 28 4D 08 CF AE 62 03 F0 55 00 00 1D 04 00 00 1E 00 00 00
2026-07-26T21:29:21.587617,11.490,can0  070  [20]  CE 28 4D 08 CF AE 62 03 F0 55 00 00 1D 04 00 00 1E 00 00 00
2026-07-26T21:29:21.587689,11.490,can0  041  [04]  B0 00 0D 00
2026-07-26T21:29:21.587732,11.490,can0  110  [02]  11 1B
2026-07-26T21:29:21.684904,11.587,can0  070  [20]  CE 28 4D 08 CF AE 62 03 F0 55 00 00 1D 04 00 00 1E 00 00 00
2026-07-26T21:29:21.685165,11.587,can0  040  [04]  C8 00 17 00
2026-07-26T21:29:21.784885,11.687,can0  040  [04]  C8 00 17 00
2026-07-26T21:29:21.785117,11.687,can0  060  [32]  00 00 00 00 CE 28 4D 08 24 04 B8 10 00 00 10 0E FF 01 00 00 00 00 00 00 01 00 00 00 00 00 00 00
2026-07-26T21:29:21.887526,11.789,can0  041  [04]  AE 00 12 00
2026-07-26T21:29:22.084760,11.987,can0  040  [04]  BE 00 21 00
2026-07-26T21:29:22.084861,11.987,can0  040  [04]  BE 00 21 00
2026-07-26T21:29:22.085000,11.987,can0  041  [04]  B2 00 10 00
2026-07-26T21:29:22.184936,12.087,can0  070  [20]  CE 28 4D 08 CF AE 62 03 F0 55 00 00 1D 04 00 00 1E 00 00 00
2026-07-26T21:29:22.188102,12.090,can0  040  [04]  B8 00 26 00
2026-07-26T21:29:22.285334,12.187,can0  070  [20]  CE 28 4D 08 CF AE 62 03 F0 55 00 00 1D 04 00 00 1E 00 00 00
2026-07-26T21:29:22.285576,12.187,can0  040  [04]  B8 00 26 00
2026-07-26T21:29:22.288471,12.190,can0  060  [32]  00 00 00 00 00 00 00 00 00 00 00 00 00 00 00 00 00 00 00 00 00 00 00 00 00 00 00 00 00 00 00 00
2026-07-26T21:29:22.384806,12.287,can0  041  [04]  B5 00 0D 00
2026-07-26T21:29:22.385272,12.287,can0  100  [03]  91 6B 04
2026-07-26T21:29:22.385330,12.287,can0  120  [04]  2A 4E 00 00
2026-07-26T21:29:22.487300,12.389,can0  040  [04]  B5 00 2B 00
2026-07-26T21:29:22.487369,12.389,can0  070  [20]  CE 28 4D 08 CF AE 62 03 D8 59 00 00 1D 04 00 00 0D 00 00 00
2026-07-26T21:29:22.487413,12.389,can0  002  [04]  90 5F 01 00
2026-07-26T21:29:22.589176,12.491,can0  070  [20]  CE 28 4D 08 CF AE 62 03 D8 59 00 00 1D 04 00 00 0D 00 00 00
2026-07-26T21:29:22.589251,12.491,can0  040  [04]  B5 00 2B 00
2026-07-26T21:29:22.589294,12.491,can0  041  [04]  C6 00 0C 00
2026-07-26T21:29:22.687545,12.589,can0  070  [20]  CE 28 4D 08 CF AE 62 03 D8 59 00 00 1D 04 00 00 0D 00 00 00
2026-07-26T21:29:22.784883,12.687,can0  040  [04]  B5 00 2C 00
2026-07-26T21:29:22.784979,12.687,can0  060  [32]  C1 60 D6 02 02 56 4D 08 E3 FF B7 10 36 00 CD 03 FF 01 00 00 00 00 00 00 01 00 00 00 00 00 00 00
2026-07-26T21:29:22.785182,12.687,can0  040  [04]  B5 00 2C 00
2026-07-26T21:29:22.885121,12.787,can0  133  [00]
2026-07-26T21:29:22.885384,12.787,can0  041  [04]  C4 00 0C 00
2026-07-26T21:29:22.984582,12.886,can0  001  [05]  00 00 00 00 40
2026-07-26T21:29:22.984682,12.887,can0  040  [04]  B3 00 2F 00
2026-07-26T21:29:23.087112,12.989,can0  040  [04]  B3 00 2F 00
2026-07-26T21:29:23.184303,13.086,can0  070  [20]  CE 28 4D 08 CF AE 62 03 D8 59 00 00 1D 04 00 00 0D 00 00 00
2026-07-26T21:29:23.184605,13.086,can0  041  [04]  C7 00 0E 00
2026-07-26T21:29:23.184955,13.087,can0  070  [20]  CE 28 4D 08 CF AE 62 03 D8 59 00 00 1D 04 00 00 0D 00 00 00
2026-07-26T21:29:23.185183,13.087,can0  110  [02]  12 1B
2026-07-26T21:29:23.294336,13.196,can0  040  [04]  B0 00 2C 00
2026-07-26T21:29:23.384855,13.287,can0  040  [04]  B0 00 2C 00
2026-07-26T21:29:23.385703,13.288,can0  041  [04]  BC 00 0B 00
2026-07-26T21:29:23.484709,13.387,can0  002  [04]  90 5F 01 00
2026-07-26T21:29:23.485368,13.387,can0  070  [20]  D0 28 4D 08 CD AE 62 03 C0 5D 00 00 1D 04 00 00 43 00 00 00
2026-07-26T21:29:23.584852,13.487,can0  070  [20]  D0 28 4D 08 CD AE 62 03 C0 5D 00 00 1D 04 00 00 42 00 00 00
2026-07-26T21:29:23.585099,13.487,can0  040  [04]  AE 00 2D 00
2026-07-26T21:29:23.585341,13.487,can0  040  [04]  AE 00 2D 00
2026-07-26T21:29:23.585589,13.487,can0  100  [03]  91 6B 04
2026-07-26T21:29:23.585777,13.488,can0  120  [04]  20 4E 00 00
2026-07-26T21:29:23.685080,13.587,can0  070  [20]  D0 28 4D 08 CD AE 62 03 C0 5D 00 00 1D 04 00 00 42 00 00 00
2026-07-26T21:29:23.687759,13.590,can0  041  [04]  BE 00 0A 00
2026-07-26T21:29:23.784757,13.687,can0  040  [04]  B0 00 2C 00
2026-07-26T21:29:23.884427,13.786,can0  060  [32]  00 00 00 00 D0 28 4D 08 22 04 B8 10 00 00 10 0E FF 01 00 00 00 00 00 00 01 00 00 00 00 00 00 00
2026-07-26T21:29:23.889954,13.792,can0  040  [04]  B0 00 2C 00
2026-07-26T21:29:23.987796,13.890,can0  041  [04]  B5 00 08 00
2026-07-26T21:29:24.084801,13.987,can0  040  [04]  B3 00 2E 00
2026-07-26T21:29:24.184546,14.086,can0  070  [20]  D0 28 4D 08 CD AE 62 03 C0 5D 00 00 1D 04 00 00 42 00 00 00
2026-07-26T21:29:24.184802,14.087,can0  040  [04]  B3 00 2E 00
2026-07-26T21:29:24.187849,14.090,can0  041  [04]  BE 00 08 00
2026-07-26T21:29:24.285028,14.187,can0  070  [20]  D0 28 4D 08 CD AE 62 03 C0 5D 00 00 1D 04 00 00 42 00 00 00
2026-07-26T21:29:24.384626,14.287,can0  060  [32]  00 00 00 00 00 00 00 00 00 00 00 00 00 00 00 00 00 00 00 00 00 00 00 00 00 00 00 00 00 00 00 00
2026-07-26T21:29:24.384919,14.287,can0  040  [04]  B3 00 2E 00
2026-07-26T21:29:24.385163,14.287,can0  040  [04]  B3 00 2E 00
2026-07-26T21:29:24.484970,14.387,can0  041  [04]  BE 00 08 00
2026-07-26T21:29:24.485132,14.387,can0  002  [04]  90 5F 01 00
2026-07-26T21:29:24.585392,14.487,can0  070  [20]  D0 28 4D 08 CD AE 62 03 A8 61 00 00 1D 04 00 00 29 00 00 00
2026-07-26T21:29:24.585917,14.488,can0  070  [20]  D0 28 4D 08 CD AE 62 03 A8 61 00 00 1D 04 00 00 29 00 00 00
2026-07-26T21:29:24.586008,14.488,can0  040  [04]  B9 00 2C 00
2026-07-26T21:29:24.589611,14.492,can0  132  [00]
2026-07-26T21:29:24.684302,14.586,can0  070  [20]  D0 28 4D 08 CD AE 62 03 A8 61 00 00 1D 04 00 00 29 00 00 00
2026-07-26T21:29:24.684530,14.586,can0  040  [04]  B9 00 2C 00
2026-07-26T21:29:24.784357,14.686,can0  041  [04]  BE 00 09 00
2026-07-26T21:29:24.786382,14.688,can0  100  [03]  92 6B 04
2026-07-26T21:29:24.786469,14.688,can0  110  [02]  12 1B
2026-07-26T21:29:24.786541,14.688,can0  120  [04]  20 4E 00 00
2026-07-26T21:29:24.884429,14.786,can0  060  [32]  00 00 00 00 00 00 00 00 00 00 00 00 00 00 00 00 00 00 00 00 00 00 00 00 00 00 00 00 00 00 00 00
2026-07-26T21:29:24.884670,14.787,can0  060  [32]  00 00 00 00 D0 28 4D 08 22 04 B8 10 00 00 10 0E FF 01 00 00 00 00 00 00 01 00 00 00 00 00 00 00
2026-07-26T21:29:24.887535,14.789,can0  040  [04]  BC 00 29 00
2026-07-26T21:29:24.984582,14.886,can0  040  [04]  BC 00 29 00
2026-07-26T21:29:24.987948,14.890,can0  001  [05]  00 00 00 00 40
2026-07-26T21:29:24.988019,14.890,can0  041  [04]  BF 00 08 00
2026-07-26T21:29:25.288252,15.190,can0  070  [20]  D0 28 4D 08 CD AE 62 03 A8 61 00 00 1D 04 00 00 29 00 00 00
2026-07-26T21:29:25.288326,15.190,can0  040  [04]  B9 00 2A 00
2026-07-26T21:29:25.288368,15.190,can0  040  [04]  B9 00 2A 00
2026-07-26T21:29:25.288447,15.190,can0  070  [20]  D0 28 4D 08 CD AE 62 03 A8 61 00 00 1D 04 00 00 29 00 00 00
2026-07-26T21:29:25.288524,15.190,can0  041  [04]  C8 00 08 00
2026-07-26T21:29:25.384796,15.287,can0  060  [32]  00 00 00 00 00 00 00 00 00 00 00 00 00 00 00 00 00 00 00 00 00 00 00 00 00 00 00 00 00 00 00 00
2026-07-26T21:29:25.385057,15.287,can0  040  [04]  B6 00 2C 00
2026-07-26T21:29:25.484547,15.386,can0  040  [04]  B6 00 2C 00
2026-07-26T21:29:25.484747,15.387,can0  002  [04]  90 5F 01 00
2026-07-26T21:29:25.484997,15.387,can0  070  [20]  D2 28 4D 08 CD AE 62 03 90 65 00 00 1D 04 00 00 30 00 00 00
2026-07-26T21:29:25.584695,15.487,can0  070  [20]  D2 28 4D 08 CD AE 62 03 90 65 00 00 1D 04 00 00 30 00 00 00
2026-07-26T21:29:25.587994,15.490,can0  041  [04]  D1 00 08 00
2026-07-26T21:29:25.588056,15.490,can0  070  [20]  D2 28 4D 08 CD AE 62 03 90 65 00 00 1D 04 00 00 30 00 00 00
2026-07-26T21:29:25.687800,15.590,can0  040  [04]  B5 00 2C 00
2026-07-26T21:29:25.792789,15.695,can0  040  [04]  B5 00 2C 00
2026-07-26T21:29:25.795758,15.698,can0  041  [04]  D1 00 06 00
2026-07-26T21:29:25.884539,15.786,can0  060  [32]  00 00 00 00 D2 28 4D 08 22 04 B8 10 00 00 10 0E FF 01 00 00 00 00 00 00 01 00 00 00 00 00 00 00
2026-07-26T21:29:25.984242,15.886,can0  040  [04]  B3 00 2E 00
2026-07-26T21:29:25.984312,15.886,can0  040  [04]  B3 00 2E 00
2026-07-26T21:29:25.984686,15.887,can0  100  [03]  92 6B 04
2026-07-26T21:29:25.984756,15.887,can0  120  [04]  0C 4E 00 00
2026-07-26T21:29:26.084461,15.986,can0  041  [04]  B5 00 08 00
2026-07-26T21:29:26.085011,15.987,can0  070  [20]  D2 28 4D 08 CD AE 62 03 90 65 00 00 1D 04 00 00 30 00 00 00
2026-07-26T21:29:26.184610,16.087,can0  040  [04]  B3 00 2F 00
2026-07-26T21:29:26.284923,16.187,can0  070  [20]  D2 28 4D 08 CD AE 62 03 90 65 00 00 1D 04 00 00 30 00 00 00
2026-07-26T21:29:26.288011,16.190,can0  040  [04]  B3 00 2F 00
2026-07-26T21:29:26.384241,16.286,can0  041  [04]  AF 00 09 00
2026-07-26T21:29:26.384577,16.286,can0  060  [32]  00 00 00 00 00 00 00 00 00 00 00 00 00 00 00 00 00 00 00 00 00 00 00 00 00 00 00 00 00 00 00 00
2026-07-26T21:29:26.387716,16.290,can0  110  [02]  11 1B
2026-07-26T21:29:26.485062,16.387,can0  040  [04]  B3 00 30 00
2026-07-26T21:29:26.486149,16.388,can0  070  [20]  D2 28 4D 08 CC AE 62 03 78 69 00 00 1D 04 00 00 32 00 00 00
2026-07-26T21:29:26.486385,16.388,can0  002  [04]  90 5F 01 00
2026-07-26T21:29:26.486603,16.388,can0  040  [04]  B3 00 30 00
2026-07-26T21:29:26.584622,16.487,can0  070  [20]  D2 28 4D 08 CC AE 62 03 78 69 00 00 1D 04 00 00 32 00 00 00
2026-07-26T21:29:26.586295,16.488,can0  041  [04]  A9 00 0B 00
2026-07-26T21:29:26.684202,16.586,can0  070  [20]  D2 28 4D 08 CC AE 62 03 78 69 00 00 1D 04 00 00 32 00 00 00
2026-07-26T21:29:26.784940,16.687,can0  040  [04]  B3 00 32 00
2026-07-26T21:29:26.785150,16.687,can0  040  [04]  B3 00 32 00
2026-07-26T21:29:26.884918,16.787,can0  060  [32]  00 00 00 00 00 00 00 00 00 00 00 00 00 00 00 00 00 00 00 00 00 00 00 00 00 00 00 00 00 00 00 00
2026-07-26T21:29:26.885294,16.787,can0  041  [04]  B5 00 0B 00
2026-07-26T21:29:26.885342,16.787,can0  060  [32]  00 00 00 00 D2 28 4D 08 20 04 B8 10 00 00 10 0E FF 01 00 00 00 00 00 00 01 00 00 00 00 00 00 00
2026-07-26T21:29:26.984847,16.887,can0  001  [05]  00 00 00 00 40
2026-07-26T21:29:26.985232,16.887,can0  040  [04]  B3 00 30 00
2026-07-26T21:29:27.087791,16.990,can0  040  [04]  B3 00 30 00
2026-07-26T21:29:27.185307,17.087,can0  070  [20]  D2 28 4D 08 CC AE 62 03 78 69 00 00 1D 04 00 00 32 00 00 00
2026-07-26T21:29:27.185484,17.087,can0  041  [04]  B5 00 0B 00
2026-07-26T21:29:27.185767,17.088,can0  070  [20]  D2 28 4D 08 CC AE 62 03 78 69 00 00 1D 04 00 00 32 00 00 00
2026-07-26T21:29:27.185996,17.088,can0  100  [03]  92 6B 04
2026-07-26T21:29:27.186246,17.088,can0  120  [04]  02 4E 00 00
2026-07-26T21:29:27.285090,17.187,can0  040  [04]  B7 00 2D 00
2026-07-26T21:29:27.384138,17.286,can0  040  [04]  B7 00 2D 00
2026-07-26T21:29:27.384388,17.286,can0  060  [32]  00 00 00 00 00 00 00 00 00 00 00 00 00 00 00 00 00 00 00 00 00 00 00 00 00 00 00 00 00 00 00 00
2026-07-26T21:29:27.387576,17.289,can0  041  [04]  CB 00 0B 00
2026-07-26T21:29:27.484975,17.387,can0  002  [04]  90 5F 01 00
2026-07-26T21:29:27.485063,17.387,can0  070  [20]  D2 28 4D 08 CC AE 62 03 60 6D 00 00 1D 04 00 00 13 00 00 00
2026-07-26T21:29:27.584119,17.486,can0  070  [20]  D2 28 4D 08 CC AE 62 03 60 6D 00 00 1D 04 00 00 12 00 00 00
2026-07-26T21:29:27.584453,17.486,can0  040  [04]  BB 00 2A 00
2026-07-26T21:29:27.584501,17.486,can0  040  [04]  BB 00 2A 00
2026-07-26T21:29:27.584691,17.487,can0  070  [20]  D2 28 4D 08 CC AE 62 03 60 6D 00 00 1D 04 00 00 12 00 00 00
2026-07-26T21:29:27.686188,17.588,can0  041  [04]  D3 00 0C 00
2026-07-26T21:29:27.784995,17.687,can0  040  [04]  BE 00 29 00
2026-07-26T21:29:27.884468,17.786,can0  040  [04]  BE 00 29 00
2026-07-26T21:29:27.884621,17.787,can0  060  [32]  00 00 00 00 D2 28 4D 08 20 04 B8 10 00 00 10 0E FF 01 00 00 00 00 00 00 01 00 00 00 00 00 00 00
2026-07-26T21:29:27.984958,17.887,can0  041  [04]  D1 00 0C 00
2026-07-26T21:29:27.985236,17.887,can0  110  [02]  12 1B
2026-07-26T21:29:28.095340,17.997,can0  040  [04]  BC 00 25 00
2026-07-26T21:29:28.095589,17.997,can0  070  [20]  D2 28 4D 08 CC AE 62 03 60 6D 00 00 1D 04 00 00 12 00 00 00
2026-07-26T21:29:28.095778,17.998,can0  040  [04]  BC 00 25 00
2026-07-26T21:29:28.184933,18.087,can0  041  [04]  B5 00 0B 00
2026-07-26T21:29:28.288295,18.190,can0  070  [20]  D2 28 4D 08 CC AE 62 03 60 6D 00 00 1D 04 00 00 12 00 00 00
2026-07-26T21:29:28.288416,18.190,can0  040  [04]  B9 00 23 00
2026-07-26T21:29:28.384504,18.286,can0  060  [32]  00 00 00 00 00 00 00 00 00 00 00 00 00 00 00 00 00 00 00 00 00 00 00 00 00 00 00 00 00 00 00 00
2026-07-26T21:29:28.384675,18.287,can0  040  [04]  B9 00 23 00
2026-07-26T21:29:28.387876,18.290,can0  100  [03]  92 6B 04
2026-07-26T21:29:28.387933,18.290,can0  120  [04]  0C 4E 00 00
2026-07-26T21:29:28.484549,18.386,can0  041  [04]  B5 00 09 00
2026-07-26T21:29:28.486644,18.389,can0  070  [20]  D3 28 4D 08 CA AE 62 03 48 71 00 00 1D 04 00 00 23 00 00 00
2026-07-26T21:29:28.486701,18.389,can0  002  [04]  90 5F 01 00
2026-07-26T21:29:28.584526,18.486,can0  070  [20]  D3 28 4D 08 CA AE 62 03 48 71 00 00 1D 04 00 00 24 00 00 00
2026-07-26T21:29:28.588435,18.490,can0  040  [04]  B7 00 22 00
2026-07-26T21:29:28.684538,18.586,can0  070  [20]  D3 28 4D 08 CA AE 62 03 48 71 00 00 1D 04 00 00 24 00 00 00
2026-07-26T21:29:28.684765,18.587,can0  040  [04]  B7 00 22 00
2026-07-26T21:29:28.784712,18.687,can0  041  [04]  C1 00 07 00
2026-07-26T21:29:28.884420,18.786,can0  060  [32]  00 00 00 00 00 00 00 00 00 00 00 00 00 00 00 00 00 00 00 00 00 00 00 00 00 00 00 00 00 00 00 00
2026-07-26T21:29:28.884712,18.787,can0  040  [04]  B7 00 24 00
2026-07-26T21:29:28.884935,18.787,can0  060  [32]  00 00 00 00 D3 28 4D 08 1F 04 B8 10 00 00 10 0E FF 01 00 00 00 00 00 00 01 00 00 00 00 00 00 00
2026-07-26T21:29:28.885394,18.787,can0  040  [04]  B7 00 24 00
2026-07-26T21:29:28.984944,18.887,can0  001  [05]  00 00 00 00 40
2026-07-26T21:29:28.985163,18.887,can0  041  [04]  C1 00 07 00
2026-07-26T21:29:29.184485,19.086,can0  070  [20]  D3 28 4D 08 CA AE 62 03 48 71 00 00 1D 04 00 00 24 00 00 00
2026-07-26T21:29:29.187799,19.090,can0  040  [04]  B5 00 24 00
2026-07-26T21:29:29.187860,19.090,can0  040  [04]  B5 00 24 00
2026-07-26T21:29:29.187901,19.090,can0  070  [20]  D3 28 4D 08 CA AE 62 03 48 71 00 00 1D 04 00 00 24 00 00 00
2026-07-26T21:29:29.284554,19.186,can0  041  [04]  C1 00 07 00
2026-07-26T21:29:29.485287,19.387,can0  060  [32]  00 00 00 00 00 00 00 00 00 00 00 00 00 00 00 00 00 00 00 00 00 00 00 00 00 00 00 00 00 00 00 00
2026-07-26T21:29:29.485357,19.387,can0  040  [04]  B9 00 22 00
2026-07-26T21:29:29.485598,19.387,can0  040  [04]  B9 00 22 00
2026-07-26T21:29:29.485646,19.388,can0  002  [04]  90 5F 01 00
2026-07-26T21:29:29.488936,19.391,can0  070  [20]  D2 28 4D 08 CA AE 62 03 30 75 00 00 1D 04 00 00 1F 00 00 00
2026-07-26T21:29:29.584891,19.487,can0  041  [04]  C8 00 07 00
2026-07-26T21:29:29.585438,19.487,can0  070  [20]  D2 28 4D 08 CA AE 62 03 30 75 00 00 1D 04 00 00 1F 00 00 00
2026-07-26T21:29:29.585497,19.487,can0  100  [03]  94 6B 04
2026-07-26T21:29:29.585571,19.487,can0  110  [02]  12 1B
2026-07-26T21:29:29.585640,19.488,can0  070  [20]  D2 28 4D 08 CA AE 62 03 30 75 00 00 1D 04 00 00 1F 00 00 00
2026-07-26T21:29:29.588519,19.490,can0  120  [04]  16 4E 00 00
2026-07-26T21:29:29.684214,19.586,can0  040  [04]  B7 00 24 00
2026-07-26T21:29:29.687181,19.589,can0  040  [04]  B7 00 24 00
2026-07-26T21:29:29.787778,19.690,can0  041  [04]  B5 00 08 00
2026-07-26T21:29:29.887309,19.789,can0  060  [32]  00 00 00 00 D2 28 4D 08 1F 04 B8 10 00 00 10 0E FF 01 00 00 00 00 00 00 01 00 00 00 00 00 00 00
2026-07-26T21:29:29.887382,19.789,can0  040  [04]  B7 00 24 00
2026-07-26T21:29:29.985889,19.888,can0  040  [04]  B7 00 24 00
2026-07-26T21:29:30.084584,19.986,can0  041  [04]  AD 00 0D 00
2026-07-26T21:29:30.084740,19.987,can0  070  [20]  D2 28 4D 08 CA AE 62 03 30 75 00 00 1D 04 00 00 1F 00 00 00
2026-07-26T21:29:30.186736,20.089,can0  040  [04]  B7 00 24 00
2026-07-26T21:29:30.284583,20.186,can0  070  [20]  D2 28 4D 08 CA AE 62 03 30 75 00 00 1D 04 00 00 1F 00 00 00
2026-07-26T21:29:30.284796,20.187,can0  040  [04]  B7 00 24 00
2026-07-26T21:29:30.385057,20.287,can0  041  [04]  AA 00 10 00
2026-07-26T21:29:30.388415,20.290,can0  060  [32]  00 00 00 00 00 00 00 00 00 00 00 00 00 00 00 00 00 00 00 00 00 00 00 00 00 00 00 00 00 00 00 00
2026-07-26T21:29:30.484794,20.387,can0  040  [04]  B8 00 1E 00
2026-07-26T21:29:30.485040,20.387,can0  070  [20]  D2 28 4D 08 CA AE 62 03 18 79 00 00 1D 04 00 00 23 00 00 00
2026-07-26T21:29:30.485243,20.387,can0  002  [04]  90 5F 01 00
2026-07-26T21:29:30.485481,20.387,can0  040  [04]  B8 00 1E 00
2026-07-26T21:29:30.585176,20.487,can0  070  [20]  D2 28 4D 08 CA AE 62 03 18 79 00 00 1D 04 00 00 24 00 00 00
2026-07-26T21:29:30.587133,20.489,can0  041  [04]  A5 00 0F 00
2026-07-26T21:29:30.684934,20.587,can0  070  [20]  D2 28 4D 08 CA AE 62 03 18 79 00 00 1D 04 00 00 24 00 00 00
2026-07-26T21:29:30.785090,20.687,can0  040  [04]  BD 00 1E 00
2026-07-26T21:29:30.785156,20.687,can0  040  [04]  BD 00 1E 00
2026-07-26T21:29:30.788273,20.690,can0  100  [03]  96 6B 04
2026-07-26T21:29:30.788329,20.690,can0  120  [04]  0C 4E 00 00
2026-07-26T21:29:30.884156,20.786,can0  041  [04]  A5 00 0F 00
2026-07-26T21:29:30.884528,20.786,can0  060  [32]  00 00 00 00 00 00 00 00 00 00 00 00 00 00 00 00 00 00 00 00 00 00 00 00 00 00 00 00 00 00 00 00
2026-07-26T21:29:30.884606,20.786,can0  060  [32]  00 00 00 00 D2 28 4D 08 1F 04 B8 10 00 00 10 0E FF 01 00 00 00 00 00 00 01 00 00 00 00 00 00 00
2026-07-26T21:29:30.984856,20.887,can0  001  [05]  00 00 00 00 40
2026-07-26T21:29:30.987794,20.890,can0  040  [04]  BC 00 1D 00
2026-07-26T21:29:31.084179,20.986,can0  040  [04]  BC 00 1D 00
2026-07-26T21:29:31.184747,21.087,can0  041  [04]  B0 00 0D 00
2026-07-26T21:29:31.185147,21.087,can0  070  [20]  D2 28 4D 08 CA AE 62 03 18 79 00 00 1D 04 00 00 24 00 00 00
2026-07-26T21:29:31.185199,21.087,can0  070  [20]  D2 28 4D 08 CA AE 62 03 18 79 00 00 1D 04 00 00 24 00 00 00
2026-07-26T21:29:31.189343,21.091,can0  110  [02]  12 1B
2026-07-26T21:29:31.287416,21.189,can0  040  [04]  C5 00 1C 00
2026-07-26T21:29:31.287485,21.189,can0  040  [04]  C5 00 1C 00
2026-07-26T21:29:31.384645,21.287,can0  041  [04]  B5 00 0C 00
2026-07-26T21:29:31.485166,21.387,can0  002  [04]  90 5F 01 00
2026-07-26T21:29:31.489174,21.391,can0  070  [20]  D2 28 4D 08 CA AE 62 03 00 7D 00 00 1D 04 00 00 5D 00 00 00
2026-07-26T21:29:31.493309,21.395,can0  040  [04]  C5 00 1C 00
2026-07-26T21:29:31.584191,21.486,can0  070  [20]  D2 28 4D 08 CA AE 62 03 00 7D 00 00 1D 04 00 00 5D 00 00 00
2026-07-26T21:29:31.584432,21.486,can0  040  [04]  C5 00 1C 00
2026-07-26T21:29:31.584715,21.487,can0  070  [20]  D2 28 4D 08 CA AE 62 03 00 7D 00 00 1D 04 00 00 5D 00 00 00
2026-07-26T21:29:31.687166,21.589,can0  041  [04]  A8 00 0F 00
2026-07-26T21:29:31.884471,21.786,can0  040  [04]  C3 00 19 00
2026-07-26T21:29:31.884682,21.787,can0  040  [04]  C3 00 19 00
2026-07-26T21:29:31.984790,21.887,can0  041  [04]  A8 00 0F 00
2026-07-26T21:29:31.985159,21.887,can0  060  [32]  00 00 00 00 D2 28 4D 08 1F 04 B8 10 00 00 10 0E FF 01 00 00 00 00 00 00 01 00 00 00 00 00 00 00
2026-07-26T21:29:31.985372,21.887,can0  100  [03]  97 6B 04
2026-07-26T21:29:31.985573,21.887,can0  120  [04]  20 4E 00 00
2026-07-26T21:29:32.084428,21.986,can0  040  [04]  C5 00 1D 00
2026-07-26T21:29:32.087832,21.990,can0  070  [20]  D2 28 4D 08 CA AE 62 03 00 7D 00 00 1D 04 00 00 5D 00 00 00
2026-07-26T21:29:32.087894,21.990,can0  040  [04]  C5 00 1D 00
2026-07-26T21:29:32.234347,22.136,can0  041  [04]  A7 00 0C 00
2026-07-26T21:29:32.334815,22.237,can0  070  [20]  D2 28 4D 08 CA AE 62 03 00 7D 00 00 1D 04 00 00 5D 00 00 00
2026-07-26T21:29:32.338455,22.240,can0  040  [04]  C7 00 20 00
2026-07-26T21:29:32.387278,22.289,can0  040  [04]  C7 00 20 00
2026-07-26T21:29:32.534349,22.436,can0  060  [32]  00 00 00 00 00 00 00 00 00 00 00 00 00 00 00 00 00 00 00 00 00 00 00 00 00 00 00 00 00 00 00 00
2026-07-26T21:29:32.534588,22.436,can0  041  [04]  B5 00 0C 00
2026-07-26T21:29:32.534803,22.437,can0  070  [20]  D2 28 4D 08 CC AE 62 03 E8 80 00 00 1D 04 00 00 18 00 00 00
2026-07-26T21:29:32.534957,22.437,can0  002  [04]  90 5F 01 00
2026-07-26T21:29:32.637854,22.540,can0  070  [20]  D2 28 4D 08 CC AE 62 03 E8 80 00 00 1D 04 00 00 18 00 00 00
2026-07-26T21:29:32.637924,22.540,can0  040  [04]  C4 00 21 00
2026-07-26T21:29:32.734840,22.637,can0  070  [20]  D2 28 4D 08 CC AE 62 03 E8 80 00 00 1D 04 00 00 18 00 00 00
2026-07-26T21:29:32.737492,22.639,can0  040  [04]  C4 00 21 00
2026-07-26T21:29:32.834687,22.737,can0  041  [04]  B5 00 0B 00
2026-07-26T21:29:32.834899,22.737,can0  133  [00]
2026-07-26T21:29:32.835100,22.737,can0  110  [02]  12 1B
2026-07-26T21:29:32.934687,22.837,can0  040  [04]  C2 00 24 00
2026-07-26T21:29:32.934907,22.837,can0  040  [04]  C2 00 24 00
2026-07-26T21:29:33.034100,22.936,can0  060  [32]  00 00 00 00 D2 28 4D 08 20 04 B8 10 00 00 10 0E FF 01 00 00 00 00 00 00 01 00 00 00 00 00 00 00
2026-07-26T21:29:33.034618,22.937,can0  001  [05]  00 00 00 00 40
2026-07-26T21:29:33.034856,22.937,can0  041  [04]  AF 00 09 00
2026-07-26T21:29:33.234842,23.137,can0  040  [04]  C4 00 25 00
2026-07-26T21:29:33.235367,23.137,can0  070  [20]  D2 28 4D 08 CC AE 62 03 E8 80 00 00 1D 04 00 00 18 00 00 00
2026-07-26T21:29:33.235604,23.137,can0  040  [04]  C4 00 25 00
2026-07-26T21:29:33.235842,23.138,can0  100  [03]  98 6B 04
2026-07-26T21:29:33.236063,23.138,can0  120  [04]  16 4E 00 00
2026-07-26T21:29:33.334629,23.237,can0  070  [20]  D2 28 4D 08 CC AE 62 03 E8 80 00 00 1D 04 00 00 18 00 00 00
2026-07-26T21:29:33.334872,23.237,can0  041  [04]  B5 00 09 00
2026-07-26T21:29:33.434460,23.336,can0  040  [04]  C4 00 27 00
2026-07-26T21:29:33.534217,23.436,can0  060  [32]  00 00 00 00 00 00 00 00 00 00 00 00 00 00 00 00 00 00 00 00 00 00 00 00 00 00 00 00 00 00 00 00
2026-07-26T21:29:33.534497,23.436,can0  040  [04]  C4 00 27 00
2026-07-26T21:29:33.534720,23.437,can0  002  [04]  90 5F 01 00
2026-07-26T21:29:33.534896,23.437,can0  070  [20]  D2 28 4D 08 CC AE 62 03 D0 84 00 00 1D 04 00 00 02 00 00 00
2026-07-26T21:29:33.535091,23.437,can0  041  [04]  B5 00 08 00
2026-07-26T21:29:33.634122,23.536,can0  070  [20]  D2 28 4D 08 CC AE 62 03 D0 84 00 00 1D 04 00 00 03 00 00 00
2026-07-26T21:29:33.634399,23.536,can0  070  [20]  D2 28 4D 08 CC AE 62 03 D0 84 00 00 1D 04 00 00 03 00 00 00
2026-07-26T21:29:33.734455,23.636,can0  040  [04]  C8 00 25 00
2026-07-26T21:29:33.734732,23.637,can0  040  [04]  C8 00 25 00
2026-07-26T21:29:33.834358,23.736,can0  041  [04]  B5 00 08 00
2026-07-26T21:29:34.034263,23.936,can0  040  [04]  C7 00 26 00
2026-07-26T21:29:34.034553,23.936,can0  060  [32]  00 00 00 00 00 00 00 00 00 00 00 00 00 00 00 00 00 00 00 00 00 00 00 00 00 00 00 00 00 00 00 00
2026-07-26T21:29:34.034875,23.937,can0  060  [32]  00 00 00 00 D2 28 4D 08 20 04 B8 10 00 00 10 0E FF 01 00 00 00 00 00 00 01 00 00 00 00 00 00 00
2026-07-26T21:29:34.035042,23.937,can0  040  [04]  C7 00 26 00
2026-07-26T21:29:34.134480,24.036,can0  041  [04]  B5 00 06 00
2026-07-26T21:29:34.137780,24.040,can0  070  [20]  D2 28 4D 08 CC AE 62 03 D0 84 00 00 1D 04 00 00 03 00 00 00
2026-07-26T21:29:34.234149,24.136,can0  040  [04]  C5 00 27 00
2026-07-26T21:29:34.234444,24.136,can0  070  [20]  D2 28 4D 08 CC AE 62 03 D0 84 00 00 1D 04 00 00 03 00 00 00
2026-07-26T21:29:34.334745,24.237,can0  040  [04]  C5 00 27 00
2026-07-26T21:29:34.335011,24.237,can0  041  [04]  B5 00 08 00
2026-07-26T21:29:34.434690,24.337,can0  100  [03]  9A 6B 04
2026-07-26T21:29:34.437817,24.340,can0  110  [02]  12 1B
2026-07-26T21:29:34.437874,24.340,can0  120  [04]  20 4E 00 00
2026-07-26T21:29:34.534477,24.436,can0  040  [04]  C2 00 25 00
2026-07-26T21:29:34.534578,24.436,can0  060  [32]  00 00 00 00 00 00 00 00 00 00 00 00 00 00 00 00 00 00 00 00 00 00 00 00 00 00 00 00 00 00 00 00
2026-07-26T21:29:34.534931,24.437,can0  070  [20]  D2 28 4D 08 CD AE 62 03 B8 88 00 00 1D 04 00 00 62 00 00 00
2026-07-26T21:29:34.535155,24.437,can0  002  [04]  90 5F 01 00
2026-07-26T21:29:34.535416,24.437,can0  040  [04]  C2 00 25 00
2026-07-26T21:29:34.535571,24.437,can0  132  [00]
2026-07-26T21:29:34.634934,24.537,can0  070  [20]  D2 28 4D 08 CD AE 62 03 B8 88 00 00 1D 04 00 00 62 00 00 00
2026-07-26T21:29:34.637914,24.540,can0  041  [04]  B5 00 0C 00
2026-07-26T21:29:34.737491,24.639,can0  070  [20]  D2 28 4D 08 CD AE 62 03 B8 88 00 00 1D 04 00 00 62 00 00 00
2026-07-26T21:29:34.737571,24.639,can0  040  [04]  C5 00 23 00
2026-07-26T21:29:34.834633,24.737,can0  040  [04]  C5 00 23 00
2026-07-26T21:29:34.934860,24.837,can0  041  [04]  B5 00 10 00
2026-07-26T21:29:35.034392,24.936,can0  001  [05]  00 00 00 00 40
2026-07-26T21:29:35.034688,24.937,can0  060  [32]  00 00 00 00 D2 28 4D 08 22 04 B8 10 00 00 10 0E FF 01 00 00 00 00 00 00 01 00 00 00 00 00 00 00
2026-07-26T21:29:35.035147,24.937,can0  040  [04]  C9 00 20 00
2026-07-26T21:29:35.135027,25.037,can0  040  [04]  C9 00 20 00
2026-07-26T21:29:35.135312,25.037,can0  041  [04]  C1 00 0E 00
2026-07-26T21:29:35.234926,25.137,can0  070  [20]  D2 28 4D 08 CD AE 62 03 B8 88 00 00 1D 04 00 00 62 00 00 00
2026-07-26T21:29:35.238035,25.140,can0  070  [20]  D2 28 4D 08 CD AE 62 03 B8 88 00 00 1D 04 00 00 62 00 00 00
2026-07-26T21:29:35.337797,25.240,can0  040  [04]  BB 00 21 00
2026-07-26T21:29:35.337866,25.240,can0  040  [04]  BB 00 21 00
2026-07-26T21:29:35.434681,25.337,can0  041  [04]  C3 00 11 00
2026-07-26T21:29:35.535023,25.437,can0  060  [32]  00 00 00 00 00 00 00 00 00 00 00 00 00 00 00 00 00 00 00 00 00 00 00 00 00 00 00 00 00 00 00 00
2026-07-26T21:29:35.538790,25.441,can0  002  [04]  90 5F 01 00
2026-07-26T21:29:35.538845,25.441,can0  070  [20]  D2 28 4D 08 CD AE 62 03 A0 8C 00 00 1D 04 00 00 80 00 00 00
2026-07-26T21:29:35.538898,25.441,can0  040  [04]  C1 00 1B 00
2026-07-26T21:29:35.634834,25.537,can0  070  [20]  D2 28 4D 08 CD AE 62 03 A0 8C 00 00 1D 04 00 00 80 00 00 00
2026-07-26T21:29:35.635050,25.537,can0  040  [04]  C1 00 1B 00
2026-07-26T21:29:35.635312,25.537,can0  100  [03]  9B 6B 04
2026-07-26T21:29:35.635605,25.537,can0  120  [04]  2A 4E 00 00
2026-07-26T21:29:35.635898,25.538,can0  070  [20]  D2 28 4D 08 CD AE 62 03 A0 8C 00 00 1D 04 00 00 80 00 00 00
2026-07-26T21:29:35.737782,25.640,can0  041  [04]  BA 00 11 00
2026-07-26T21:29:35.934504,25.836,can0  040  [04]  C4 00 20 00
2026-07-26T21:29:35.934867,25.837,can0  040  [04]  C4 00 20 00
2026-07-26T21:29:35.934918,25.837,can0  041  [04]  BB 00 0D 00
2026-07-26T21:29:36.034230,25.936,can0  060  [32]  00 00 00 00 00 00 00 00 00 00 00 00 00 00 00 00 00 00 00 00 00 00 00 00 00 00 00 00 00 00 00 00
2026-07-26T21:29:36.034454,25.936,can0  060  [32]  00 00 00 00 D2 28 4D 08 22 04 B8 10 00 00 10 0E FF 01 00 00 00 00 00 00 01 00 00 00 00 00 00 00
2026-07-26T21:29:36.037860,25.940,can0  110  [02]  12 1B
2026-07-26T21:29:36.134265,26.036,can0  040  [04]  C2 00 24 00
2026-07-26T21:29:36.134535,26.036,can0  070  [20]  D2 28 4D 08 CD AE 62 03 A0 8C 00 00 1D 04 00 00 80 00 00 00
2026-07-26T21:29:36.137980,26.040,can0  040  [04]  C2 00 24 00
2026-07-26T21:29:36.234296,26.136,can0  041  [04]  B5 00 0C 00
2026-07-26T21:29:36.234543,26.136,can0  070  [20]  D2 28 4D 08 CD AE 62 03 A0 8C 00 00 1D 04 00 00 80 00 00 00
2026-07-26T21:29:36.337608,26.240,can0  040  [04]  BB 00 29 00
2026-07-26T21:29:36.437229,26.339,can0  040  [04]  BB 00 29 00
2026-07-26T21:29:36.535000,26.437,can0  041  [04]  AD 00 0D 00
2026-07-26T21:29:36.536309,26.438,can0  070  [20]  D2 28 4D 08 CF AE 62 03 88 90 00 00 1D 04 00 00 04 00 00 00
2026-07-26T21:29:36.536491,26.438,can0  060  [32]  00 00 00 00 00 00 00 00 00 00 00 00 00 00 00 00 00 00 00 00 00 00 00 00 00 00 00 00 00 00 00 00
2026-07-26T21:29:36.539582,26.441,can0  002  [04]  90 5F 01 00
2026-07-26T21:29:36.637316,26.539,can0  070  [20]  D2 28 4D 08 CF AE 62 03 88 90 00 00 1D 04 00 00 04 00 00 00
2026-07-26T21:29:36.637413,26.539,can0  040  [04]  B6 00 2C 00
2026-07-26T21:29:36.737341,26.639,can0  070  [20]  D2 28 4D 08 CF AE 62 03 88 90 00 00 1D 04 00 00 04 00 00 00
2026-07-26T21:29:36.737438,26.639,can0  040  [04]  B6 00 2C 00
2026-07-26T21:29:36.737525,26.639,can0  041  [04]  A9 00 0F 00
2026-07-26T21:29:36.834775,26.737,can0  100  [03]  9D 6B 04
2026-07-26T21:29:36.837822,26.740,can0  120  [04]  20 4E 00 00
2026-07-26T21:29:36.934290,26.836,can0  040  [04]  B3 00 2C 00
2026-07-26T21:29:36.937433,26.839,can0  040  [04]  B3 00 2C 00
2026-07-26T21:29:37.034673,26.937,can0  001  [05]  00 00 00 00 40
2026-07-26T21:29:37.034965,26.937,can0  041  [04]  AE 00 10 00
2026-07-26T21:29:37.035300,26.937,can0  060  [32]  00 00 00 00 D2 28 4D 08 24 04 B8 10 00 00 10 0E FF 01 00 00 00 00 00 00 01 00 00 00 00 00 00 00
2026-07-26T21:29:37.137300,27.039,can0  040  [04]  AE 00 28 00
2026-07-26T21:29:37.234511,27.136,can0  070  [20]  D2 28 4D 08 CF AE 62 03 88 90 00 00 1D 04 00 00 04 00 00 00
2026-07-26T21:29:37.238364,27.140,can0  040  [04]  AE 00 28 00
2026-07-26T21:29:37.238420,27.140,can0  070  [20]  D2 28 4D 08 CF AE 62 03 88 90 00 00 1D 04 00 00 04 00 00 00
2026-07-26T21:29:37.337925,27.240,can0  041  [04]  AB 00 12 00
2026-07-26T21:29:37.434206,27.336,can0  040  [04]  AD 00 27 00
2026-07-26T21:29:37.534451,27.436,can0  040  [04]  AD 00 27 00
2026-07-26T21:29:37.534589,27.436,can0  002  [04]  90 5F 01 00
2026-07-26T21:29:37.534919,27.437,can0  060  [32]  00 00 00 00 00 00 00 00 00 00 00 00 00 00 00 00 00 00 00 00 00 00 00 00 00 00 00 00 00 00 00 00
2026-07-26T21:29:37.534971,27.437,can0  070  [20]  D2 28 4D 08 D1 AE 62 03 70 94 00 00 1D 04 00 00 27 00 00 00
2026-07-26T21:29:37.535167,27.437,can0  041  [04]  A9 00 18 00
2026-07-26T21:29:37.634980,27.537,can0  070  [20]  D2 28 4D 08 D1 AE 62 03 70 94 00 00 1D 04 00 00 27 00 00 00
2026-07-26T21:29:37.635177,27.537,can0  110  [02]  10 1B
2026-07-26T21:29:37.635407,27.537,can0  070  [20]  D2 28 4D 08 D1 AE 62 03 70 94 00 00 1D 04 00 00 27 00 00 00
2026-07-26T21:29:37.734221,27.636,can0  040  [04]  AF 00 25 00
2026-07-26T21:29:37.734419,27.636,can0  040  [04]  AF 00 25 00
2026-07-26T21:29:37.837876,27.740,can0  041  [04]  A9 00 19 00
2026-07-26T21:29:38.034512,27.936,can0  040  [04]  AF 00 24 00
2026-07-26T21:29:38.034618,27.937,can0  040  [04]  AF 00 24 00
2026-07-26T21:29:38.034699,27.937,can0  060  [32]  00 00 00 00 00 00 00 00 00 00 00 00 00 00 00 00 00 00 00 00 00 00 00 00 00 00 00 00 00 00 00 00
2026-07-26T21:29:38.034957,27.937,can0  100  [03]  A0 6B 04
2026-07-26T21:29:38.035040,27.937,can0  120  [04]  48 4E 00 00
2026-07-26T21:29:38.035121,27.937,can0  060  [32]  00 00 00 00 D2 28 4D 08 25 04 B8 10 00 00 10 0E FF 01 00 00 00 00 00 00 01 00 00 00 00 00 00 00
2026-07-26T21:29:38.134118,28.036,can0  041  [04]  A9 00 19 00
2026-07-26T21:29:38.134343,28.036,can0  070  [20]  D2 28 4D 08 D1 AE 62 03 70 94 00 00 1D 04 00 00 27 00 00 00
2026-07-26T21:29:38.234615,28.137,can0  040  [04]  B3 00 25 00
2026-07-26T21:29:38.234895,28.137,can0  070  [20]  D2 28 4D 08 D1 AE 62 03 70 94 00 00 1D 04 00 00 27 00 00 00
2026-07-26T21:29:38.237984,28.140,can0  040  [04]  B3 00 25 00
2026-07-26T21:29:38.337387,28.239,can0  041  [04]  A6 00 18 00
2026-07-26T21:29:38.634345,28.536,can0  040  [04]  B5 00 28 00
2026-07-26T21:29:38.637945,28.540,can0  070  [20]  D2 28 4D 08 D1 AE 62 03 58 98 00 00 1D 04 00 00 0B 00 00 00
2026-07-26T21:29:38.638033,28.540,can0  040  [04]  B5 00 28 00
2026-07-26T21:29:38.638118,28.540,can0  060  [32]  00 00 00 00 00 00 00 00 00 00 00 00 00 00 00 00 00 00 00 00 00 00 00 00 00 00 00 00 00 00 00 00
2026-07-26T21:29:38.638200,28.540,can0  070  [20]  D2 28 4D 08 D1 AE 62 03 58 98 00 00 1D 04 00 00 0B 00 00 00
2026-07-26T21:29:38.638281,28.540,can0  041  [04]  A5 00 17 00
2026-07-26T21:29:38.702149,28.604,can0  070  [20]  D2 28 4D 08 D1 AE 62 03 58 98 00 00 1D 04 00 00 0B 00 00 00
2026-07-26T21:29:38.702459,28.604,can0  040  [04]  B5 00 2E 00
2026-07-26T21:29:38.813632,28.716,can0  040  [04]  B5 00 2E 00
2026-07-26T21:29:38.934398,28.836,can0  041  [04]  9E 00 19 00
2026-07-26T21:29:39.135182,29.037,can0  040  [04]  B5 00 33 00
2026-07-26T21:29:39.135254,29.037,can0  060  [32]  00 00 00 00 D2 28 4D 08 25 04 B8 10 00 00 10 0E FF 01 00 00 00 00 00 00 01 00 00 00 00 00 00 00
2026-07-26T21:29:39.135332,29.037,can0  040  [04]  B5 00 33 00
2026-07-26T21:29:39.135434,29.037,can0  041  [04]  9B 00 1A 00
2026-07-26T21:29:39.234640,29.137,can0  070  [20]  D2 28 4D 08 D1 AE 62 03 58 98 00 00 1D 04 00 00 0B 00 00 00
2026-07-26T21:29:39.234715,29.137,can0  100  [03]  A1 6B 04
2026-07-26T21:29:39.235055,29.137,can0  110  [02]  11 1B
2026-07-26T21:29:39.235129,29.137,can0  120  [04]  2A 4E 00 00
2026-07-26T21:29:39.235178,29.137,can0  070  [20]  D2 28 4D 08 D1 AE 62 03 58 98 00 00 1D 04 00 00 0B 00 00 00
2026-07-26T21:29:39.334488,29.236,can0  040  [04]  B6 00 37 00
2026-07-26T21:29:39.334671,29.237,can0  040  [04]  B6 00 37 00
2026-07-26T21:29:39.438223,29.340,can0  041  [04]  96 00 19 00
2026-07-26T21:29:39.635280,29.537,can0  070  [20]  D2 28 4D 08 D2 AE 62 03 40 9C 00 00 1D 04 00 00 13 00 00 00
2026-07-26T21:29:39.635400,29.537,can0  060  [32]  00 00 00 00 00 00 00 00 00 00 00 00 00 00 00 00 00 00 00 00 00 00 00 00 00 00 00 00 00 00 00 00
2026-07-26T21:29:39.635577,29.537,can0  040  [04]  B8 00 39 00
2026-07-26T21:29:39.635873,29.538,can0  070  [20]  D2 28 4D 08 D2 AE 62 03 40 9C 00 00 1D 04 00 00 13 00 00 00
2026-07-26T21:29:39.636068,29.538,can0  040  [04]  B8 00 39 00
2026-07-26T21:29:39.636320,29.538,can0  070  [20]  D2 28 4D 08 D2 AE 62 03 40 9C 00 00 1D 04 00 00 13 00 00 00
2026-07-26T21:29:39.694760,29.597,can0  041  [04]  92 00 17 00
2026-07-26T21:29:39.935031,29.837,can0  040  [04]  B6 00 39 00
2026-07-26T21:29:39.935270,29.837,can0  040  [04]  B6 00 39 00
2026-07-26T21:29:39.939629,29.842,can0  041  [04]  9C 00 15 00
2026-07-26T21:29:40.034639,29.937,can0  060  [32]  00 00 00 00 00 00 00 00 00 00 00 00 00 00 00 00 00 00 00 00 00 00 00 00 00 00 00 00 00 00 00 00
2026-07-26T21:29:40.134516,30.036,can0  060  [32]  00 00 00 00 D2 28 4D 08 27 04 B8 10 00 00 10 0E FF 01 00 00 00 00 00 00 01 00 00 00 00 00 00 00
2026-07-26T21:29:40.135117,30.037,can0  040  [04]  B0 00 36 00
2026-07-26T21:29:40.135213,30.037,can0  040  [04]  B0 00 36 00
2026-07-26T21:29:40.135635,30.038,can0  070  [20]  D2 28 4D 08 D2 AE 62 03 40 9C 00 00 1D 04 00 00 13 00 00 00
2026-07-26T21:29:40.237701,30.140,can0  041  [04]  9A 00 17 00
2026-07-26T21:29:40.237772,30.140,can0  070  [20]  D2 28 4D 08 D2 AE 62 03 40 9C 00 00 1D 04 00 00 13 00 00 00
2026-07-26T21:29:40.337520,30.239,can0  040  [04]  AF 00 32 00
2026-07-26T21:29:40.434162,30.336,can0  040  [04]  AF 00 32 00
2026-07-26T21:29:40.434504,30.336,can0  100  [03]  A2 6B 04
2026-07-26T21:29:40.437828,30.340,can0  120  [04]  0C 4E 00 00
2026-07-26T21:29:40.535076,30.437,can0  041  [04]  A7 00 15 00
2026-07-26T21:29:40.537156,30.439,can0  070  [20]  D2 28 4D 08 D2 AE 62 03 28 A0 00 00 1D 04 00 00 32 00 00 00
2026-07-26T21:29:40.634965,30.537,can0  070  [20]  D2 28 4D 08 D2 AE 62 03 28 A0 00 00 1D 04 00 00 31 00 00 00
2026-07-26T21:29:40.635203,30.537,can0  060  [32]  00 00 00 00 00 00 00 00 00 00 00 00 00 00 00 00 00 00 00 00 00 00 00 00 00 00 00 00 00 00 00 00
2026-07-26T21:29:40.638903,30.541,can0  040  [04]  B2 00 34 00
2026-07-26T21:29:40.734626,30.637,can0  070  [20]  D2 28 4D 08 D2 AE 62 03 28 A0 00 00 1D 04 00 00 31 00 00 00
2026-07-26T21:29:40.734800,30.637,can0  040  [04]  B2 00 34 00
2026-07-26T21:29:40.739402,30.641,can0  041  [04]  AA 00 15 00
2026-07-26T21:29:40.837386,30.739,can0  110  [02]  11 1B
2026-07-26T21:29:40.939513,30.841,can0  040  [04]  B4 00 37 00
2026-07-26T21:29:40.939654,30.842,can0  040  [04]  B4 00 37 00
2026-07-26T21:29:41.034424,30.936,can0  041  [04]  AD 00 14 00
2026-07-26T21:29:41.134369,31.036,can0  060  [32]  00 00 00 00 D2 28 4D 08 27 04 B8 10 00 00 10 0E FF 01 00 00 00 00 00 00 01 00 00 00 00 00 00 00
2026-07-26T21:29:41.134884,31.037,can0  040  [04]  B7 00 38 00
2026-07-26T21:29:41.135150,31.037,can0  070  [20]  D2 28 4D 08 D2 AE 62 03 28 A0 00 00 1D 04 00 00 31 00 00 00
2026-07-26T21:29:41.234772,31.137,can0  040  [04]  B7 00 38 00
2026-07-26T21:29:41.334290,31.236,can0  041  [04]  B2 00 12 00
2026-07-26T21:29:41.336650,31.239,can0  070  [20]  D2 28 4D 08 D2 AE 62 03 28 A0 00 00 1D 04 00 00 31 00 00 00
2026-07-26T21:29:41.437199,31.339,can0  040  [04]  B8 00 37 00
2026-07-26T21:29:41.437299,31.339,can0  040  [04]  B8 00 37 00
2026-07-26T21:29:41.534514,31.436,can0  041  [04]  AE 00 10 00
2026-07-26T21:29:41.534816,31.437,can0  070  [20]  D2 28 4D 08 D2 AE 62 03 10 A4 00 00 1D 04 00 00 50 00 00 00
2026-07-26T21:29:41.634855,31.537,can0  070  [20]  D2 28 4D 08 D2 AE 62 03 10 A4 00 00 1D 04 00 00 50 00 00 00
2026-07-26T21:29:41.635086,31.537,can0  060  [32]  00 00 00 00 00 00 00 00 00 00 00 00 00 00 00 00 00 00 00 00 00 00 00 00 00 00 00 00 00 00 00 00
2026-07-26T21:29:41.635347,31.537,can0  100  [03]  A3 6B 04
2026-07-26T21:29:41.635540,31.537,can0  120  [04]  2A 4E 00 00
2026-07-26T21:29:41.635742,31.538,can0  070  [20]  D2 28 4D 08 D2 AE 62 03 10 A4 00 00 1D 04 00 00 50 00 00 00
2026-07-26T21:29:41.635892,31.538,can0  040  [04]  B7 00 37 00
2026-07-26T21:29:41.734663,31.637,can0  040  [04]  B7 00 37 00
2026-07-26T21:29:41.834527,31.736,can0  041  [04]  AB 00 12 00
2026-07-26T21:29:41.934755,31.837,can0  040  [04]  B8 00 34 00
2026-07-26T21:29:42.045244,31.947,can0  040  [04]  B8 00 34 00
2026-07-26T21:29:42.134045,32.036,can0  060  [32]  00 00 00 00 00 00 00 00 00 00 00 00 00 00 00 00 00 00 00 00 00 00 00 00 00 00 00 00 00 00 00 00
2026-07-26T21:29:42.134314,32.036,can0  041  [04]  A5 00 17 00
2026-07-26T21:29:42.134535,32.036,can0  060  [32]  00 00 00 00 D2 28 4D 08 27 04 B8 10 00 00 10 0E FF 01 00 00 00 00 00 00 01 00 00 00 00 00 00 00
2026-07-26T21:29:42.134939,32.037,can0  070  [20]  D2 28 4D 08 D2 AE 62 03 10 A4 00 00 1D 04 00 00 50 00 00 00
2026-07-26T21:29:42.235032,32.137,can0  040  [04]  B5 00 33 00
2026-07-26T21:29:42.235295,32.137,can0  070  [20]  D2 28 4D 08 D2 AE 62 03 10 A4 00 00 1D 04 00 00 50 00 00 00
2026-07-26T21:29:42.235516,32.137,can0  040  [04]  B5 00 33 00
2026-07-26T21:29:42.339882,32.242,can0  041  [04]  A0 00 18 00
2026-07-26T21:29:42.437492,32.339,can0  110  [02]  10 1B
2026-07-26T21:29:42.534773,32.437,can0  040  [04]  B5 00 32 00
2026-07-26T21:29:42.535297,32.437,can0  070  [20]  D2 28 4D 08 D4 AE 62 03 F8 A7 00 00 1D 04 00 00 3D 00 00 00
2026-07-26T21:29:42.535546,32.437,can0  040  [04]  B5 00 32 00
2026-07-26T21:29:42.535765,32.438,can0  070  [20]  D2 28 4D 08 D4 AE 62 03 F8 A7 00 00 1D 04 00 00 3C 00 00 00
2026-07-26T21:29:42.634179,32.536,can0  060  [32]  00 00 00 00 00 00 00 00 00 00 00 00 00 00 00 00 00 00 00 00 00 00 00 00 00 00 00 00 00 00 00 00
2026-07-26T21:29:42.637461,32.539,can0  041  [04]  9C 00 1B 00
2026-07-26T21:29:42.734915,32.637,can0  070  [20]  D2 28 4D 08 D4 AE 62 03 F8 A7 00 00 1D 04 00 00 3C 00 00 00
2026-07-26T21:29:42.737094,32.639,can0  133  [00]
2026-07-26T21:29:42.737153,32.639,can0  040  [04]  B7 00 32 00
2026-07-26T21:29:42.834357,32.736,can0  040  [04]  B7 00 32 00
2026-07-26T21:29:42.834625,32.737,can0  100  [03]  A4 6B 04
2026-07-26T21:29:42.837840,32.740,can0  120  [04]  0C 4E 00 00
2026-07-26T21:29:42.935876,32.838,can0  041  [04]  9B 00 1D 00
2026-07-26T21:29:43.134318,33.036,can0  040  [04]  B7 00 32 00
2026-07-26T21:29:43.134511,33.036,can0  040  [04]  B7 00 32 00
2026-07-26T21:29:43.134761,33.037,can0  060  [32]  00 00 00 00 D2 28 4D 08 29 04 B8 10 00 00 10 0E FF 01 00 00 00 00 00 00 01 00 00 00 00 00 00 00
2026-07-26T21:29:43.135261,33.037,can0  041  [04]  98 00 1A 00
2026-07-26T21:29:43.135454,33.037,can0  070  [20]  D2 28 4D 08 D4 AE 62 03 F8 A7 00 00 1D 04 00 00 3C 00 00 00
2026-07-26T21:29:43.235020,33.137,can0  070  [20]  D2 28 4D 08 D4 AE 62 03 F8 A7 00 00 1D 04 00 00 3C 00 00 00
2026-07-26T21:29:43.235230,33.137,can0  040  [04]  B7 00 32 00
2026-07-26T21:29:43.337662,33.240,can0  040  [04]  B7 00 32 00
2026-07-26T21:29:43.434980,33.337,can0  041  [04]  9B 00 1A 00
2026-07-26T21:29:43.635022,33.537,can0  040  [04]  B5 00 32 00
2026-07-26T21:29:43.635874,33.538,can0  070  [20]  D2 28 4D 08 D6 AE 62 03 E0 AB 00 00 1D 04 00 00 07 00 00 00
2026-07-26T21:29:43.635929,33.538,can0  070  [20]  D2 28 4D 08 D6 AE 62 03 E0 AB 00 00 1D 04 00 00 07 00 00 00
2026-07-26T21:29:43.635971,33.538,can0  040  [04]  B5 00 32 00
2026-07-26T21:29:43.639183,33.541,can0  070  [20]  D2 28 4D 08 D6 AE 62 03 E0 AB 00 00 1D 04 00 00 07 00 00 00
2026-07-26T21:29:43.736435,33.638,can0  041  [04]  A2 00 1A 00
2026-07-26T21:29:43.934187,33.836,can0  040  [04]  B3 00 30 00
2026-07-26T21:29:43.936798,33.839,can0  040  [04]  B3 00 30 00
2026-07-26T21:29:43.936853,33.839,can0  041  [04]  9F 00 18 00
2026-07-26T21:29:44.034649,33.937,can0  100  [03]  A4 6B 04
2026-07-26T21:29:44.035121,33.937,can0  110  [02]  14 1B
2026-07-26T21:29:44.035179,33.937,can0  120  [04]  20 4E 00 00
2026-07-26T21:29:44.035259,33.937,can0  040  [04]  B2 00 31 00
2026-07-26T21:29:44.135018,34.037,can0  060  [32]  E7 64 11 00 6F 9D 4D 08 72 7A 62 03 00 00 55 0D 84 00 84 00 00 00 00 00 02 00 00 00 00 00 00 00
2026-07-26T21:29:44.135407,34.037,can0  060  [32]  00 00 00 00 D2 28 4D 08 2A 04 B8 10 00 00 10 0E FF 01 00 00 00 00 00 01 02 00 00 00 00 00 00 00
2026-07-26T21:29:44.135643,34.038,can0  040  [04]  B2 00 31 00
2026-07-26T21:29:44.135906,34.038,can0  070  [20]  D2 28 4D 08 D6 AE 62 03 E0 AB 00 00 1D 04 00 00 07 00 00 00
2026-07-26T21:29:44.234845,34.137,can0  041  [04]  9F 00 1A 00
2026-07-26T21:29:44.238046,34.140,can0  070  [20]  D2 28 4D 08 D6 AE 62 03 E0 AB 00 00 1D 04 00 00 07 00 00 00
2026-07-26T21:29:44.336189,34.238,can0  040  [04]  B0 00 33 00
2026-07-26T21:29:44.434555,34.336,can0  040  [04]  B0 00 33 00
2026-07-26T21:29:44.437855,34.340,can0  132  [00]
2026-07-26T21:29:44.437944,34.340,can0  041  [04]  9F 00 1D 00
2026-07-26T21:29:44.537390,34.439,can0  070  [20]  D2 28 4D 08 D7 AE 62 03 C8 AF 00 00 1D 04 00 00 1C 00 00 00
2026-07-26T21:29:44.634959,34.537,can0  070  [20]  D2 28 4D 08 D7 AE 62 03 C8 AF 00 00 1D 04 00 00 1B 00 00 00
2026-07-26T21:29:44.635169,34.537,can0  040  [04]  B2 00 34 00
2026-07-26T21:29:44.635547,34.537,can0  060  [32]  00 00 00 00 00 00 00 00 00 00 00 00 00 00 00 00 00 00 00 00 00 00 00 00 00 00 00 00 00 00 00 00
2026-07-26T21:29:44.635608,34.537,can0  040  [04]  B2 00 34 00
2026-07-26T21:29:44.635772,34.538,can0  070  [20]  D2 28 4D 08 D7 AE 62 03 C8 AF 00 00 1D 04 00 00 1B 00 00 00
2026-07-26T21:29:44.737576,34.639,can0  041  [04]  9C 00 1B 00
2026-07-26T21:29:44.934840,34.837,can0  040  [04]  B2 00 32 00
2026-07-26T21:29:44.935033,34.837,can0  040  [04]  B2 00 32 00
2026-07-26T21:29:45.037849,34.940,can0  041  [04]  A7 00 19 00
2026-07-26T21:29:45.234642,35.137,can0  060  [32]  00 00 00 00 D2 28 4D 08 2C 04 B8 10 00 00 10 0E FF 01 00 00 00 00 00 00 01 00 00 00 00 00 00 00
2026-07-26T21:29:45.235553,35.137,can0  040  [04]  B2 00 31 00
2026-07-26T21:29:45.235617,35.138,can0  070  [20]  D2 28 4D 08 D7 AE 62 03 C8 AF 00 00 1D 04 00 00 1B 00 00 00
2026-07-26T21:29:45.235663,35.138,can0  040  [04]  B2 00 31 00
2026-07-26T21:29:45.235763,35.138,can0  100  [03]  A6 6B 04
2026-07-26T21:29:45.236121,35.138,can0  120  [04]  0C 4E 00 00
2026-07-26T21:29:45.236198,35.138,can0  070  [20]  D2 28 4D 08 D7 AE 62 03 C8 AF 00 00 1D 04 00 00 1B 00 00 00
2026-07-26T21:29:45.236343,35.138,can0  041  [04]  AF 00 17 00
2026-07-26T21:29:45.434272,35.336,can0  040  [04]  B3 00 32 00
2026-07-26T21:29:45.434493,35.336,can0  040  [04]  B3 00 32 00
2026-07-26T21:29:45.537826,35.440,can0  041  [04]  A9 00 16 00
2026-07-26T21:29:45.537897,35.440,can0  070  [20]  D2 28 4D 08 D9 AE 62 03 B0 B3 00 00 1D 04 00 00 13 00 00 00
2026-07-26T21:29:45.634661,35.537,can0  070  [20]  D2 28 4D 08 D9 AE 62 03 B0 B3 00 00 1D 04 00 00 13 00 00 00
2026-07-26T21:29:45.634732,35.537,can0  110  [02]  12 1B
2026-07-26T21:29:45.634916,35.537,can0  070  [20]  D2 28 4D 08 D9 AE 62 03 B0 B3 00 00 1D 04 00 00 13 00 00 00
2026-07-26T21:29:45.635119,35.537,can0  040  [04]  B3 00 30 00
2026-07-26T21:29:45.737307,35.639,can0  040  [04]  B3 00 30 00
2026-07-26T21:29:45.835015,35.737,can0  041  [04]  A9 00 15 00
2026-07-26T21:29:46.035032,35.937,can0  040  [04]  B6 00 33 00
2026-07-26T21:29:46.035251,35.937,can0  040  [04]  B6 00 33 00
2026-07-26T21:29:46.035483,35.937,can0  041  [04]  A7 00 15 00
2026-07-26T21:29:46.134155,36.036,can0  060  [32]  F8 C7 DC 02 4C 28 4D 08 78 37 B8 10 00 00 10 0E FF 01 00 00 00 00 00 00 02 00 00 00 00 00 00 00
2026-07-26T21:29:46.134574,36.036,can0  060  [32]  00 00 00 00 D2 28 4D 08 2E 04 B8 10 00 00 10 0E FF 01 00 00 00 00 00 01 02 00 00 00 00 00 00 00
2026-07-26T21:29:46.134817,36.037,can0  070  [20]  D2 28 4D 08 D9 AE 62 03 B0 B3 00 00 1D 04 00 00 13 00 00 00
2026-07-26T21:29:46.234808,36.137,can0  040  [04]  B3 00 35 00
2026-07-26T21:29:46.237749,36.140,can0  040  [04]  B3 00 35 00
2026-07-26T21:29:46.237831,36.140,can0  070  [20]  D2 28 4D 08 D9 AE 62 03 B0 B3 00 00 1D 04 00 00 13 00 00 00
2026-07-26T21:29:46.337802,36.240,can0  041  [04]  9F 00 16 00
2026-07-26T21:29:46.348222,36.250,can0   202  [01]  00 A
2026-07-26T21:29:46.434203,36.336,can0  202  [01]  0A
2026-07-26T21:29:46.434632,36.337,can0  100  [03]  A7 6B 04
2026-07-26T21:29:46.434870,36.337,can0  120  [04]  16 4E 00 00
2026-07-26T21:29:46.435114,36.337,can0  040  [04]  B3 00 35 00
2026-07-26T21:29:46.534828,36.437,can0  040  [04]  B3 00 35 00
2026-07-26T21:29:46.536156,36.438,can0  070  [20]  D2 28 4D 08 DB AE 62 03 98 B7 00 00 1D 04 00 00 1F 00 00 00
2026-07-26T21:29:46.634912,36.537,can0  070  [20]  D2 28 4D 08 DB AE 62 03 98 B7 00 00 1D 04 00 00 20 00 00 00
2026-07-26T21:29:46.637649,36.540,can0  041  [04]  98 00 15 00
2026-07-26T21:29:46.637705,36.540,can0  060  [32]  00 00 00 00 00 00 00 00 00 00 00 00 00 00 00 00 00 00 00 00 00 00 00 00 00 00 00 00 00 00 00 00
2026-07-26T21:29:46.734795,36.637,can0  070  [20]  D2 28 4D 08 DB AE 62 03 98 B7 00 00 1D 04 00 00 20 00 00 00
2026-07-26T21:29:46.738085,36.640,can0  040  [04]  B5 00 30 00
2026-07-26T21:29:46.834897,36.737,can0  040  [04]  B5 00 30 00
2026-07-26T21:29:46.838108,36.740,can0  041  [04]  9B 00 12 00
2026-07-26T21:29:47.034248,36.936,can0  040  [04]  B6 00 2D 00
2026-07-26T21:29:47.034450,36.936,can0  040  [04]  B6 00 2D 00
2026-07-26T21:29:47.134847,37.037,can0  041  [04]  A2 00 14 00
2026-07-26T21:29:47.138613,37.041,can0  060  [32]  00 00 00 00 00 00 00 00 00 00 00 00 00 00 00 00 00 00 00 00 00 00 00 00 00 00 00 00 00 00 00 00
2026-07-26T21:29:47.138687,37.041,can0  060  [32]  00 00 00 00 D2 28 4D 08 2F 04 B8 10 00 00 10 0E FF 01 00 00 00 00 00 00 01 00 00 00 00 00 00 00
2026-07-26T21:29:47.234586,37.136,can0  070  [20]  D2 28 4D 08 DB AE 62 03 98 B7 00 00 1D 04 00 00 20 00 00 00
2026-07-26T21:29:47.238663,37.141,can0  110  [02]  12 1B
2026-07-26T21:29:47.238732,37.141,can0  070  [20]  D2 28 4D 08 DB AE 62 03 98 B7 00 00 1D 04 00 00 20 00 00 00
2026-07-26T21:29:47.239998,37.142,can0  040  [04]  B8 00 2C 00
2026-07-26T21:29:47.338791,37.241,can0  040  [04]  B8 00 2C 00
2026-07-26T21:29:47.434978,37.337,can0  041  [04]  9B 00 11 00
2026-07-26T21:29:47.634842,37.537,can0  040  [04]  B8 00 2C 00
2026-07-26T21:29:47.635372,37.537,can0  070  [20]  D2 28 4D 08 DB AE 62 03 80 BB 00 00 1D 04 00 00 30 00 00 00
2026-07-26T21:29:47.635581,37.537,can0  040  [04]  B8 00 2C 00
2026-07-26T21:29:47.635769,37.538,can0  070  [20]  D2 28 4D 08 DB AE 62 03 80 BB 00 00 1D 04 00 00 30 00 00 00
2026-07-26T21:29:47.635943,37.538,can0  100  [03]  A6 6B 04
2026-07-26T21:29:47.636075,37.538,can0  120  [04]  0C 4E 00 00
2026-07-26T21:29:47.636233,37.538,can0  070  [20]  D2 28 4D 08 DB AE 62 03 80 BB 00 00 1D 04 00 00 30 00 00 00
2026-07-26T21:29:47.636406,37.538,can0  041  [04]  A3 00 11 00
2026-07-26T21:29:47.938150,37.840,can0  040  [04]  B9 00 2D 00
2026-07-26T21:29:47.938350,37.840,can0  040  [04]  B9 00 2D 00
2026-07-26T21:29:47.938442,37.840,can0  041  [04]  A9 00 13 00
2026-07-26T21:29:48.134626,38.037,can0  040  [04]  B6 00 2F 00
2026-07-26T21:29:48.135007,38.037,can0  040  [04]  B6 00 2F 00
2026-07-26T21:29:48.135053,38.037,can0  070  [20]  D2 28 4D 08 DB AE 62 03 80 BB 00 00 1D 04 00 00 30 00 00 00
2026-07-26T21:29:48.135247,38.037,can0  060  [32]  AC 31 FB 04 10 A2 4D 08 40 A7 62 03 01 00 70 07 6C 00 80 00 00 00 00 00 02 00 00 00 00 00 00 00
2026-07-26T21:29:48.135385,38.037,can0  060  [32]  00 00 00 00 D2 28 4D 08 2F 04 B8 10 00 00 10 0E FF 01 00 00 00 00 00 01 02 00 00 00 00 00 00 00
2026-07-26T21:29:48.234498,38.136,can0  041  [04]  B5 00 12 00
2026-07-26T21:29:48.238103,38.140,can0  070  [20]  D2 28 4D 08 DB AE 62 03 80 BB 00 00 1D 04 00 00 30 00 00 00
2026-07-26T21:29:48.334917,38.237,can0  040  [04]  B3 00 2F 00
2026-07-26T21:29:48.434258,38.336,can0  040  [04]  B3 00 2F 00
2026-07-26T21:29:48.437888,38.340,can0  041  [04]  AF 00 13 00
2026-07-26T21:29:48.534617,38.437,can0  070  [20]  D3 28 4D 08 DC AE 62 03 68 BF 00 00 1D 04 00 00 23 00 00 00
2026-07-26T21:29:48.534868,38.437,can0  070  [20]  D3 28 4D 08 DC AE 62 03 68 BF 00 00 1D 04 00 00 23 00 00 00
2026-07-26T21:29:48.634917,38.537,can0  040  [04]  B3 00 2E 00
2026-07-26T21:29:48.635093,38.537,can0  040  [04]  B3 00 2E 00
2026-07-26T21:29:48.635695,38.538,can0  070  [20]  D3 28 4D 08 DC AE 62 03 68 BF 00 00 1D 04 00 00 23 00 00 00
2026-07-26T21:29:48.635959,38.538,can0  060  [32]  00 00 00 00 00 00 00 00 00 00 00 00 00 00 00 00 00 00 00 00 00 00 00 00 00 00 00 00 00 00 00 00
2026-07-26T21:29:48.734575,38.636,can0  041  [04]  AA 00 16 00
2026-07-26T21:29:48.834814,38.737,can0  100  [03]  A4 6B 04
2026-07-26T21:29:48.835325,38.737,can0  110  [02]  13 1B
2026-07-26T21:29:48.835373,38.737,can0  120  [04]  16 4E 00 00
2026-07-26T21:29:48.835416,38.737,can0  040  [04]  B3 00 2F 00
2026-07-26T21:29:48.936806,38.839,can0  040  [04]  B3 00 2F 00
2026-07-26T21:29:49.037826,38.940,can0  041  [04]  A7 00 19 00
2026-07-26T21:29:49.235201,39.137,can0  040  [04]  B3 00 2F 00
2026-07-26T21:29:49.235269,39.137,can0  070  [20]  D3 28 4D 08 DC AE 62 03 68 BF 00 00 1D 04 00 00 23 00 00 00
2026-07-26T21:29:49.235313,39.137,can0  060  [32]  00 00 00 00 00 00 00 00 00 00 00 00 00 00 00 00 00 00 00 00 00 00 00 00 00 00 00 00 00 00 00 00
2026-07-26T21:29:49.235372,39.137,can0  040  [04]  B3 00 2F 00
2026-07-26T21:29:49.235415,39.137,can0  060  [32]  00 00 00 00 D3 28 4D 08 31 04 B8 10 00 00 10 0E FF 01 00 00 00 00 00 00 01 00 00 00 00 00 00 00
2026-07-26T21:29:49.235772,39.138,can0  070  [20]  D3 28 4D 08 DC AE 62 03 68 BF 00 00 1D 04 00 00 23 00 00 00
2026-07-26T21:29:49.235941,39.138,can0  041  [04]  A6 00 1C 00
2026-07-26T21:29:49.439035,39.341,can0  040  [04]  B6 00 2F 00
2026-07-26T21:29:49.439120,39.341,can0  040  [04]  B6 00 2F 00
2026-07-26T21:29:49.538085,39.440,can0  070  [20]  D3 28 4D 08 DC AE 62 03 50 C3 00 00 1D 04 00 00 13 00 00 00
2026-07-26T21:29:49.538167,39.440,can0  041  [04]  A2 00 1E 00
2026-07-26T21:29:49.538211,39.440,can0  070  [20]  D3 28 4D 08 DC AE 62 03 50 C3 00 00 1D 04 00 00 13 00 00 00
2026-07-26T21:29:49.638284,39.540,can0  070  [20]  D3 28 4D 08 DC AE 62 03 50 C3 00 00 1D 04 00 00 13 00 00 00
2026-07-26T21:29:49.638384,39.540,can0  040  [04]  B9 00 2D 00
2026-07-26T21:29:49.734903,39.637,can0  060  [32]  00 00 00 00 00 00 00 00 00 00 00 00 00 00 00 00 00 00 00 00 00 00 00 00 00 00 00 00 00 00 00 00
2026-07-26T21:29:49.735151,39.637,can0  040  [04]  B9 00 2D 00
2026-07-26T21:29:49.834609,39.737,can0  041  [04]  A3 00 1B 00
2026-07-26T21:29:49.934654,39.837,can0  060  [32]  66 5F 11 00 7E 7C 4D 08 B4 63 62 03 01 00 90 07 8A 00 80 00 00 00 00 00 01 00 00 00 00 00 00 00
2026-07-26T21:29:49.938686,39.841,can0  040  [04]  B9 00 2D 00
2026-07-26T21:29:49.938763,39.841,can0  040  [04]  B9 00 2D 00
2026-07-26T21:29:50.034090,39.936,can0  100  [03]  A3 6B 04
2026-07-26T21:29:50.034324,39.936,can0  120  [04]  16 4E 00 00
2026-07-26T21:29:50.034627,39.937,can0  041  [04]  A2 00 17 00
2026-07-26T21:29:50.138177,40.040,can0  070  [20]  D3 28 4D 08 DC AE 62 03 50 C3 00 00 1D 04 00 00 13 00 00 00
2026-07-26T21:29:50.234765,40.137,can0  040  [04]  B7 00 2B 00
2026-07-26T21:29:50.235000,40.137,can0  040  [04]  B7 00 2B 00
2026-07-26T21:29:50.235220,40.137,can0  070  [20]  D3 28 4D 08 DC AE 62 03 50 C3 00 00 1D 04 00 00 13 00 00 00
2026-07-26T21:29:50.338464,40.240,can0  041  [04]  9F 00 15 00
2026-07-26T21:29:50.434773,40.337,can0  110  [02]  13 1B
2026-07-26T21:29:50.435042,40.337,can0  040  [04]  B9 00 2C 00
2026-07-26T21:29:50.534946,40.437,can0  040  [04]  B9 00 2C 00
2026-07-26T21:29:50.535233,40.437,can0  070  [20]  D3 28 4D 08 DB AE 62 03 38 C7 00 00 1D 04 00 00 1A 00 00 00
2026-07-26T21:29:50.535498,40.437,can0  070  [20]  D3 28 4D 08 DB AE 62 03 38 C7 00 00 1D 04 00 00 1A 00 00 00
2026-07-26T21:29:50.634299,40.536,can0  041  [04]  9B 00 13 00
2026-07-26T21:29:50.634572,40.536,can0  070  [20]  D3 28 4D 08 DB AE 62 03 38 C7 00 00 1D 04 00 00 1A 00 00 00
2026-07-26T21:29:50.734999,40.637,can0  040  [04]  B9 00 2D 00
2026-07-26T21:29:50.735239,40.637,can0  040  [04]  B9 00 2D 00
2026-07-26T21:29:50.838127,40.740,can0  041  [04]  A7 00 12 00
2026-07-26T21:29:51.034862,40.937,can0  040  [04]  BA 00 2E 00
2026-07-26T21:29:51.036633,40.939,can0  040  [04]  BA 00 2E 00
2026-07-26T21:29:51.134495,41.036,can0  041  [04]  AE 00 10 00
2026-07-26T21:29:51.138662,41.041,can0  070  [20]  D3 28 4D 08 DB AE 62 03 38 C7 00 00 1D 04 00 00 1A 00 00 00
2026-07-26T21:29:51.234106,41.136,can0  060  [32]  70 56 DA 0E AE 5C 4D 08 62 7B 62 03 01 00 27 00 74 00 7D 00 00 00 00 00 02 00 00 00 00 00 00 00
2026-07-26T21:29:51.234326,41.136,can0  060  [32]  00 00 00 00 D3 28 4D 08 2F 04 B8 10 00 00 10 0E FF 01 00 00 00 00 00 01 02 00 00 00 00 00 00 00
2026-07-26T21:29:51.234936,41.137,can0  100  [03]  A2 6B 04
2026-07-26T21:29:51.235021,41.137,can0  120  [04]  20 4E 00 00
2026-07-26T21:29:51.235531,41.137,can0  070  [20]  D3 28 4D 08 DB AE 62 03 38 C7 00 00 1D 04 00 00 1A 00 00 00
2026-07-26T21:29:51.237081,41.139,can0  040  [04]  B9 00 2C 00
2026-07-26T21:29:51.334969,41.237,can0  040  [04]  B9 00 2C 00
2026-07-26T21:29:51.434734,41.337,can0  041  [04]  AE 00 10 00
2026-07-26T21:29:51.534177,41.436,can0  070  [20]  D3 28 4D 08 DB AE 62 03 20 CB 00 00 1D 04 00 00 29 00 00 00
2026-07-26T21:29:51.534523,41.436,can0  040  [04]  B6 00 2B 00
2026-07-26T21:29:51.534692,41.437,can0  070  [20]  D3 28 4D 08 DB AE 62 03 20 CB 00 00 1D 04 00 00 29 00 00 00
2026-07-26T21:29:51.538886,41.441,can0  040  [04]  B6 00 2B 00
2026-07-26T21:29:51.634807,41.537,can0  070  [20]  D3 28 4D 08 DB AE 62 03 20 CB 00 00 1D 04 00 00 29 00 00 00
2026-07-26T21:29:51.635069,41.537,can0  041  [04]  AD 00 0F 00
2026-07-26T21:29:51.734522,41.636,can0  060  [32]  00 00 00 00 00 00 00 00 00 00 00 00 00 00 00 00 00 00 00 00 00 00 00 00 00 00 00 00 00 00 00 00
2026-07-26T21:29:51.834586,41.736,can0  040  [04]  B5 00 29 00
2026-07-26T21:29:51.838003,41.740,can0  040  [04]  B5 00 29 00
2026-07-26T21:29:51.937455,41.839,can0  041  [04]  AD 00 0F 00
2026-07-26T21:29:52.034910,41.937,can0  110  [02]  12 1B
2026-07-26T21:29:52.035282,41.937,can0  040  [04]  B3 00 29 00
2026-07-26T21:29:52.134622,42.037,can0  040  [04]  B3 00 29 00
2026-07-26T21:29:52.136682,42.039,can0  070  [20]  D3 28 4D 08 DB AE 62 03 20 CB 00 00 1D 04 00 00 29 00 00 00
2026-07-26T21:29:52.234776,42.137,can0  041  [04]  A8 00 0E 00
2026-07-26T21:29:52.235014,42.137,can0  060  [32]  00 00 00 00 D3 28 4D 08 2F 04 B8 10 00 00 10 0E FF 01 00 00 00 00 00 00 01 00 00 00 00 00 00 00
2026-07-26T21:29:52.235816,42.138,can0  070  [20]  D3 28 4D 08 DB AE 62 03 20 CB 00 00 1D 04 00 00 29 00 00 00
2026-07-26T21:29:52.334297,42.236,can0  040  [04]  B3 00 2C 00
2026-07-26T21:29:52.434284,42.336,can0  040  [04]  B3 00 2C 00
2026-07-26T21:29:52.434653,42.337,can0  100  [03]  A0 6B 04
2026-07-26T21:29:52.434853,42.337,can0  120  [04]  02 4E 00 00
2026-07-26T21:29:52.435117,42.337,can0  041  [04]  AC 00 0C 00
2026-07-26T21:29:52.534458,42.436,can0  070  [20]  D3 28 4D 08 DB AE 62 03 08 CF 00 00 1D 04 00 00 11 00 00 00
2026-07-26T21:29:52.534749,42.437,can0  070  [20]  D3 28 4D 08 DB AE 62 03 08 CF 00 00 1D 04 00 00 11 00 00 00
2026-07-26T21:29:52.634020,42.536,can0  040  [04]  B3 00 2E 00
2026-07-26T21:29:52.634234,42.536,can0  040  [04]  B3 00 2E 00
2026-07-26T21:29:52.634684,42.537,can0  133  [00]
2026-07-26T21:29:52.634759,42.537,can0  070  [20]  D3 28 4D 08 DB AE 62 03 08 CF 00 00 1D 04 00 00 11 00 00 00
2026-07-26T21:29:52.737934,42.640,can0  041  [04]  AA 00 0B 00
2026-07-26T21:29:52.934076,42.836,can0  040  [04]  B3 00 2E 00
2026-07-26T21:29:52.934331,42.836,can0  040  [04]  B3 00 2E 00
2026-07-26T21:29:53.034660,42.937,can0  041  [04]  AD 00 0D 00
2026-07-26T21:29:53.234447,43.136,can0  040  [04]  B3 00 2B 00
2026-07-26T21:29:53.234744,43.137,can0  070  [20]  D3 28 4D 08 DB AE 62 03 08 CF 00 00 1D 04 00 00 11 00 00 00
2026-07-26T21:29:53.234981,43.137,can0  040  [04]  B3 00 2B 00
2026-07-26T21:29:53.235312,43.137,can0  060  [32]  EA 63 11 00 71 6B 4D 08 F7 DB 62 03 00 00 F6 0B 69 00 80 00 00 00 00 00 02 00 00 00 00 00 00 00
2026-07-26T21:29:53.235512,43.137,can0  060  [32]  00 00 00 00 D3 28 4D 08 2F 04 B8 10 00 00 10 0E FF 01 00 00 00 00 00 01 02 00 00 00 00 00 00 00
2026-07-26T21:29:53.236061,43.138,can0  041  [04]  A9 00 0F 00
2026-07-26T21:29:53.236384,43.138,can0  070  [20]  D3 28 4D 08 DB AE 62 03 08 CF 00 00 1D 04 00 00 11 00 00 00
2026-07-26T21:29:53.438035,43.340,can0  040  [04]  B3 00 28 00
2026-07-26T21:29:53.438113,43.340,can0  040  [04]  B3 00 28 00
2026-07-26T21:29:53.534432,43.436,can0  041  [04]  AF 00 13 00
2026-07-26T21:29:53.538394,43.440,can0  070  [20]  D3 28 4D 08 DB AE 62 03 F0 D2 00 00 1D 04 00 00 25 00 00 00
2026-07-26T21:29:53.538513,43.440,can0  070  [20]  D3 28 4D 08 DB AE 62 03 F0 D2 00 00 1D 04 00 00 25 00 00 00
2026-07-26T21:29:53.634779,43.537,can0  100  [03]  9F 6B 04
2026-07-26T21:29:53.634979,43.537,can0  110  [02]  12 1B
2026-07-26T21:29:53.635490,43.537,can0  120  [04]  20 4E 00 00
2026-07-26T21:29:53.635600,43.537,can0  070  [20]  D3 28 4D 08 DB AE 62 03 F0 D2 00 00 1D 04 00 00 25 00 00 00
2026-07-26T21:29:53.635685,43.538,can0  040  [04]  B3 00 28 00
2026-07-26T21:29:53.734358,43.636,can0  040  [04]  B3 00 28 00
2026-07-26T21:29:53.734651,43.637,can0  060  [32]  00 00 00 00 00 00 00 00 00 00 00 00 00 00 00 00 00 00 00 00 00 00 00 00 00 00 00 00 00 00 00 00
2026-07-26T21:29:53.838279,43.740,can0  041  [04]  B5 00 12 00
2026-07-26T21:29:53.935013,43.837,can0  040  [04]  B5 00 2C 00
2026-07-26T21:29:53.935225,43.837,can0  040  [04]  B5 00 2C 00
2026-07-26T21:29:54.034971,43.937,can0  041  [04]  B5 00 12 00
2026-07-26T21:29:54.134917,44.037,can0  070  [20]  D3 28 4D 08 DB AE 62 03 F0 D2 00 00 1D 04 00 00 25 00 00 00
2026-07-26T21:29:54.235007,44.137,can0  040  [04]  B7 00 29 00
2026-07-26T21:29:54.235104,44.137,can0  060  [32]  00 00 00 00 00 00 00 00 00 00 00 00 00 00 00 00 00 00 00 00 00 00 00 00 00 00 00 00 00 00 00 00
2026-07-26T21:29:54.235318,44.137,can0  040  [04]  B7 00 29 00
2026-07-26T21:29:54.235400,44.137,can0  060  [32]  00 00 00 00 D3 28 4D 08 2F 04 B8 10 00 00 10 0E FF 01 00 00 00 00 00 00 01 00 00 00 00 00 00 00
2026-07-26T21:29:54.335258,44.237,can0  070  [20]  D3 28 4D 08 DB AE 62 03 F0 D2 00 00 1D 04 00 00 25 00 00 00
2026-07-26T21:29:54.335353,44.237,can0  041  [04]  BC 00 0D 00
2026-07-26T21:29:54.335491,44.237,can0  132  [00]
2026-07-26T21:29:54.535028,44.437,can0  040  [04]  B9 00 2C 00
2026-07-26T21:29:54.539894,44.442,can0  040  [04]  B9 00 2C 00
2026-07-26T21:29:54.539988,44.442,can0  070  [20]  D3 28 4D 08 DB AE 62 03 D8 D6 00 00 1D 04 00 00 1A 00 00 00
2026-07-26T21:29:54.540079,44.442,can0  070  [20]  D3 28 4D 08 DB AE 62 03 D8 D6 00 00 1D 04 00 00 1A 00 00 00
2026-07-26T21:29:54.634931,44.537,can0  041  [04]  B5 00 0C 00
2026-07-26T21:29:54.635225,44.537,can0  070  [20]  D3 28 4D 08 DB AE 62 03 D8 D6 00 00 1D 04 00 00 1A 00 00 00
2026-07-26T21:29:54.734661,44.637,can0  040  [04]  B8 00 30 00
2026-07-26T21:29:54.734904,44.637,can0  060  [32]  00 00 00 00 00 00 00 00 00 00 00 00 00 00 00 00 00 00 00 00 00 00 00 00 00 00 00 00 00 00 00 00
2026-07-26T21:29:54.735122,44.637,can0  040  [04]  B8 00 30 00
2026-07-26T21:29:54.834951,44.737,can0  100  [03]  9E 6B 04
2026-07-26T21:29:54.835171,44.737,can0  120  [04]  0C 4E 00 00
2026-07-26T21:29:54.835430,44.737,can0  041  [04]  AD 00 0D 00
2026-07-26T21:29:55.034173,44.936,can0  040  [04]  B8 00 31 00
2026-07-26T21:29:55.034432,44.936,can0  040  [04]  B8 00 31 00
2026-07-26T21:29:55.134608,45.037,can0  041  [04]  A2 00 0D 00
2026-07-26T21:29:55.134818,45.037,can0  070  [20]  D3 28 4D 08 DB AE 62 03 D8 D6 00 00 1D 04 00 00 1A 00 00 00
2026-07-26T21:29:55.234133,45.136,can0  110  [02]  12 1B
2026-07-26T21:29:55.234416,45.136,can0  070  [20]  D3 28 4D 08 DB AE 62 03 D8 D6 00 00 1D 04 00 00 1A 00 00 00
2026-07-26T21:29:55.234723,45.137,can0  040  [04]  BA 00 34 00
2026-07-26T21:29:55.234954,45.137,can0  060  [32]  00 00 00 00 D3 28 4D 08 2F 04 B8 10 00 00 10 0E FF 01 00 00 00 00 00 00 01 00 00 00 00 00 00 00
2026-07-26T21:29:55.334144,45.236,can0  040  [04]  BA 00 34 00
2026-07-26T21:29:55.434625,45.337,can0  041  [04]  AA 00 0C 00
2026-07-26T21:29:55.534166,45.436,can0  040  [04]  BB 00 33 00
2026-07-26T21:29:55.534445,45.436,can0  070  [20]  D2 28 4D 08 DC AE 62 03 C0 DA 00 00 1D 04 00 00 13 00 00 00
2026-07-26T21:29:55.534676,45.437,can0  070  [20]  D2 28 4D 08 DC AE 62 03 C0 DA 00 00 1D 04 00 00 12 00 00 00
2026-07-26T21:29:55.538859,45.441,can0  040  [04]  BB 00 33 00
2026-07-26T21:29:55.635964,45.538,can0  070  [20]  D2 28 4D 08 DC AE 62 03 C0 DA 00 00 1D 04 00 00 12 00 00 00
2026-07-26T21:29:55.636268,45.538,can0  041  [04]  B5 00 0D 00
2026-07-26T21:29:55.734839,45.637,can0  060  [32]  00 00 00 00 00 00 00 00 00 00 00 00 00 00 00 00 00 00 00 00 00 00 00 00 00 00 00 00 00 00 00 00
2026-07-26T21:29:55.835473,45.737,can0  040  [04]  BA 00 34 00
2026-07-26T21:29:55.835795,45.738,can0  040  [04]  BA 00 34 00
2026-07-26T21:29:55.934403,45.836,can0  041  [04]  B1 00 0D 00
2026-07-26T21:29:56.034680,45.937,can0  100  [03]  9D 6B 04
2026-07-26T21:29:56.034940,45.937,can0  120  [04]  20 4E 00 00
2026-07-26T21:29:56.035178,45.937,can0  040  [04]  BA 00 32 00
2026-07-26T21:29:56.134957,46.037,can0  040  [04]  BA 00 32 00
2026-07-26T21:29:56.137981,46.040,can0  070  [20]  D2 28 4D 08 DC AE 62 03 C0 DA 00 00 1D 04 00 00 12 00 00 00
2026-07-26T21:29:56.235218,46.137,can0  041  [04]  B5 00 0B 00
2026-07-26T21:29:56.235602,46.137,can0  070  [20]  D2 28 4D 08 DC AE 62 03 C0 DA 00 00 1D 04 00 00 12 00 00 00
2026-07-26T21:29:56.235910,46.138,can0  060  [32]  00 00 00 00 00 00 00 00 00 00 00 00 00 00 00 00 00 00 00 00 00 00 00 00 00 00 00 00 00 00 00 00
2026-07-26T21:29:56.334546,46.236,can0  060  [32]  00 00 00 00 D2 28 4D 08 31 04 B8 10 00 00 10 0E FF 01 00 00 00 00 00 00 01 00 00 00 00 00 00 00
2026-07-26T21:29:56.335798,46.238,can0  040  [04]  BA 00 2C 00
2026-07-26T21:29:56.335875,46.238,can0  040  [04]  BA 00 2C 00
2026-07-26T21:29:56.434298,46.336,can0  041  [04]  B0 00 0B 00
2026-07-26T21:29:56.534742,46.437,can0  070  [20]  D2 28 4D 08 DC AE 62 03 A8 DE 00 00 1D 04 00 00 0D 00 00 00
2026-07-26T21:29:56.538940,46.441,can0  040  [04]  BD 00 2A 00
2026-07-26T21:29:56.549907,46.452,can0   202  [01]  00 A
2026-07-26T21:29:56.635088,46.537,can0  070  [20]  D2 28 4D 08 DC AE 62 03 A8 DE 00 00 1D 04 00 00 0D 00 00 00
2026-07-26T21:29:56.635236,46.537,can0  202  [01]  0A
2026-07-26T21:29:56.635584,46.537,can0  040  [04]  BD 00 2A 00
2026-07-26T21:29:56.639878,46.542,can0  070  [20]  D2 28 4D 08 DC AE 62 03 A8 DE 00 00 1D 04 00 00 0D 00 00 00
2026-07-26T21:29:56.738654,46.641,can0  041  [04]  B5 00 08 00
2026-07-26T21:29:56.801639,46.704,can0   202  [01]  00 A
2026-07-26T21:29:56.835307,46.737,can0  060  [32]  00 00 00 00 00 00 00 00 00 00 00 00 00 00 00 00 00 00 00 00 00 00 00 00 00 00 00 00 00 00 00 00
2026-07-26T21:29:56.835381,46.737,can0  110  [02]  12 1B
2026-07-26T21:29:56.835603,46.737,can0  040  [04]  B5 00 2B 00
2026-07-26T21:29:56.835835,46.738,can0  202  [01]  0A
2026-07-26T21:29:56.934598,46.836,can0  040  [04]  B5 00 2B 00
2026-07-26T21:29:56.938134,46.840,can0  041  [04]  AD 00 06 00
2026-07-26T21:29:57.236430,47.138,can0  040  [04]  B3 00 2B 00
2026-07-26T21:29:57.236498,47.138,can0  070  [20]  D2 28 4D 08 DC AE 62 03 A8 DE 00 00 1D 04 00 00 0D 00 00 00
2026-07-26T21:29:57.236542,47.138,can0  040  [04]  B3 00 2B 00
2026-07-26T21:29:57.236631,47.139,can0  100  [03]  9E 6B 04
2026-07-26T21:29:57.236677,47.139,can0  120  [04]  16 4E 00 00
2026-07-26T21:29:57.236921,47.139,can0  070  [20]  D2 28 4D 08 DC AE 62 03 A8 DE 00 00 1D 04 00 00 0D 00 00 00
2026-07-26T21:29:57.237205,47.139,can0  041  [04]  A4 00 08 00
2026-07-26T21:29:57.338590,47.240,can0  060  [32]  00 00 00 00 D2 28 4D 08 31 04 B8 10 00 00 10 0E FF 01 00 00 00 00 00 00 01 00 00 00 00 00 00 00
2026-07-26T21:29:57.338690,47.241,can0  040  [04]  B1 00 2D 00
2026-07-26T21:29:57.434694,47.337,can0  040  [04]  B1 00 2D 00
2026-07-26T21:29:57.535153,47.437,can0  041  [04]  B5 00 06 00
2026-07-26T21:29:57.535400,47.437,can0  070  [20]  D2 28 4D 08 DC AE 62 03 90 E2 00 00 1D 04 00 00 06 00 00 00
2026-07-26T21:29:57.535641,47.438,can0  070  [20]  D2 28 4D 08 DC AE 62 03 90 E2 00 00 1D 04 00 00 06 00 00 00
2026-07-26T21:29:57.634862,47.537,can0  070  [20]  D2 28 4D 08 DC AE 62 03 90 E2 00 00 1D 04 00 00 06 00 00 00
2026-07-26T21:29:57.638472,47.540,can0  040  [04]  B5 00 2E 00
2026-07-26T21:29:57.734592,47.636,can0  040  [04]  B5 00 2E 00
2026-07-26T21:29:57.734851,47.637,can0  041  [04]  B5 00 09 00
2026-07-26T21:29:58.034776,47.937,can0  040  [04]  B8 00 31 00
2026-07-26T21:29:58.035024,47.937,can0  040  [04]  B8 00 31 00
2026-07-26T21:29:58.035262,47.937,can0  041  [04]  B5 00 0B 00
2026-07-26T21:29:58.134483,48.036,can0  070  [20]  D2 28 4D 08 DC AE 62 03 90 E2 00 00 1D 04 00 00 06 00 00 00
2026-07-26T21:29:58.138067,48.040,can0  040  [04]  B9 00 36 00
2026-07-26T21:29:58.234626,48.137,can0  040  [04]  B9 00 36 00
2026-07-26T21:29:58.240877,48.143,can0  070  [20]  D2 28 4D 08 DC AE 62 03 90 E2 00 00 1D 04 00 00 06 00 00 00
2026-07-26T21:29:58.334376,48.236,can0  060  [32]  48 BE 07 05 34 86 4D 08 08 88 62 03 02 00 DB 00 87 00 80 00 00 00 00 00 02 00 00 00 00 00 00 00
2026-07-26T21:29:58.334573,48.236,can0  060  [32]  00 00 00 00 D2 28 4D 08 31 04 B8 10 00 00 10 0E FF 01 00 00 00 00 00 01 02 00 00 00 00 00 00 00
2026-07-26T21:29:58.336945,48.239,can0  041  [04]  AF 00 0C 00
2026-07-26T21:29:58.534183,48.436,can0  100  [03]  9D 6B 04
2026-07-26T21:29:58.534668,48.437,can0  110  [02]  13 1B
2026-07-26T21:29:58.534753,48.437,can0  120  [04]  2A 4E 00 00
2026-07-26T21:29:58.534836,48.437,can0  040  [04]  B8 00 39 00
2026-07-26T21:29:58.534919,48.437,can0  040  [04]  B8 00 39 00
2026-07-26T21:29:58.535437,48.437,can0  070  [20]  D2 28 4D 08 DC AE 62 03 78 E6 00 00 1D 04 00 00 1A 00 00 00
2026-07-26T21:29:58.535693,48.438,can0  070  [20]  D2 28 4D 08 DC AE 62 03 78 E6 00 00 1D 04 00 00 1B 00 00 00
2026-07-26T21:29:58.538940,48.441,can0  041  [04]  A5 00 0C 00
2026-07-26T21:29:58.635002,48.537,can0  070  [20]  D2 28 4D 08 DC AE 62 03 78 E6 00 00 1D 04 00 00 1B 00 00 00
2026-07-26T21:29:58.734153,48.636,can0  040  [04]  B9 00 38 00
2026-07-26T21:29:58.734407,48.636,can0  040  [04]  B9 00 38 00
2026-07-26T21:29:58.834660,48.737,can0  060  [32]  00 00 00 00 00 00 00 00 00 00 00 00 00 00 00 00 00 00 00 00 00 00 00 00 00 00 00 00 00 00 00 00
2026-07-26T21:29:58.838811,48.741,can0  041  [04]  9F 00 10 00
2026-07-26T21:29:59.034541,48.936,can0  040  [04]  BB 00 3A 00
2026-07-26T21:29:59.037970,48.940,can0  040  [04]  BB 00 3A 00
2026-07-26T21:29:59.137109,49.039,can0  041  [04]  9C 00 16 00
2026-07-26T21:29:59.137181,49.039,can0  070  [20]  D2 28 4D 08 DC AE 62 03 78 E6 00 00 1D 04 00 00 1B 00 00 00
2026-07-26T21:29:59.234729,49.137,can0  070  [20]  D2 28 4D 08 DC AE 62 03 78 E6 00 00 1D 04 00 00 1B 00 00 00
2026-07-26T21:29:59.238503,49.140,can0  040  [04]  BA 00 35 00
2026-07-26T21:29:59.334945,49.237,can0  040  [04]  BA 00 35 00
2026-07-26T21:29:59.335013,49.237,can0  060  [32]  00 00 00 00 D2 28 4D 08 31 04 B8 10 00 00 10 0E FF 01 00 00 00 00 00 00 01 00 00 00 00 00 00 00
2026-07-26T21:29:59.338433,49.240,can0  041  [04]  95 00 16 00
2026-07-26T21:29:59.534816,49.437,can0  040  [04]  B6 00 30 00
2026-07-26T21:29:59.535481,49.437,can0  070  [20]  D2 28 4D 08 DB AE 62 03 00 00 00 00 1E 04 00 00 3B 00 00 00
2026-07-26T21:29:59.539105,49.441,can0  070  [20]  D2 28 4D 08 DB AE 62 03 00 00 00 00 1E 04 00 00 3B 00 00 00
2026-07-26T21:29:59.539168,49.441,can0  040  [04]  B6 00 30 00
2026-07-26T21:29:59.551284,49.453,can0   202  [01]  00 A
2026-07-26T21:29:59.634025,49.536,can0  202  [01]  0A
2026-07-26T21:29:59.634247,49.536,can0  100  [03]  9D 6B 04
2026-07-26T21:29:59.634514,49.536,can0  120  [04]  0C 4E 00 00
2026-07-26T21:29:59.634775,49.537,can0  041  [04]  9C 00 18 00
2026-07-26T21:29:59.639885,49.542,can0  070  [20]  D2 28 4D 08 DB AE 62 03 00 00 00 00 1E 04 00 00 3B 00 00 00
2026-07-26T21:29:59.734732,49.637,can0  040  [04]  B3 00 2C 00
2026-07-26T21:29:59.756586,49.658,can0   202  [01]  00 A
2026-07-26T21:29:59.834589,49.736,can0  060  [32]  00 00 00 00 00 00 00 00 00 00 00 00 00 00 00 00 00 00 00 00 00 00 00 00 00 00 00 00 00 00 00 00
2026-07-26T21:29:59.835022,49.737,can0  040  [04]  B3 00 2C 00
2026-07-26T21:29:59.835106,49.737,can0  202  [01]  0A
2026-07-26T21:29:59.937525,49.839,can0  041  [04]  A0 00 1C 00
2026-07-26T21:30:00.034609,49.937,can0  110  [02]  13 1B
2026-07-26T21:30:00.037847,49.940,can0  040  [04]  B3 00 2C 00
2026-07-26T21:30:00.134959,50.037,can0  040  [04]  B3 00 2C 00
2026-07-26T21:30:00.135333,50.037,can0  070  [20]  D2 28 4D 08 DB AE 62 03 00 00 00 00 1E 04 00 00 3B 00 00 00
2026-07-26T21:30:00.135382,50.037,can0  041  [04]  9E 00 1C 00
2026-07-26T21:30:00.238729,50.141,can0  070  [20]  D2 28 4D 08 DB AE 62 03 00 00 00 00 1E 04 00 00 3B 00 00 00
2026-07-26T21:30:00.334534,50.236,can0  060  [32]  00 00 00 00 00 00 00 00 00 00 00 00 00 00 00 00 00 00 00 00 00 00 00 00 00 00 00 00 00 00 00 00
2026-07-26T21:30:00.334771,50.237,can0  040  [04]  B3 00 2B 00
2026-07-26T21:30:00.334946,50.237,can0  060  [32]  00 00 00 00 D2 28 4D 08 2F 04 B8 10 00 00 10 0E FF 01 00 00 00 00 00 00 01 00 00 00 00 00 00 00
2026-07-26T21:30:00.335421,50.237,can0  040  [04]  B3 00 2B 00
2026-07-26T21:30:00.434416,50.336,can0  041  [04]  A0 00 18 00
2026-07-26T21:30:00.534407,50.436,can0  070  [20]  D2 28 4D 08 DB AE 62 03 E8 03 00 00 1E 04 00 00 1C 00 00 00
2026-07-26T21:30:00.538022,50.440,can0  070  [20]  D2 28 4D 08 DB AE 62 03 E8 03 00 00 1E 04 00 00 1C 00 00 00
2026-07-26T21:30:00.538103,50.440,can0  040  [04]  B1 00 2A 00
2026-07-26T21:30:00.634689,50.537,can0  040  [04]  B1 00 2A 00
2026-07-26T21:30:00.635291,50.537,can0  070  [20]  D2 28 4D 08 DB AE 62 03 E8 03 00 00 1E 04 00 00 1C 00 00 00
2026-07-26T21:30:00.735044,50.637,can0  041  [04]  A0 00 1C 00
2026-07-26T21:30:00.834519,50.736,can0  100  [03]  9C 6B 04
2026-07-26T21:30:00.834737,50.737,can0  120  [04]  34 4E 00 00
2026-07-26T21:30:00.835248,50.737,can0  060  [32]  00 00 00 00 00 00 00 00 00 00 00 00 00 00 00 00 00 00 00 00 00 00 00 00 00 00 00 00 00 00 00 00
2026-07-26T21:30:00.835352,50.737,can0  040  [04]  AC 00 27 00
2026-07-26T21:30:00.835426,50.737,can0  040  [04]  AC 00 27 00
2026-07-26T21:30:00.940356,50.842,can0  041  [04]  A5 00 1B 00
2026-07-26T21:30:01.234400,51.136,can0  040  [04]  AC 00 29 00
2026-07-26T21:30:01.234748,51.137,can0  070  [20]  D2 28 4D 08 DB AE 62 03 E8 03 00 00 1E 04 00 00 1C 00 00 00
2026-07-26T21:30:01.234914,51.137,can0  040  [04]  AC 00 29 00
2026-07-26T21:30:01.235260,51.137,can0  041  [04]  A6 00 18 00
2026-07-26T21:30:01.235515,51.137,can0  070  [20]  D2 28 4D 08 DB AE 62 03 E8 03 00 00 1E 04 00 00 1C 00 00 00
2026-07-26T21:30:01.334985,51.237,can0  060  [32]  00 00 00 00 D2 28 4D 08 2F 04 B8 10 00 00 10 0E FF 01 00 00 00 00 00 00 01 00 00 00 00 00 00 00
2026-07-26T21:30:01.335539,51.237,can0  040  [04]  AD 00 2C 00
2026-07-26T21:30:01.434597,51.336,can0  040  [04]  AD 00 2C 00
2026-07-26T21:30:01.534269,51.436,can0  041  [04]  A7 00 15 00
2026-07-26T21:30:01.534585,51.436,can0  070  [20]  D2 28 4D 08 DB AE 62 03 D0 07 00 00 1E 04 00 00 1F 00 00 00
2026-07-26T21:30:01.534820,51.437,can0  070  [20]  D2 28 4D 08 DB AE 62 03 D0 07 00 00 1E 04 00 00 1F 00 00 00
2026-07-26T21:30:01.635514,51.537,can0  110  [02]  11 1B
2026-07-26T21:30:01.635624,51.538,can0  040  [04]  B0 00 2C 00
2026-07-26T21:30:01.635711,51.538,can0  070  [20]  D2 28 4D 08 DB AE 62 03 D0 07 00 00 1E 04 00 00 1F 00 00 00
2026-07-26T21:30:01.734617,51.637,can0  040  [04]  B0 00 2C 00
2026-07-26T21:30:01.734712,51.637,can0  041  [04]  AC 00 13 00
2026-07-26T21:30:01.834387,51.736,can0  060  [32]  00 00 00 00 00 00 00 00 00 00 00 00 00 00 00 00 00 00 00 00 00 00 00 00 00 00 00 00 00 00 00 00
2026-07-26T21:30:01.934552,51.836,can0  040  [04]  B3 00 2E 00
2026-07-26T21:30:01.938017,51.840,can0  040  [04]  B3 00 2E 00
2026-07-26T21:30:02.034877,51.937,can0  100  [03]  9D 6B 04
2026-07-26T21:30:02.035133,51.937,can0  120  [04]  02 4E 00 00
2026-07-26T21:30:02.038515,51.940,can0  041  [04]  B2 00 12 00
2026-07-26T21:30:02.238488,52.140,can0  070  [20]  D2 28 4D 08 DB AE 62 03 D0 07 00 00 1E 04 00 00 1F 00 00 00
2026-07-26T21:30:02.238571,52.140,can0  040  [04]  B1 00 2E 00
2026-07-26T21:30:02.238619,52.141,can0  040  [04]  B1 00 2E 00
2026-07-26T21:30:02.238663,52.141,can0  070  [20]  D2 28 4D 08 DB AE 62 03 D0 07 00 00 1E 04 00 00 1F 00 00 00
2026-07-26T21:30:02.334527,52.236,can0  041  [04]  AF 00 13 00
2026-07-26T21:30:02.334876,52.237,can0  060  [32]  00 00 00 00 00 00 00 00 00 00 00 00 00 00 00 00 00 00 00 00 00 00 00 00 00 00 00 00 00 00 00 00
2026-07-26T21:30:02.334934,52.237,can0  060  [32]  00 00 00 00 D2 28 4D 08 2F 04 B8 10 00 00 10 0E FF 01 00 00 00 00 00 00 01 00 00 00 00 00 00 00
2026-07-26T21:30:02.434290,52.336,can0  040  [04]  B0 00 2F 00
2026-07-26T21:30:02.434570,52.336,can0  040  [04]  B0 00 2F 00
2026-07-26T21:30:02.535176,52.437,can0  070  [20]  D2 28 4D 08 DB AE 62 03 B8 0B 00 00 1E 04 00 00 29 00 00 00
2026-07-26T21:30:02.535244,52.437,can0  041  [04]  B2 00 12 00
2026-07-26T21:30:02.535287,52.437,can0  070  [20]  D2 28 4D 08 DB AE 62 03 B8 0B 00 00 1E 04 00 00 29 00 00 00
2026-07-26T21:30:02.538799,52.441,can0  133  [00]
2026-07-26T21:30:02.638413,52.540,can0  070  [20]  D2 28 4D 08 DB AE 62 03 B8 0B 00 00 1E 04 00 00 29 00 00 00
2026-07-26T21:30:02.734743,52.637,can0  040  [04]  AD 00 2F 00
2026-07-26T21:30:02.734822,52.637,can0  040  [04]  AD 00 2F 00
2026-07-26T21:30:02.834291,52.736,can0  041  [04]  B2 00 10 00
2026-07-26T21:30:02.834590,52.736,can0  060  [32]  00 00 00 00 00 00 00 00 00 00 00 00 00 00 00 00 00 00 00 00 00 00 00 00 00 00 00 00 00 00 00 00
2026-07-26T21:30:02.934776,52.837,can0  040  [04]  B3 00 35 00
2026-07-26T21:30:03.033964,52.936,can0  040  [04]  B3 00 35 00
2026-07-26T21:30:03.137700,53.040,can0  041  [04]  AE 00 10 00
2026-07-26T21:30:03.137776,53.040,can0  070  [20]  D2 28 4D 08 DB AE 62 03 B8 0B 00 00 1E 04 00 00 29 00 00 00
2026-07-26T21:30:03.234649,53.137,can0  100  [03]  9C 6B 04
2026-07-26T21:30:03.234923,53.137,can0  040  [04]  B5 00 33 00
2026-07-26T21:30:03.235166,53.137,can0  110  [02]  11 1B
2026-07-26T21:30:03.235425,53.137,can0  120  [04]  02 4E 00 00
2026-07-26T21:30:03.235693,53.138,can0  070  [20]  D2 28 4D 08 DB AE 62 03 B8 0B 00 00 1E 04 00 00 29 00 00 00
2026-07-26T21:30:03.235903,53.138,can0  040  [04]  B5 00 33 00
2026-07-26T21:30:03.334670,53.237,can0  060  [32]  00 00 00 00 D2 28 4D 08 2F 04 B8 10 00 00 10 0E FF 01 00 00 00 00 00 00 01 00 00 00 00 00 00 00
2026-07-26T21:30:03.335323,53.237,can0  041  [04]  A9 00 0F 00
2026-07-26T21:30:03.534484,53.436,can0  040  [04]  B7 00 33 00
2026-07-26T21:30:03.534784,53.437,can0  070  [20]  D0 28 4D 08 DC AE 62 03 A0 0F 00 00 1E 04 00 00 2B 00 00 00
2026-07-26T21:30:03.535042,53.437,can0  070  [20]  D0 28 4D 08 DC AE 62 03 A0 0F 00 00 1E 04 00 00 2B 00 00 00
2026-07-26T21:30:03.535276,53.437,can0  040  [04]  B7 00 33 00
2026-07-26T21:30:03.634358,53.536,can0  041  [04]  A8 00 12 00
2026-07-26T21:30:03.638006,53.540,can0  070  [20]  D0 28 4D 08 DC AE 62 03 A0 0F 00 00 1E 04 00 00 2B 00 00 00
2026-07-26T21:30:03.834673,53.737,can0  040  [04]  B9 00 36 00
2026-07-26T21:30:03.834905,53.737,can0  040  [04]  B9 00 36 00
2026-07-26T21:30:03.835177,53.737,can0  060  [32]  00 00 00 00 00 00 00 00 00 00 00 00 00 00 00 00 00 00 00 00 00 00 00 00 00 00 00 00 00 00 00 00
2026-07-26T21:30:03.934505,53.836,can0  041  [04]  A2 00 14 00
2026-07-26T21:30:04.034966,53.937,can0  040  [04]  BA 00 36 00
2026-07-26T21:30:04.035195,53.937,can0  040  [04]  BA 00 36 00
2026-07-26T21:30:04.135008,54.037,can0  070  [20]  D0 28 4D 08 DC AE 62 03 A0 0F 00 00 1E 04 00 00 2B 00 00 00
2026-07-26T21:30:04.135245,54.037,can0  041  [04]  A2 00 14 00
2026-07-26T21:30:04.234613,54.137,can0  070  [20]  D0 28 4D 08 DC AE 62 03 A0 0F 00 00 1E 04 00 00 2B 00 00 00
2026-07-26T21:30:04.234789,54.137,can0  132  [00]
2026-07-26T21:30:04.235022,54.137,can0  040  [04]  B9 00 36 00
2026-07-26T21:30:04.335092,54.237,can0  060  [32]  00 00 00 00 00 00 00 00 00 00 00 00 00 00 00 00 00 00 00 00 00 00 00 00 00 00 00 00 00 00 00 00
2026-07-26T21:30:04.335171,54.237,can0  040  [04]  B9 00 36 00
2026-07-26T21:30:04.335216,54.237,can0  060  [32]  00 00 00 00 D0 28 4D 08 31 04 B8 10 00 00 10 0E FF 01 00 00 00 00 00 00 01 00 00 00 00 00 00 00
2026-07-26T21:30:04.434420,54.336,can0  100  [03]  9B 6B 04
2026-07-26T21:30:04.434658,54.337,can0  120  [04]  02 4E 00 00
2026-07-26T21:30:04.434905,54.337,can0  041  [04]  92 00 0E 00
2026-07-26T21:30:04.534602,54.436,can0  070  [20]  D0 28 4D 08 DC AE 62 03 88 13 00 00 1E 04 00 00 14 00 00 00
2026-07-26T21:30:04.534827,54.437,can0  040  [04]  BA 00 33 00
2026-07-26T21:30:04.535063,54.437,can0  070  [20]  D0 28 4D 08 DC AE 62 03 88 13 00 00 1E 04 00 00 14 00 00 00
2026-07-26T21:30:04.634004,54.536,can0  040  [04]  BA 00 33 00
2026-07-26T21:30:04.634265,54.536,can0  070  [20]  D0 28 4D 08 DC AE 62 03 88 13 00 00 1E 04 00 00 14 00 00 00
2026-07-26T21:30:04.734776,54.637,can0  041  [04]  95 00 0B 00
2026-07-26T21:30:04.834846,54.737,can0  110  [02]  11 1B
2026-07-26T21:30:04.835115,54.737,can0  040  [04]  BC 00 30 00
2026-07-26T21:30:04.835550,54.737,can0  060  [32]  00 00 00 00 00 00 00 00 00 00 00 00 00 00 00 00 00 00 00 00 00 00 00 00 00 00 00 00 00 00 00 00
2026-07-26T21:30:04.835639,54.738,can0  040  [04]  BC 00 30 00
2026-07-26T21:30:04.937496,54.839,can0  041  [04]  9F 00 0C 00
2026-07-26T21:30:05.134382,55.036,can0  040  [04]  B9 00 2F 00
2026-07-26T21:30:05.134602,55.036,can0  070  [20]  D0 28 4D 08 DC AE 62 03 88 13 00 00 1E 04 00 00 14 00 00 00
2026-07-26T21:30:05.137613,55.040,can0  040  [04]  B9 00 2F 00
2026-07-26T21:30:05.234813,55.137,can0  041  [04]  A4 00 0E 00
2026-07-26T21:30:05.235356,55.137,can0  070  [20]  D0 28 4D 08 DC AE 62 03 88 13 00 00 1E 04 00 00 14 00 00 00
2026-07-26T21:30:05.334449,55.236,can0  040  [04]  B3 00 2F 00
2026-07-26T21:30:05.334722,55.237,can0  060  [32]  00 00 00 00 D0 28 4D 08 31 04 B8 10 00 00 10 0E FF 01 00 00 00 00 00 00 01 00 00 00 00 00 00 00
2026-07-26T21:30:05.434860,55.337,can0  040  [04]  B3 00 2F 00
2026-07-26T21:30:05.534079,55.436,can0  041  [04]  9D 00 10 00
2026-07-26T21:30:05.534359,55.436,can0  070  [20]  CE 28 4D 08 DC AE 62 03 70 17 00 00 1E 04 00 00 09 00 00 00
2026-07-26T21:30:05.534683,55.437,can0  070  [20]  CE 28 4D 08 DC AE 62 03 70 17 00 00 1E 04 00 00 0A 00 00 00
2026-07-26T21:30:05.634285,55.536,can0  100  [03]  99 6B 04
2026-07-26T21:30:05.634548,55.536,can0  120  [04]  02 4E 00 00
2026-07-26T21:30:05.634778,55.537,can0  040  [04]  B1 00 30 00
2026-07-26T21:30:05.635046,55.537,can0  070  [20]  CE 28 4D 08 DC AE 62 03 70 17 00 00 1E 04 00 00 0A 00 00 00
2026-07-26T21:30:05.635271,55.537,can0  040  [04]  B1 00 30 00
2026-07-26T21:30:05.737654,55.640,can0  041  [04]  A7 00 11 00
2026-07-26T21:30:05.934582,55.836,can0  060  [32]  00 00 00 00 00 00 00 00 00 00 00 00 00 00 00 00 00 00 00 00 00 00 00 00 00 00 00 00 00 00 00 00
2026-07-26T21:30:05.938136,55.840,can0  040  [04]  B0 00 2F 00
2026-07-26T21:30:05.938198,55.840,can0  040  [04]  B0 00 2F 00
2026-07-26T21:30:06.034368,55.936,can0  041  [04]  9F 00 11 00
2026-07-26T21:30:06.234650,56.137,can0  070  [20]  CE 28 4D 08 DC AE 62 03 70 17 00 00 1E 04 00 00 0A 00 00 00
2026-07-26T21:30:06.234895,56.137,can0  040  [04]  B3 00 30 00
2026-07-26T21:30:06.235117,56.137,can0  040  [04]  B3 00 30 00
2026-07-26T21:30:06.235370,56.137,can0  070  [20]  CE 28 4D 08 DC AE 62 03 70 17 00 00 1E 04 00 00 0A 00 00 00
2026-07-26T21:30:06.334140,56.236,can0  041  [04]  A1 00 13 00
2026-07-26T21:30:06.337624,56.240,can0  060  [32]  00 00 00 00 00 00 00 00 00 00 00 00 00 00 00 00 00 00 00 00 00 00 00 00 00 00 00 00 00 00 00 00
2026-07-26T21:30:06.434441,56.336,can0  060  [32]  00 00 00 00 CE 28 4D 08 31 04 B8 10 00 00 10 0E FF 01 00 00 00 00 00 00 01 00 00 00 00 00 00 00
2026-07-26T21:30:06.434955,56.337,can0  110  [02]  11 1B
2026-07-26T21:30:06.435159,56.337,can0  040  [04]  B3 00 30 00
2026-07-26T21:30:06.435394,56.337,can0  040  [04]  B3 00 30 00
2026-07-26T21:30:06.535171,56.437,can0  070  [20]  CE 28 4D 08 DC AE 62 03 58 1B 00 00 1E 04 00 00 16 00 00 00
2026-07-26T21:30:06.539658,56.442,can0  070  [20]  CE 28 4D 08 DC AE 62 03 58 1B 00 00 1E 04 00 00 15 00 00 00
2026-07-26T21:30:06.539941,56.442,can0  041  [04]  A7 00 11 00
2026-07-26T21:30:06.634218,56.536,can0  070  [20]  CE 28 4D 08 DC AE 62 03 58 1B 00 00 1E 04 00 00 15 00 00 00
2026-07-26T21:30:06.734758,56.637,can0  040  [04]  B0 00 2D 00
2026-07-26T21:30:06.734952,56.637,can0  040  [04]  B0 00 2D 00
2026-07-26T21:30:06.834707,56.737,can0  100  [03]  98 6B 04
2026-07-26T21:30:06.834898,56.737,can0  120  [04]  16 4E 00 00
2026-07-26T21:30:06.835232,56.737,can0  041  [04]  AC 00 13 00
2026-07-26T21:30:06.938094,56.840,can0  060  [32]  00 00 00 00 00 00 00 00 00 00 00 00 00 00 00 00 00 00 00 00 00 00 00 00 00 00 00 00 00 00 00 00
2026-07-26T21:30:06.938165,56.840,can0  040  [04]  AE 00 2B 00
2026-07-26T21:30:07.034776,56.937,can0  040  [04]  AE 00 2B 00
2026-07-26T21:30:07.034908,56.937,can0  060  [32]  21 53 11 00 A7 65 4D 08 F7 A7 62 03 01 00 04 08 76 00 80 00 00 00 00 00 01 00 00 00 00 00 00 00
2026-07-26T21:30:07.134794,57.037,can0  041  [04]  A4 00 12 00
2026-07-26T21:30:07.135023,57.037,can0  070  [20]  CE 28 4D 08 DC AE 62 03 58 1B 00 00 1E 04 00 00 15 00 00 00
2026-07-26T21:30:07.234795,57.137,can0  040  [04]  AC 00 29 00
2026-07-26T21:30:07.235019,57.137,can0  070  [20]  CE 28 4D 08 DC AE 62 03 58 1B 00 00 1E 04 00 00 15 00 00 00
2026-07-26T21:30:07.235220,57.137,can0  040  [04]  AC 00 29 00
2026-07-26T21:30:07.337648,57.240,can0  041  [04]  A1 00 13 00
2026-07-26T21:30:07.534063,57.436,can0  040  [04]  AC 00 29 00
2026-07-26T21:30:07.534506,57.436,can0  070  [20]  CD 28 4D 08 DE AE 62 03 40 1F 00 00 1E 04 00 00 11 00 00 00
2026-07-26T21:30:07.534556,57.436,can0  070  [20]  CD 28 4D 08 DE AE 62 03 40 1F 00 00 1E 04 00 00 11 00 00 00
2026-07-26T21:30:07.536783,57.439,can0  040  [04]  AC 00 29 00
2026-07-26T21:30:07.634179,57.536,can0  041  [04]  A2 00 14 00
2026-07-26T21:30:07.634714,57.537,can0  070  [20]  CD 28 4D 08 DE AE 62 03 40 1F 00 00 1E 04 00 00 11 00 00 00
2026-07-26T21:30:07.834143,57.736,can0  040  [04]  B1 00 2D 00
2026-07-26T21:30:07.834502,57.736,can0  040  [04]  B1 00 2D 00
2026-07-26T21:30:07.834622,57.737,can0  041  [04]  A3 00 11 00
2026-07-26T21:30:08.034314,57.936,can0  100  [03]  98 6B 04
2026-07-26T21:30:08.034605,57.936,can0  110  [02]  12 1B
2026-07-26T21:30:08.034759,57.937,can0  120  [04]  2A 4E 00 00
2026-07-26T21:30:08.034935,57.937,can0  040  [04]  B5 00 2E 00
2026-07-26T21:30:08.035079,57.937,can0  040  [04]  B5 00 2E 00
2026-07-26T21:30:08.134707,58.037,can0  070  [20]  CD 28 4D 08 DE AE 62 03 40 1F 00 00 1E 04 00 00 11 00 00 00
2026-07-26T21:30:08.134773,58.037,can0  041  [04]  A1 00 10 00
2026-07-26T21:30:08.234998,58.137,can0  070  [20]  CD 28 4D 08 DE AE 62 03 40 1F 00 00 1E 04 00 00 11 00 00 00
2026-07-26T21:30:08.238780,58.141,can0  040  [04]  B5 00 2E 00
2026-07-26T21:30:08.336810,58.239,can0  040  [04]  B5 00 2E 00
