Timestamp,Elapsed_Time_s,CAN_Message
2026-07-26T17:02:53.467979,2.760,can0  204  [16]  9C 09 B1 FF 0F 95 1A DF 28 23 30 75 30 75 00 00
2026-07-26T17:02:53.470112,2.762,can0  206  [24]  8E 0C C9 06 71 0C 99 C6 CC 06 30 0C 62 0C 00 00 00 00 00 00 00 00 00 00
2026-07-26T17:02:53.470283,2.762,can0  204  [16]  9C 09 B1 FF 0F 95 1A DF 28 23 30 75 30 75 00 00
2026-07-26T17:02:53.550014,2.842,can0  040  [04]  67 01 0B 00
2026-07-26T17:02:53.550188,2.842,can0  204  [16]  9C 09 B1 FF 0F 95 1A DF 28 23 30 75 30 75 00 00
2026-07-26T17:02:53.550301,2.842,can0  040  [04]  67 01 0B 00
2026-07-26T17:02:53.668435,2.960,can0  204  [16]  9C 09 B1 FF 0F 95 1A DF 28 23 30 75 30 75 00 00
2026-07-26T17:02:53.670083,2.962,can0  206  [24]  8E 0C C9 06 71 0C 99 C6 CB 06 26 0C 62 0C 00 00 00 00 00 00 00 00 00 00
2026-07-26T17:02:53.670234,2.962,can0  204  [16]  9C 09 B1 FF 0F 95 1A DF 28 23 30 75 30 75 00 00
2026-07-26T17:02:53.670369,2.962,can0  041  [04]  14 00 29 00
2026-07-26T17:02:53.767586,3.059,can0  204  [16]  9C 09 B1 FF 0F 95 1A DF 28 23 30 75 30 75 00 00
2026-07-26T17:02:53.769339,3.061,can0  206  [24]  93 0C CB 06 6B 0C 99 C6 CC 06 26 0C 62 0C 00 00 00 00 00 00 00 00 00 00
2026-07-26T17:02:53.769508,3.061,can0  204  [16]  9C 09 B1 FF 0F 95 1A DF 28 23 30 75 30 75 00 00
2026-07-26T17:02:53.769629,3.061,can0  040  [04]  0A 00 12 00
2026-07-26T17:02:53.868483,3.160,can0  070  [20]  C9 2C 4D 08 F2 AE 62 03 08 CF 00 00 02 00 00 00 16 00 00 00
2026-07-26T17:02:53.868983,3.161,can0  204  [16]  9C 09 B1 FF 0F 95 1A DF 28 23 30 75 30 75 00 00
2026-07-26T17:02:53.869264,3.161,can0  040  [04]  0A 00 12 00
2026-07-26T17:02:53.967985,3.260,can0  204  [16]  9C 09 B1 FF 0F 95 1A DF 28 23 30 75 30 75 00 00
2026-07-26T17:02:53.968195,3.260,can0  070  [20]  C9 2C 4D 08 F2 AE 62 03 08 CF 00 00 02 00 00 00 16 00 00 00
2026-07-26T17:02:53.969825,3.261,can0  206  [24]  8F 0C CB 06 66 0C 99 C6 CB 06 30 0C 67 0C 00 00 00 00 00 00 00 00 00 00
2026-07-26T17:02:53.970026,3.262,can0  041  [04]  15 00 2A 00
2026-07-26T17:02:53.970237,3.262,can0  204  [16]  9C 09 B1 FF 0F 95 1A DF 28 23 30 75 30 75 00 00
2026-07-26T17:02:54.068136,3.360,can0  100  [03]  AB 71 04
2026-07-26T17:02:54.068268,3.360,can0  120  [04]  34 19 00 00
2026-07-26T17:02:54.068466,3.360,can0  204  [16]  9C 09 B1 FF 0F 95 1A DF 28 23 30 75 30 75 00 00
2026-07-26T17:02:54.068595,3.360,can0  040  [04]  0C 00 1B 00
2026-07-26T17:02:54.068742,3.360,can0  204  [16]  9C 09 B1 FF 0F 95 1A DF 28 23 30 75 30 75 00 00
2026-07-26T17:02:54.170389,3.462,can0  206  [24]  7B 0C C9 06 61 0C 99 C6 CB 06 35 0C 7B 0C 00 00 00 00 00 00 00 00 00 00
2026-07-26T17:02:54.170552,3.462,can0  060  [32]  00 00 00 00 C9 2C 4D 08 47 04 B8 10 00 00 10 0E FF 01 00 00 00 00 00 00 01 00 00 00 00 00 00 00
2026-07-26T17:02:54.170921,3.463,can0  040  [04]  0C 00 1B 00
2026-07-26T17:02:54.172051,3.464,can0  204  [16]  9C 09 B1 FF 0F 95 1A DF 28 23 30 75 30 75 00 00
2026-07-26T17:02:54.172112,3.464,can0  204  [16]  9C 09 B1 FF 0F 95 1A DF 28 23 30 75 30 75 00 00
2026-07-26T17:02:54.267666,3.559,can0  070  [20]  C7 2C 4D 08 F2 AE 62 03 F0 D2 00 00 02 00 00 00 0B 00 00 00
2026-07-26T17:02:54.267784,3.559,can0  041  [04]  19 00 26 00
2026-07-26T17:02:54.267916,3.560,can0  070  [20]  C7 2C 4D 08 F2 AE 62 03 F0 D2 00 00 02 00 00 00 0A 00 00 00
2026-07-26T17:02:54.268073,3.560,can0  204  [16]  9C 09 B1 FF 0F 95 1A DF 28 23 30 75 30 75 00 00
2026-07-26T17:02:54.269770,3.561,can0  206  [24]  7B 0C C5 06 5D 0C 99 C6 CD 06 39 0C 7B 0C 00 00 00 00 00 00 00 00 00 00
2026-07-26T17:02:54.269921,3.562,can0  070  [20]  C7 2C 4D 08 F2 AE 62 03 F0 D2 00 00 02 00 00 00 0A 00 00 00
2026-07-26T17:02:54.368428,3.660,can0  204  [16]  9C 09 B1 FF 0F 95 1A DF 28 23 30 75 30 75 00 00
2026-07-26T17:02:54.368561,3.660,can0  040  [04]  12 00 1F 00
2026-07-26T17:02:54.368700,3.660,can0  204  [16]  9C 09 B1 FF 0F 95 1A DF 28 23 30 75 30 75 00 00
2026-07-26T17:02:54.368804,3.660,can0  040  [04]  12 00 1F 00
2026-07-26T17:02:54.468524,3.760,can0  110  [02]  1C 1B
2026-07-26T17:02:54.468738,3.760,can0  204  [16]  9C 09 B1 FF 0F 95 1A DF 28 23 30 75 30 75 00 00
2026-07-26T17:02:54.470415,3.762,can0  206  [24]  7B 0C C6 06 5D 0C 21 CE CB 06 43 0C 7B 0C 00 00 00 00 00 00 00 00 00 00
2026-07-26T17:02:54.470559,3.762,can0  041  [04]  1D 00 26 00
2026-07-26T17:02:54.470704,3.762,can0  204  [16]  9C 09 B1 FF 0F 95 1A DF 28 23 30 75 30 75 00 00
2026-07-26T17:02:54.568396,3.860,can0  204  [16]  9C 09 B1 FF 0F 95 1A DF 28 23 30 75 30 75 00 00
2026-07-26T17:02:54.568544,3.860,can0  040  [04]  0E 00 22 00
2026-07-26T17:02:54.568654,3.860,can0  130  [00]
2026-07-26T17:02:54.568793,3.860,can0  204  [16]  9C 09 B1 FF 0F 95 1A DF 28 23 30 75 30 75 00 00
2026-07-26T17:02:54.669445,3.961,can0  206  [24]  75 0C C3 06 66 0C 21 CE C9 06 3F 0C 7B 0C 00 00 00 00 00 00 00 00 00 00
2026-07-26T17:02:54.669610,3.961,can0  060  [32]  00 00 00 00 00 00 00 00 00 00 00 00 00 00 00 00 00 00 00 00 00 00 00 00 00 00 00 00 00 00 00 00
2026-07-26T17:02:54.669741,3.961,can0  040  [04]  0E 00 22 00
2026-07-26T17:02:54.669892,3.961,can0  204  [16]  9C 09 B1 FF 0F 95 1A DF 28 23 30 75 30 75 00 00
2026-07-26T17:02:54.768479,4.060,can0  204  [16]  9C 09 B1 FF 0F 95 1A DF 28 23 30 75 30 75 00 00
2026-07-26T17:02:54.768715,4.060,can0  041  [04]  19 00 26 00
2026-07-26T17:02:54.771422,4.063,can0  206  [24]  7F 0C C4 06 66 0C 21 CE CB 06 3A 0C 76 0C 00 00 00 00 00 00 00 00 00 00
2026-07-26T17:02:54.771702,4.063,can0  204  [16]  9C 09 B1 FF 0F 95 1A DF 28 23 30 75 30 75 00 00
2026-07-26T17:02:54.771934,4.064,can0  070  [20]  C7 2C 4D 08 F2 AE 62 03 F0 D2 00 00 02 00 00 00 0A 00 00 00
2026-07-26T17:02:54.868547,4.160,can0  204  [16]  9C 09 B1 FF 0F 95 1A DF 28 23 30 75 30 75 00 00
2026-07-26T17:02:54.872322,4.164,can0  040  [04]  06 00 28 00
2026-07-26T17:02:54.872367,4.164,can0  204  [16]  9C 09 B1 FF 0F 95 1A DF 28 23 30 75 30 75 00 00
2026-07-26T17:02:54.968327,4.260,can0  070  [20]  C7 2C 4D 08 F2 AE 62 03 F0 D2 00 00 02 00 00 00 0A 00 00 00
2026-07-26T17:02:54.968460,4.260,can0  040  [04]  06 00 28 00
2026-07-26T17:02:54.970219,4.262,can0  206  [24]  7B 0C C5 06 71 0C 21 CE CF 06 30 0C 7B 0C 00 00 00 00 00 00 00 00 00 00
2026-07-26T17:02:54.970393,4.262,can0  204  [16]  9C 09 B1 FF 0F 95 1A DF 28 23 30 75 30 75 00 00
2026-07-26T17:02:55.068469,4.360,can0  041  [04]  16 00 28 00
2026-07-26T17:02:55.068672,4.360,can0  204  [16]  9C 09 B1 FF 0F 95 1A DF 28 23 30 75 30 75 00 00
2026-07-26T17:02:55.068803,4.360,can0  204  [16]  9C 09 B1 FF 0F 95 1A DF 28 23 30 75 30 75 00 00
2026-07-26T17:02:55.070431,4.362,can0  206  [24]  7B 0C C4 06 71 0C 21 CE CE 06 35 0C 7B 0C 00 00 00 00 00 00 00 00 00 00
2026-07-26T17:02:55.167742,4.459,can0  060  [32]  00 00 00 00 00 00 00 00 00 00 00 00 00 00 00 00 00 00 00 00 00 00 00 00 00 00 00 00 00 00 00 00
2026-07-26T17:02:55.167891,4.459,can0  131  [00]
2026-07-26T17:02:55.168052,4.460,can0  204  [16]  9C 09 B1 FF 0F 95 1A DF 28 23 30 75 30 75 00 00
2026-07-26T17:02:55.168167,4.460,can0  060  [32]  00 00 00 00 C7 2C 4D 08 47 04 B8 10 00 00 10 0E FF 01 00 00 00 00 00 00 01 00 00 00 00 00 00 00
2026-07-26T17:02:55.168497,4.460,can0  040  [04]  06 00 2F 00
2026-07-26T17:02:55.168624,4.460,can0  070  [20]  C7 2C 4D 08 F0 AE 62 03 D8 D6 00 00 02 00 00 00 3F 00 00 00
2026-07-26T17:02:55.168744,4.460,can0  040  [04]  06 00 2F 00
2026-07-26T17:02:55.168902,4.461,can0  204  [16]  9C 09 B1 FF 0F 95 1A DF 28 23 30 75 30 75 00 00
2026-07-26T17:02:55.267556,4.559,can0  100  [03]  B3 71 04
2026-07-26T17:02:55.267668,4.559,can0  120  [04]  36 19 00 00
2026-07-26T17:02:55.267801,4.559,can0  070  [20]  C7 2C 4D 08 F0 AE 62 03 D8 D6 00 00 02 00 00 00 3F 00 00 00
2026-07-26T17:02:55.267952,4.560,can0  204  [16]  9C 09 B1 FF 0F 95 1A DF 28 23 30 75 30 75 00 00
2026-07-26T17:02:55.269636,4.561,can0  206  [24]  7B 0C C4 06 71 0C 99 C6 CE 06 35 0C 7B 0C 00 00 00 00 00 00 00 00 00 00
2026-07-26T17:02:55.269781,4.561,can0  041  [04]  19 00 2D 00
2026-07-26T17:02:55.367927,4.660,can0  204  [16]  9C 09 B1 FF 0F 95 1A DF 28 23 30 75 30 75 00 00
2026-07-26T17:02:55.368262,4.660,can0  070  [20]  C7 2C 4D 08 F0 AE 62 03 D8 D6 00 00 02 00 00 00 3F 00 00 00
2026-07-26T17:02:55.368475,4.660,can0  204  [16]  9C 09 B1 FF 0F 95 1A DF 28 23 30 75 30 75 00 00
2026-07-26T17:02:55.368700,4.660,can0  133  [00]
2026-07-26T17:02:55.368820,4.660,can0  040  [04]  01 00 31 00
2026-07-26T17:02:55.468403,4.760,can0  204  [16]  9C 09 B1 FF 0F 95 1A DF 28 23 30 75 30 75 00 00
2026-07-26T17:02:55.470100,4.762,can0  206  [24]  7B 0C C6 06 6B 0C 99 C6 D1 06 3F 0C 7B 0C 00 00 00 00 00 00 00 00 00 00
2026-07-26T17:02:55.470301,4.762,can0  040  [04]  01 00 31 00
2026-07-26T17:02:55.470495,4.762,can0  204  [16]  9C 09 B1 FF 0F 95 1A DF 28 23 30 75 30 75 00 00
2026-07-26T17:02:55.567900,4.860,can0  204  [16]  9C 09 B1 FF 0F 95 1A DF 28 23 30 75 30 75 00 00
2026-07-26T17:02:55.568123,4.860,can0  041  [04]  1A 00 2B 00
2026-07-26T17:02:55.568365,4.860,can0  204  [16]  9C 09 B1 FF 0F 95 1A DF 28 23 30 75 30 75 00 00
2026-07-26T17:02:55.570178,4.862,can0  206  [24]  7F 0C C7 06 6B 0C 99 C6 CE 06 3F 0C 76 0C 00 00 00 00 00 00 00 00 00 00
2026-07-26T17:02:55.667932,4.960,can0  060  [32]  00 00 00 00 00 00 00 00 00 00 00 00 00 00 00 00 00 00 00 00 00 00 00 00 00 00 00 00 00 00 00 00
2026-07-26T17:02:55.668205,4.960,can0  204  [16]  9C 09 B1 FF 0F 95 1A DF 28 23 30 75 30 75 00 00
2026-07-26T17:02:55.668433,4.960,can0  040  [04]  08 00 24 00
2026-07-26T17:02:55.767944,5.060,can0  040  [04]  08 00 24 00
2026-07-26T17:02:55.768167,5.060,can0  204  [16]  9C 09 B1 FF 0F 95 1A DF 28 23 30 75 30 75 00 00
2026-07-26T17:02:55.768581,5.060,can0  206  [24]  7A 0C C9 06 6B 0C 99 C6 C9 06 44 0C 76 0C 00 00 00 00 00 00 00 00 00 00
2026-07-26T17:02:55.770711,5.062,can0  204  [16]  9C 09 B1 FF 0F 95 1A DF 28 23 30 75 30 75 00 00
2026-07-26T17:02:55.868326,5.160,can0  041  [04]  1A 00 28 00
2026-07-26T17:02:55.868577,5.160,can0  070  [20]  C7 2C 4D 08 F0 AE 62 03 D8 D6 00 00 02 00 00 00 3F 00 00 00
2026-07-26T17:02:55.868776,5.160,can0  204  [16]  9C 09 B1 FF 0F 95 1A DF 28 23 30 75 30 75 00 00
2026-07-26T17:02:55.868971,5.161,can0  204  [16]  9C 09 B1 FF 0F 95 1A DF 28 23 30 75 30 75 00 00
2026-07-26T17:02:55.967815,5.259,can0  070  [20]  C7 2C 4D 08 F0 AE 62 03 D8 D6 00 00 02 00 00 00 3F 00 00 00
2026-07-26T17:02:55.970620,5.262,can0  040  [04]  0E 00 24 00
2026-07-26T17:02:55.970675,5.262,can0  206  [24]  7A 0C C8 06 66 0C 99 C6 CC 06 3F 0C 76 0C 00 00 00 00 00 00 00 00 00 00
2026-07-26T17:02:55.970868,5.262,can0  204  [16]  9C 09 B1 FF 0F 95 1A DF 28 23 30 75 30 75 00 00
2026-07-26T17:02:55.971025,5.263,can0  040  [04]  0E 00 24 00
2026-07-26T17:02:56.067780,5.359,can0  204  [16]  9C 09 B1 FF 0F 95 1A DF 28 23 30 75 30 75 00 00
2026-07-26T17:02:56.067986,5.360,can0  110  [02]  1C 1B
2026-07-26T17:02:56.068678,5.360,can0  204  [16]  9C 09 B1 FF 0F 95 1A DF 28 23 30 75 30 75 00 00
2026-07-26T17:02:56.068942,5.361,can0  041  [04]  1D 00 23 00
2026-07-26T17:02:56.070606,5.362,can0  206  [24]  7A 0C C8 06 66 0C 99 C6 CC 06 3F 0C 76 0C 00 00 00 00 00 00 00 00 00 00
2026-07-26T17:02:56.167703,5.459,can0  204  [16]  9C 09 B1 FF 0F 95 1A DF 28 23 30 75 30 75 00 00
2026-07-26T17:02:56.167856,5.459,can0  060  [32]  00 00 00 00 C7 2C 4D 08 45 04 B8 10 00 00 10 0E FF 01 00 00 00 00 00 00 01 00 00 00 00 00 00 00
2026-07-26T17:02:56.168340,5.460,can0  040  [04]  0B 00 23 00
2026-07-26T17:02:56.168844,5.460,can0  204  [16]  9C 09 B1 FF 0F 95 1A DF 28 23 30 75 30 75 00 00
2026-07-26T17:02:56.169359,5.461,can0  070  [20]  C7 2C 4D 08 F0 AE 62 03 C0 DA 00 00 02 00 00 00 21 00 00 00
2026-07-26T17:02:56.267875,5.559,can0  070  [20]  C7 2C 4D 08 F0 AE 62 03 C0 DA 00 00 02 00 00 00 21 00 00 00
2026-07-26T17:02:56.268151,5.560,can0  204  [16]  9C 09 B1 FF 0F 95 1A DF 28 23 30 75 30 75 00 00
2026-07-26T17:02:56.268982,5.561,can0  040  [04]  0B 00 23 00
2026-07-26T17:02:56.270644,5.562,can0  206  [24]  7A 0C C8 06 6B 0C 99 C6 CB 06 3A 0C 76 0C 00 00 00 00 00 00 00 00 00 00
2026-07-26T17:02:56.270867,5.562,can0  204  [16]  9C 09 B1 FF 0F 95 1A DF 28 23 30 75 30 75 00 00
2026-07-26T17:02:56.271143,5.563,can0  070  [20]  C7 2C 4D 08 F0 AE 62 03 C0 DA 00 00 02 00 00 00 21 00 00 00
2026-07-26T17:02:56.368019,5.660,can0  041  [04]  1E 00 20 00
2026-07-26T17:02:56.368279,5.660,can0  204  [16]  9C 09 B1 FF 0F 95 1A DF 28 23 30 75 30 75 00 00
2026-07-26T17:02:56.468050,5.760,can0  100  [03]  B9 71 04
2026-07-26T17:02:56.468758,5.760,can0  120  [04]  2E 19 00 00
2026-07-26T17:02:56.468837,5.760,can0  204  [16]  9C 09 B1 FF 0F 95 1A DF 28 23 30 75 30 75 00 00
2026-07-26T17:02:56.473290,5.765,can0  206  [24]  7A 0C C7 06 6B 0C 99 C6 CF 06 3A 0C 76 0C 00 00 00 00 00 00 00 00 00 00
2026-07-26T17:02:56.473608,5.765,can0  040  [04]  01 00 25 00
2026-07-26T17:02:56.474069,5.766,can0  204  [16]  9C 09 B1 FF 0F 95 1A DF 28 23 30 75 30 75 00 00
2026-07-26T17:02:56.582709,5.874,can0  040  [04]  01 00 25 00
2026-07-26T17:02:56.582918,5.875,can0  204  [16]  9C 09 B1 FF 0F 95 1A DF 28 23 30 75 30 75 00 00
2026-07-26T17:02:56.584629,5.876,can0  204  [16]  9C 09 B1 FF 0F 95 1A DF 28 23 30 75 30 75 00 00
2026-07-26T17:02:56.584660,5.876,can0  206  [24]  7A 0C BF 06 6B 0C 99 C6 D1 06 3A 0C 76 0C 00 00 00 00 00 00 00 00 00 00
2026-07-26T17:02:56.667851,5.959,can0  041  [04]  18 00 1F 00
2026-07-26T17:02:56.668096,5.960,can0  060  [32]  00 00 00 00 00 00 00 00 00 00 00 00 00 00 00 00 00 00 00 00 00 00 00 00 00 00 00 00 00 00 00 00
2026-07-26T17:02:56.668368,5.960,can0  204  [16]  9C 09 B1 FF 0F 95 1A DF 28 23 30 75 30 75 00 00
2026-07-26T17:02:56.768232,6.060,can0  204  [16]  9C 09 B1 FF 0F 95 1A DF 28 23 30 75 30 75 00 00
2026-07-26T17:02:56.770409,6.062,can0  040  [04]  65 01 1F 00
2026-07-26T17:02:56.770467,6.062,can0  206  [24]  7A 0C C0 06 6B 0C 99 C6 D0 06 35 0C 76 0C 00 00 00 00 00 00 00 00 00 00
2026-07-26T17:02:56.770668,6.062,can0  204  [16]  9C 09 B1 FF 0F 95 1A DF 28 23 30 75 30 75 00 00
2026-07-26T17:02:56.770834,6.062,can0  040  [04]  65 01 1F 00
2026-07-26T17:02:56.771016,6.063,can0  070  [20]  C7 2C 4D 08 F0 AE 62 03 C0 DA 00 00 02 00 00 00 21 00 00 00
2026-07-26T17:02:56.867939,6.160,can0  204  [16]  9C 09 B1 FF 0F 95 1A DF 28 23 30 75 30 75 00 00
2026-07-26T17:02:56.868176,6.160,can0  041  [04]  0F 00 1F 00
2026-07-26T17:02:56.868462,6.160,can0  204  [16]  9C 09 B1 FF 0F 95 1A DF 28 23 30 75 30 75 00 00
2026-07-26T17:02:56.967611,6.259,can0  070  [20]  C7 2C 4D 08 F0 AE 62 03 C0 DA 00 00 02 00 00 00 21 00 00 00
2026-07-26T17:02:56.969264,6.261,can0  206  [24]  7A 0C BE 06 71 0C 99 C6 D0 06 35 0C 76 0C 00 00 00 00 00 00 00 00 00 00
2026-07-26T17:02:56.969488,6.261,can0  204  [16]  9C 09 B1 FF 0F 95 1A DF 28 23 30 75 30 75 00 00
2026-07-26T17:02:56.969655,6.261,can0  040  [04]  5A 01 1D 00
2026-07-26T17:02:56.969875,6.261,can0  204  [16]  9C 09 B1 FF 0F 95 1A DF 28 23 30 75 30 75 00 00
2026-07-26T17:02:57.067713,6.359,can0  060  [32]  C0 8C B3 0E 21 DA 4D 08 88 54 63 03 9C 00 FA 0A 18 01 80 00 00 00 00 00 01 00 00 00 00 00 00 00
2026-07-26T17:02:57.068153,6.360,can0  040  [04]  5A 01 1D 00
2026-07-26T17:02:57.068368,6.360,can0  204  [16]  9C 09 B1 FF 0F 95 1A DF 28 23 30 75 30 75 00 00
2026-07-26T17:02:57.073465,6.365,can0  206  [24]  7A 0C BC 06 6B 0C 99 C6 CF 06 3A 0C 76 0C 00 00 00 00 00 00 00 00 00 00
2026-07-26T17:02:57.167989,6.460,can0  204  [16]  9C 09 B1 FF 0F 95 1A DF 28 23 30 75 30 75 00 00
2026-07-26T17:02:57.168158,6.460,can0  041  [04]  11 00 20 00
2026-07-26T17:02:57.168340,6.460,can0  204  [16]  9C 09 B1 FF 0F 95 1A DF 28 23 30 75 30 75 00 00
2026-07-26T17:02:57.168725,6.460,can0  070  [20]  C7 2C 4D 08 F0 AE 62 03 A8 DE 00 00 02 00 00 00 1E 00 00 00
2026-07-26T17:02:57.267860,6.559,can0  070  [20]  C7 2C 4D 08 F0 AE 62 03 A8 DE 00 00 02 00 00 00 1E 00 00 00
2026-07-26T17:02:57.268217,6.560,can0  204  [16]  9C 09 B1 FF 0F 95 1A DF 28 23 30 75 30 75 00 00
2026-07-26T17:02:57.272243,6.564,can0  040  [04]  57 01 1D 00
2026-07-26T17:02:57.272340,6.564,can0  206  [24]  7A 0C BB 06 6B 0C 99 C6 CF 06 35 0C 76 0C 00 00 00 00 00 00 00 00 00 00
2026-07-26T17:02:57.272409,6.564,can0  204  [16]  9C 09 B1 FF 0F 95 1A DF 28 23 30 75 30 75 00 00
2026-07-26T17:02:57.272500,6.564,can0  040  [04]  57 01 1D 00
2026-07-26T17:02:57.367700,6.659,can0  070  [20]  C7 2C 4D 08 F0 AE 62 03 A8 DE 00 00 02 00 00 00 1E 00 00 00
2026-07-26T17:02:57.367921,6.660,can0  204  [16]  9C 09 B1 FF 0F 95 1A DF 28 23 30 75 30 75 00 00
2026-07-26T17:02:57.372969,6.665,can0  041  [04]  14 00 21 00
2026-07-26T17:02:57.470252,6.762,can0  204  [16]  9C 09 B1 FF 0F 95 1A DF 28 23 30 75 30 75 00 00
2026-07-26T17:02:57.472337,6.764,can0  206  [24]  75 0C C1 06 6B 0C 99 C6 CF 06 35 0C 7B 0C 00 00 00 00 00 00 00 00 00 00
2026-07-26T17:02:57.472576,6.764,can0  204  [16]  9C 09 B1 FF 0F 95 1A DF 28 23 30 75 30 75 00 00
2026-07-26T17:02:57.567517,6.859,can0  040  [04]  67 01 1C 00
2026-07-26T17:02:57.567766,6.859,can0  204  [16]  9C 09 B1 FF 0F 95 1A DF 28 23 30 75 30 75 00 00
2026-07-26T17:02:57.567984,6.860,can0  204  [16]  9C 09 B1 FF 0F 95 1A DF 28 23 30 75 30 75 00 00
2026-07-26T17:02:57.568163,6.860,can0  040  [04]  67 01 1C 00
2026-07-26T17:02:57.569994,6.862,can0  206  [24]  7F 0C C1 06 66 0C 99 C6 CF 06 35 0C 76 0C 00 00 00 00 00 00 00 00 00 00
2026-07-26T17:02:57.574524,6.866,can0  100  [03]  C3 71 04
2026-07-26T17:02:57.667422,6.959,can0  110  [02]  1C 1B
2026-07-26T17:02:57.667534,6.959,can0  120  [04]  2F 19 00 00
2026-07-26T17:02:57.667700,6.959,can0  204  [16]  9C 09 B1 FF 0F 95 1A DF 28 23 30 75 30 75 00 00
2026-07-26T17:02:57.667830,6.959,can0  041  [04]  15 00 24 00
2026-07-26T17:02:57.671451,6.963,can0  204  [16]  9C 09 B1 FF 0F 95 1A DF 28 23 30 75 30 75 00 00
2026-07-26T17:02:57.770344,7.062,can0  206  [24]  80 0C C5 06 6B 0C 99 C6 CF 06 2B 0C 7B 0C 00 00 00 00 00 00 00 00 00 00
2026-07-26T17:02:57.770592,7.062,can0  204  [16]  9C 09 B1 FF 0F 95 1A DF 28 23 30 75 30 75 00 00
2026-07-26T17:02:57.770788,7.062,can0  040  [04]  06 00 19 00
2026-07-26T17:02:57.868128,7.160,can0  204  [16]  9C 09 B1 FF 0F 95 1A DF 28 23 30 75 30 75 00 00
2026-07-26T17:02:57.868321,7.160,can0  070  [20]  C7 2C 4D 08 F0 AE 62 03 A8 DE 00 00 02 00 00 00 1E 00 00 00
2026-07-26T17:02:57.868538,7.160,can0  040  [04]  06 00 19 00
2026-07-26T17:02:57.868760,7.160,can0  204  [16]  9C 09 B1 FF 0F 95 1A DF 28 23 30 75 30 75 00 00
2026-07-26T17:02:57.968260,7.260,can0  070  [20]  C7 2C 4D 08 F0 AE 62 03 A8 DE 00 00 02 00 00 00 1E 00 00 00
2026-07-26T17:02:57.969651,7.261,can0  206  [24]  7F 0C C4 06 71 0C 99 C6 D0 06 2B 0C 76 0C 00 00 00 00 00 00 00 00 00 00
2026-07-26T17:02:57.970933,7.263,can0  204  [16]  9C 09 B1 FF 0F 95 1A DF 28 23 30 75 30 75 00 00
2026-07-26T17:02:57.971123,7.263,can0  041  [04]  19 00 26 00
2026-07-26T17:02:57.971335,7.263,can0  204  [16]  9C 09 B1 FF 0F 95 1A DF 28 23 30 75 30 75 00 00
2026-07-26T17:02:58.068388,7.360,can0  204  [16]  9C 09 B1 FF 0F 95 1A DF 28 23 30 75 30 75 00 00
2026-07-26T17:02:58.068603,7.360,can0  040  [04]  0F 00 1E 00
2026-07-26T17:02:58.070904,7.363,can0  206  [24]  7F 0C C5 06 71 0C 99 C6 CE 06 2B 0C 76 0C 00 00 00 00 00 00 00 00 00 00
2026-07-26T17:02:58.167641,7.459,can0  040  [04]  0F 00 1E 00
2026-07-26T17:02:58.175238,7.467,can0  204  [16]  9C 09 B1 FF 0F 95 1A DF 28 23 30 75 30 75 00 00
2026-07-26T17:02:58.175313,7.467,can0  060  [32]  00 00 00 00 C7 2C 4D 08 45 04 B8 10 00 00 10 0E FF 01 00 00 00 00 00 00 01 00 00 00 00 00 00 00
2026-07-26T17:02:58.175971,7.468,can0  204  [16]  9C 09 B1 FF 0F 95 1A DF 28 23 30 75 30 75 00 00
2026-07-26T17:02:58.176320,7.468,can0  070  [20]  C7 2C 4D 08 F2 AE 62 03 90 E2 00 00 02 00 00 00 16 00 00 00
2026-07-26T17:02:58.176642,7.468,can0  041  [04]  1B 00 26 00
2026-07-26T17:02:58.268146,7.560,can0  204  [16]  9C 09 B1 FF 0F 95 1A DF 28 23 30 75 30 75 00 00
2026-07-26T17:02:58.268644,7.560,can0  070  [20]  C7 2C 4D 08 F2 AE 62 03 90 E2 00 00 02 00 00 00 16 00 00 00
2026-07-26T17:02:58.270837,7.562,can0  206  [24]  7F 0C C5 06 71 0C 99 C6 C9 06 30 0C 76 0C 00 00 00 00 00 00 00 00 00 00
2026-07-26T17:02:58.271116,7.563,can0  204  [16]  9C 09 B1 FF 0F 95 1A DF 28 23 30 75 30 75 00 00
2026-07-26T17:02:58.276530,7.568,can0  070  [20]  C7 2C 4D 08 F2 AE 62 03 90 E2 00 00 02 00 00 00 16 00 00 00
2026-07-26T17:02:58.367554,7.659,can0  040  [04]  13 00 24 00
2026-07-26T17:02:58.367780,7.659,can0  204  [16]  9C 09 B1 FF 0F 95 1A DF 28 23 30 75 30 75 00 00
2026-07-26T17:02:58.367944,7.660,can0  040  [04]  13 00 24 00
2026-07-26T17:02:58.368146,7.660,can0  204  [16]  9C 09 B1 FF 0F 95 1A DF 28 23 30 75 30 75 00 00
2026-07-26T17:02:58.470194,7.762,can0  206  [24]  7F 0C C6 06 71 0C 99 C6 C9 06 30 0C 76 0C 00 00 00 00 00 00 00 00 00 00
2026-07-26T17:02:58.470436,7.762,can0  204  [16]  9C 09 B1 FF 0F 95 1A DF 28 23 30 75 30 75 00 00
2026-07-26T17:02:58.470617,7.762,can0  041  [04]  1F 00 29 00
2026-07-26T17:02:58.568438,7.860,can0  204  [16]  9C 09 B1 FF 0F 95 1A DF 28 23 30 75 30 75 00 00
2026-07-26T17:02:58.568640,7.860,can0  204  [16]  9C 09 B1 FF 0F 95 1A DF 28 23 30 75 30 75 00 00
2026-07-26T17:02:58.570352,7.862,can0  206  [24]  7A 0C C4 06 76 0C 99 C6 C8 06 35 0C 76 0C 00 00 00 00 00 00 00 00 00 00
2026-07-26T17:02:58.570497,7.862,can0  040  [04]  11 00 2B 00
2026-07-26T17:02:58.667901,7.960,can0  040  [04]  11 00 2B 00
2026-07-26T17:02:58.668121,7.960,can0  204  [16]  9C 09 B1 FF 0F 95 1A DF 28 23 30 75 30 75 00 00
2026-07-26T17:02:58.668298,7.960,can0  060  [32]  00 00 00 00 00 00 00 00 00 00 00 00 00 00 00 00 00 00 00 00 00 00 00 00 00 00 00 00 00 00 00 00
2026-07-26T17:02:58.668534,7.960,can0  204  [16]  9C 09 B1 FF 0F 95 1A DF 28 23 30 75 30 75 00 00
2026-07-26T17:02:58.767932,8.060,can0  041  [04]  1E 00 2D 00
2026-07-26T17:02:58.769647,8.061,can0  206  [24]  7B 0C C6 06 71 0C 99 C6 C8 06 35 0C 7B 0C 00 00 00 00 00 00 00 00 00 00
2026-07-26T17:02:58.769910,8.062,can0  204  [16]  9C 09 B1 FF 0F 95 1A DF 28 23 30 75 30 75 00 00
2026-07-26T17:02:58.770096,8.062,can0  070  [20]  C7 2C 4D 08 F2 AE 62 03 90 E2 00 00 02 00 00 00 16 00 00 00
2026-07-26T17:02:58.770264,8.062,can0  100  [03]  C9 71 04
2026-07-26T17:02:58.868345,8.160,can0  120  [04]  35 19 00 00
2026-07-26T17:02:58.868588,8.160,can0  204  [16]  9C 09 B1 FF 0F 95 1A DF 28 23 30 75 30 75 00 00
2026-07-26T17:02:58.868761,8.160,can0  040  [04]  0C 00 31 00
2026-07-26T17:02:58.868947,8.161,can0  204  [16]  9C 09 B1 FF 0F 95 1A DF 28 23 30 75 30 75 00 00
2026-07-26T17:02:58.969249,8.261,can0  206  [24]  7B 0C C7 06 6B 0C 99 C6 C8 06 3F 0C 7B 0C 00 00 00 00 00 00 00 00 00 00
2026-07-26T17:02:58.969446,8.261,can0  070  [20]  C7 2C 4D 08 F2 AE 62 03 90 E2 00 00 02 00 00 00 16 00 00 00
2026-07-26T17:02:58.969770,8.261,can0  040  [04]  0C 00 31 00
2026-07-26T17:02:58.969801,8.261,can0  204  [16]  9C 09 B1 FF 0F 95 1A DF 28 23 30 75 30 75 00 00
2026-07-26T17:02:58.969941,8.262,can0  204  [16]  9C 09 B1 FF 0F 95 1A DF 28 23 30 75 30 75 00 00
2026-07-26T17:02:58.970216,8.262,can0  041  [04]  1E 00 2D 00
2026-07-26T17:02:59.068390,8.360,can0  204  [16]  9C 09 B1 FF 0F 95 1A DF 28 23 30 75 30 75 00 00
2026-07-26T17:02:59.070231,8.362,can0  206  [24]  7B 0C C5 06 6B 0C 99 C6 C9 06 3F 0C 7B 0C 00 00 00 00 00 00 00 00 00 00
2026-07-26T17:02:59.070274,8.362,can0  204  [16]  9C 09 B1 FF 0F 95 1A DF 28 23 30 75 30 75 00 00
2026-07-26T17:02:59.070381,8.362,can0  040  [04]  08 00 30 00
2026-07-26T17:02:59.172663,8.464,can0  060  [32]  00 00 00 00 00 00 00 00 00 00 00 00 00 00 00 00 00 00 00 00 00 00 00 00 00 00 00 00 00 00 00 00
2026-07-26T17:02:59.172858,8.464,can0  204  [16]  9C 09 B1 FF 0F 95 1A DF 28 23 30 75 30 75 00 00
2026-07-26T17:02:59.172996,8.465,can0  060  [32]  00 00 00 00 C7 2C 4D 08 47 04 B8 10 00 00 10 0E FF 01 00 00 00 00 00 00 01 00 00 00 00 00 00 00
2026-07-26T17:02:59.173139,8.465,can0  040  [04]  08 00 30 00
2026-07-26T17:02:59.173271,8.465,can0  070  [20]  C7 2C 4D 08 F2 AE 62 03 78 E6 00 00 02 00 00 00 02 00 00 00
2026-07-26T17:02:59.268376,8.560,can0  110  [02]  1D 1B
2026-07-26T17:02:59.268592,8.560,can0  204  [16]  9C 09 B1 FF 0F 95 1A DF 28 23 30 75 30 75 00 00
2026-07-26T17:02:59.268978,8.561,can0  070  [20]  C7 2C 4D 08 F2 AE 62 03 78 E6 00 00 02 00 00 00 02 00 00 00
2026-07-26T17:02:59.270688,8.562,can0  206  [24]  7B 0C C6 06 66 0C 99 C6 CE 06 3F 0C 7B 0C 00 00 00 00 00 00 00 00 00 00
2026-07-26T17:02:59.270853,8.562,can0  041  [04]  1B 00 29 00
2026-07-26T17:02:59.271010,8.563,can0  204  [16]  9C 09 B1 FF 0F 95 1A DF 28 23 30 75 30 75 00 00
2026-07-26T17:02:59.367930,8.660,can0  070  [20]  C7 2C 4D 08 F2 AE 62 03 78 E6 00 00 02 00 00 00 02 00 00 00
2026-07-26T17:02:59.368159,8.660,can0  204  [16]  9C 09 B1 FF 0F 95 1A DF 28 23 30 75 30 75 00 00
2026-07-26T17:02:59.368359,8.660,can0  204  [16]  9C 09 B1 FF 0F 95 1A DF 28 23 30 75 30 75 00 00
2026-07-26T17:02:59.368545,8.660,can0  040  [04]  05 00 2B 00
2026-07-26T17:02:59.469575,8.761,can0  206  [24]  71 0C C7 06 62 0C 99 C6 CD 06 48 0C 7F 0C 00 00 00 00 00 00 00 00 00 00
2026-07-26T17:02:59.469775,8.761,can0  040  [04]  05 00 2B 00
2026-07-26T17:02:59.469974,8.762,can0  204  [16]  9C 09 B1 FF 0F 95 1A DF 28 23 30 75 30 75 00 00
2026-07-26T17:02:59.568027,8.860,can0  204  [16]  9C 09 B1 FF 0F 95 1A DF 28 23 30 75 30 75 00 00
2026-07-26T17:02:59.568318,8.860,can0  041  [04]  19 00 2A 00
2026-07-26T17:02:59.568526,8.860,can0  204  [16]  9C 09 B1 FF 0F 95 1A DF 28 23 30 75 30 75 00 00
2026-07-26T17:02:59.573251,8.865,can0  206  [24]  71 0C C7 06 62 0C 99 C6 CC 06 48 0C 7F 0C 00 00 00 00 00 00 00 00 00 00
2026-07-26T17:02:59.668134,8.960,can0  204  [16]  9C 09 B1 FF 0F 95 1A DF 28 23 30 75 30 75 00 00
2026-07-26T17:02:59.668330,8.960,can0  040  [04]  01 00 29 00
2026-07-26T17:02:59.668518,8.960,can0  060  [32]  00 00 00 00 00 00 00 00 00 00 00 00 00 00 00 00 00 00 00 00 00 00 00 00 00 00 00 00 00 00 00 00
2026-07-26T17:02:59.668711,8.960,can0  204  [16]  9C 09 B1 FF 0F 95 1A DF 28 23 30 75 30 75 00 00
2026-07-26T17:02:59.668844,8.960,can0  040  [04]  01 00 29 00
2026-07-26T17:02:59.769613,9.061,can0  206  [24]  75 0C C5 06 66 0C 99 C6 CB 06 3F 0C 7B 0C 00 00 00 00 00 00 00 00 00 00
2026-07-26T17:02:59.769882,9.061,can0  204  [16]  9C 09 B1 FF 0F 95 1A DF 28 23 30 75 30 75 00 00
2026-07-26T17:02:59.770051,9.062,can0  041  [04]  1B 00 32 00
2026-07-26T17:02:59.770259,9.062,can0  204  [16]  9C 09 B1 FF 0F 95 1A DF 28 23 30 75 30 75 00 00
2026-07-26T17:02:59.867660,9.159,can0  070  [20]  C7 2C 4D 08 F2 AE 62 03 78 E6 00 00 02 00 00 00 02 00 00 00
2026-07-26T17:02:59.867918,9.160,can0  204  [16]  9C 09 B1 FF 0F 95 1A DF 28 23 30 75 30 75 00 00
2026-07-26T17:02:59.872506,9.164,can0  206  [24]  98 0C C6 06 66 0C 99 C6 CB 06 3F 0C 58 0C 00 00 00 00 00 00 00 00 00 00
2026-07-26T17:02:59.968222,9.260,can0  070  [20]  C7 2C 4D 08 F2 AE 62 03 78 E6 00 00 02 00 00 00 02 00 00 00
2026-07-26T17:02:59.968372,9.260,can0  040  [04]  63 01 27 00
2026-07-26T17:02:59.968526,9.260,can0  204  [16]  9C 09 B1 FF 0F 95 1A DF 28 23 30 75 30 75 00 00
2026-07-26T17:02:59.968628,9.260,can0  060  [32]  48 BE 07 05 13 7A 4D 08 70 92 62 03 02 00 C8 06 63 01 80 00 00 00 00 00 01 00 00 00 00 00 00 00
2026-07-26T17:02:59.968906,9.261,can0  040  [04]  63 01 27 00
2026-07-26T17:02:59.969041,9.261,can0  204  [16]  9C 09 B1 FF 0F 95 1A DF 28 23 30 75 30 75 00 00
2026-07-26T17:02:59.969313,9.261,can0  100  [03]  CF 71 04
2026-07-26T17:02:59.969424,9.261,can0  120  [04]  12 19 00 00
2026-07-26T17:03:00.068108,9.360,can0  204  [16]  9C 09 B1 FF 0F 95 1A DF 28 23 30 75 30 75 00 00
2026-07-26T17:03:00.070229,9.362,can0  041  [04]  20 00 36 00
2026-07-26T17:03:00.070270,9.362,can0  206  [24]  9D 0C C6 06 6B 0C 99 C6 C8 06 35 0C 53 0C 00 00 00 00 00 00 00 00 00 00
2026-07-26T17:03:00.070415,9.362,can0  204  [16]  9C 09 B1 FF 0F 95 1A DF 28 23 30 75 30 75 00 00
2026-07-26T17:03:00.167488,9.459,can0  204  [16]  9C 09 B1 FF 0F 95 1A DF 28 23 30 75 30 75 00 00
2026-07-26T17:03:00.167629,9.459,can0  040  [04]  01 00 27 00
2026-07-26T17:03:00.167768,9.459,can0  070  [20]  C7 2C 4D 08 F2 AE 62 03 00 00 00 00 03 00 00 00 0D 00 00 00
2026-07-26T17:03:00.267532,9.559,can0  204  [16]  9C 09 B1 FF 0F 95 1A DF 28 23 30 75 30 75 00 00
2026-07-26T17:03:00.267668,9.559,can0  070  [20]  C7 2C 4D 08 F2 AE 62 03 00 00 00 00 03 00 00 00 0D 00 00 00
2026-07-26T17:03:00.267788,9.559,can0  040  [04]  01 00 27 00
2026-07-26T17:03:00.269747,9.561,can0  206  [24]  A3 0C C5 06 66 0C 99 C6 C9 06 35 0C 53 0C 00 00 00 00 00 00 00 00 00 00
2026-07-26T17:03:00.269928,9.562,can0  204  [16]  9C 09 B1 FF 0F 95 1A DF 28 23 30 75 30 75 00 00
2026-07-26T17:03:00.270069,9.562,can0  070  [20]  C7 2C 4D 08 F2 AE 62 03 00 00 00 00 03 00 00 00 0D 00 00 00
2026-07-26T17:03:00.367655,9.659,can0  204  [16]  9C 09 B1 FF 0F 95 1A DF 28 23 30 75 30 75 00 00
2026-07-26T17:03:00.367808,9.659,can0  041  [04]  22 00 34 00
2026-07-26T17:03:00.367959,9.660,can0  204  [16]  9C 09 B1 FF 0F 95 1A DF 28 23 30 75 30 75 00 00
2026-07-26T17:03:00.369901,9.662,can0  206  [24]  A7 0C C3 06 66 0C 99 C6 C9 06 35 0C 4E 0C 00 00 00 00 00 00 00 00 00 00
2026-07-26T17:03:00.467683,9.759,can0  040  [04]  09 00 28 00
2026-07-26T17:03:00.467897,9.760,can0  204  [16]  9C 09 B1 FF 0F 95 1A DF 28 23 30 75 30 75 00 00
2026-07-26T17:03:00.468093,9.760,can0  204  [16]  9C 09 B1 FF 0F 95 1A DF 28 23 30 75 30 75 00 00
2026-07-26T17:03:00.567802,9.859,can0  040  [04]  09 00 28 00
2026-07-26T17:03:00.568022,9.860,can0  204  [16]  9C 09 B1 FF 0F 95 1A DF 28 23 30 75 30 75 00 00
2026-07-26T17:03:00.569741,9.861,can0  206  [24]  A2 0C C4 06 6B 0C 99 C6 CB 06 35 0C 4E 0C 00 00 00 00 00 00 00 00 00 00
2026-07-26T17:03:00.569961,9.862,can0  041  [04]  1D 00 31 00
2026-07-26T17:03:00.667896,9.960,can0  204  [16]  9C 09 B1 FF 0F 95 1A DF 28 23 30 75 30 75 00 00
2026-07-26T17:03:00.668157,9.960,can0  204  [16]  9C 09 B1 FF 0F 95 1A DF 28 23 30 75 30 75 00 00
2026-07-26T17:03:00.767990,10.060,can0  040  [04]  0F 00 28 00
2026-07-26T17:03:00.769960,10.062,can0  206  [24]  75 0C C3 06 71 0C 99 C6 CB 06 30 0C 7B 0C 00 00 00 00 00 00 00 00 00 00
2026-07-26T17:03:00.770211,10.062,can0  204  [16]  9C 09 B1 FF 0F 95 1A DF 28 23 30 75 30 75 00 00
2026-07-26T17:03:00.770387,10.062,can0  040  [04]  0F 00 28 00
2026-07-26T17:03:00.770582,10.062,can0  204  [16]  9C 09 B1 FF 0F 95 1A DF 28 23 30 75 30 75 00 00
2026-07-26T17:03:00.770946,10.063,can0  070  [20]  C7 2C 4D 08 F2 AE 62 03 00 00 00 00 03 00 00 00 0D 00 00 00
2026-07-26T17:03:00.774341,10.066,can0  110  [02]  1B 1B
2026-07-26T17:03:00.867970,10.160,can0  204  [16]  9C 09 B1 FF 0F 95 1A DF 28 23 30 75 30 75 00 00
2026-07-26T17:03:00.870176,10.162,can0  041  [04]  1C 00 35 00
2026-07-26T17:03:00.870224,10.162,can0  206  [24]  75 0C C3 06 71 0C 99 C6 CC 06 35 0C 7B 0C 00 00 00 00 00 00 00 00 00 00
2026-07-26T17:03:00.968491,10.260,can0  204  [16]  9C 09 B1 FF 0F 95 1A DF 28 23 30 75 30 75 00 00
2026-07-26T17:03:00.968662,10.260,can0  070  [20]  C7 2C 4D 08 F2 AE 62 03 00 00 00 00 03 00 00 00 0D 00 00 00
2026-07-26T17:03:00.968850,10.260,can0  204  [16]  9C 09 B1 FF 0F 95 1A DF 28 23 30 75 30 75 00 00
2026-07-26T17:03:00.969036,10.261,can0  040  [04]  0E 00 27 00
2026-07-26T17:03:01.068217,10.360,can0  204  [16]  9C 09 B1 FF 0F 95 1A DF 28 23 30 75 30 75 00 00
2026-07-26T17:03:01.070759,10.362,can0  040  [04]  0E 00 27 00
2026-07-26T17:03:01.070807,10.362,can0  206  [24]  71 0C C3 06 6B 0C 99 C6 CE 06 3A 0C 7F 0C 00 00 00 00 00 00 00 00 00 00
2026-07-26T17:03:01.071075,10.363,can0  204  [16]  9C 09 B1 FF 0F 95 1A DF 28 23 30 75 30 75 00 00
2026-07-26T17:03:01.176588,10.468,can0  041  [04]  1C 00 35 00
2026-07-26T17:03:01.176756,10.468,can0  204  [16]  9C 09 B1 FF 0F 95 1A DF 28 23 30 75 30 75 00 00
2026-07-26T17:03:01.176910,10.469,can0  070  [20]  C7 2C 4D 08 F0 AE 62 03 E8 03 00 00 03 00 00 00 0B 00 00 00
2026-07-26T17:03:01.177047,10.469,can0  204  [16]  9C 09 B1 FF 0F 95 1A DF 28 23 30 75 30 75 00 00
2026-07-26T17:03:01.177161,10.469,can0  060  [32]  00 00 00 00 C7 2C 4D 08 45 04 B8 10 00 00 10 0E FF 01 00 00 00 00 00 00 01 00 00 00 00 00 00 00
2026-07-26T17:03:01.177437,10.469,can0  100  [03]  D3 71 04
2026-07-26T17:03:01.177528,10.469,can0  120  [04]  1F 19 00 00
2026-07-26T17:03:01.268183,10.560,can0  070  [20]  C7 2C 4D 08 F0 AE 62 03 E8 03 00 00 03 00 00 00 0C 00 00 00
2026-07-26T17:03:01.270225,10.562,can0  206  [24]  71 0C C4 06 6B 0C 99 C6 CE 06 35 0C 7F 0C 00 00 00 00 00 00 00 00 00 00
2026-07-26T17:03:01.270361,10.562,can0  040  [04]  0B 00 25 00
2026-07-26T17:03:01.270529,10.562,can0  204  [16]  9C 09 B1 FF 0F 95 1A DF 28 23 30 75 30 75 00 00
2026-07-26T17:03:01.270643,10.562,can0  040  [04]  0B 00 25 00
2026-07-26T17:03:01.417979,10.710,can0  204  [16]  9C 09 B1 FF 0F 95 1A DF 28 23 30 75 30 75 00 00
2026-07-26T17:03:01.418050,10.710,can0  070  [20]  C7 2C 4D 08 F0 AE 62 03 E8 03 00 00 03 00 00 00 0C 00 00 00
2026-07-26T17:03:01.418098,10.710,can0  204  [16]  9C 09 B1 FF 0F 95 1A DF 28 23 30 75 30 75 00 00
2026-07-26T17:03:01.418135,10.710,can0  041  [04]  1D 00 36 00
2026-07-26T17:03:01.418172,10.710,can0  206  [24]  71 0C C5 06 6B 0C 99 C6 CE 06 3F 0C 7F 0C 00 00 00 00 00 00 00 00 00 00
2026-07-26T17:03:01.471079,10.763,can0  204  [16]  9C 09 B1 FF 0F 95 1A DF 28 23 30 75 30 75 00 00
2026-07-26T17:03:01.471220,10.763,can0  204  [16]  9C 09 B1 FF 0F 95 1A DF 28 23 30 75 30 75 00 00
2026-07-26T17:03:01.583517,10.875,can0  040  [04]  09 00 2A 00
2026-07-26T17:03:01.583755,10.875,can0  204  [16]  9C 09 B1 FF 0F 95 1A DF 28 23 30 75 30 75 00 00
2026-07-26T17:03:01.583956,10.876,can0  040  [04]  09 00 2A 00
2026-07-26T17:03:01.584276,10.876,can0  206  [24]  75 0C C5 06 66 0C 99 C6 D1 06 44 0C 7B 0C 00 00 00 00 00 00 00 00 00 00
2026-07-26T17:03:01.668098,10.960,can0  204  [16]  9C 09 B1 FF 0F 95 1A DF 28 23 30 75 30 75 00 00
2026-07-26T17:03:01.668232,10.960,can0  041  [04]  1D 00 36 00
2026-07-26T17:03:01.668409,10.960,can0  204  [16]  9C 09 B1 FF 0F 95 1A DF 28 23 30 75 30 75 00 00
2026-07-26T17:03:01.668579,10.960,can0  060  [32]  00 00 00 00 00 00 00 00 00 00 00 00 00 00 00 00 00 00 00 00 00 00 00 00 00 00 00 00 00 00 00 00
2026-07-26T17:03:01.768067,11.060,can0  204  [16]  9C 09 B1 FF 0F 95 1A DF 28 23 30 75 30 75 00 00
2026-07-26T17:03:01.770514,11.062,can0  206  [24]  75 0C C6 06 66 0C 99 C6 D0 06 44 0C 7B 0C 00 00 00 00 00 00 00 00 00 00
2026-07-26T17:03:01.770805,11.062,can0  040  [04]  0C 00 30 00
2026-07-26T17:03:01.771109,11.063,can0  204  [16]  9C 09 B1 FF 0F 95 1A DF 28 23 30 75 30 75 00 00
2026-07-26T17:03:01.771311,11.063,can0  060  [32]  21 53 11 00 BC 5C 4D 08 84 AB 62 03 02 00 3B 05 26 00 7C 00 00 00 00 00 01 00 00 00 00 00 00 00
2026-07-26T17:03:01.868166,11.160,can0  070  [20]  C7 2C 4D 08 F0 AE 62 03 E8 03 00 00 03 00 00 00 0C 00 00 00
2026-07-26T17:03:01.868382,11.160,can0  040  [04]  0C 00 30 00
2026-07-26T17:03:01.868679,11.160,can0  204  [16]  9C 09 B1 FF 0F 95 1A DF 28 23 30 75 30 75 00 00
2026-07-26T17:03:01.870383,11.162,can0  206  [24]  75 0C C7 06 66 0C 99 C6 CE 06 44 0C 7B 0C 00 00 00 00 00 00 00 00 00 00
2026-07-26T17:03:01.870594,11.162,can0  204  [16]  9C 09 B1 FF 0F 95 1A DF 28 23 30 75 30 75 00 00
2026-07-26T17:03:01.967782,11.259,can0  070  [20]  C7 2C 4D 08 F0 AE 62 03 E8 03 00 00 03 00 00 00 0C 00 00 00
2026-07-26T17:03:01.968000,11.260,can0  041  [04]  1D 00 36 00
2026-07-26T17:03:01.968210,11.260,can0  204  [16]  9C 09 B1 FF 0F 95 1A DF 28 23 30 75 30 75 00 00
2026-07-26T17:03:02.068068,11.360,can0  204  [16]  9C 09 B1 FF 0F 95 1A DF 28 23 30 75 30 75 00 00
2026-07-26T17:03:02.068354,11.360,can0  132  [00]
2026-07-26T17:03:02.068394,11.360,can0  040  [04]  0A 00 38 00
2026-07-26T17:03:02.070182,11.362,can0  206  [24]  85 0C C7 06 6B 0C 99 C6 D0 06 3F 0C 6B 0C 00 00 00 00 00 00 00 00 00 00
2026-07-26T17:03:02.070362,11.362,can0  204  [16]  9C 09 B1 FF 0F 95 1A DF 28 23 30 75 30 75 00 00
2026-07-26T17:03:02.070476,11.362,can0  040  [04]  0A 00 38 00
2026-07-26T17:03:02.167839,11.459,can0  204  [16]  9C 09 B1 FF 0F 95 1A DF 28 23 30 75 30 75 00 00
2026-07-26T17:03:02.168001,11.460,can0  041  [04]  1E 00 35 00
2026-07-26T17:03:02.168196,11.460,can0  204  [16]  9C 09 B1 FF 0F 95 1A DF 28 23 30 75 30 75 00 00
2026-07-26T17:03:02.168386,11.460,can0  070  [20]  C7 2C 4D 08 F0 AE 62 03 D0 07 00 00 03 00 00 00 46 00 00 00
2026-07-26T17:03:02.269405,11.561,can0  206  [24]  7B 0C C5 06 70 0C 99 C6 D0 06 3F 0C 6B 0C 00 00 00 00 00 00 00 00 00 00
2026-07-26T17:03:02.269604,11.561,can0  070  [20]  C7 2C 4D 08 F0 AE 62 03 D0 07 00 00 03 00 00 00 47 00 00 00
2026-07-26T17:03:02.269808,11.561,can0  204  [16]  9C 09 B1 FF 0F 95 1A DF 28 23 30 75 30 75 00 00
2026-07-26T17:03:02.368305,11.660,can0  204  [16]  9C 09 B1 FF 0F 95 1A DF 28 23 30 75 30 75 00 00
2026-07-26T17:03:02.368495,11.660,can0  070  [20]  C7 2C 4D 08 F0 AE 62 03 D0 07 00 00 03 00 00 00 47 00 00 00
2026-07-26T17:03:02.368663,11.660,can0  040  [04]  09 00 40 00
2026-07-26T17:03:02.368827,11.660,can0  040  [04]  09 00 40 00
2026-07-26T17:03:02.369001,11.661,can0  204  [16]  9C 09 B1 FF 0F 95 1A DF 28 23 30 75 30 75 00 00
2026-07-26T17:03:02.374320,11.666,can0  206  [24]  80 0C C1 06 6B 0C 99 C6 CF 06 3F 0C 6B 0C 00 00 00 00 00 00 00 00 00 00
2026-07-26T17:03:02.374370,11.666,can0  100  [03]  D3 71 04
2026-07-26T17:03:02.374391,11.666,can0  110  [02]  1C 1B
2026-07-26T17:03:02.374409,11.666,can0  120  [04]  1B 19 00 00
2026-07-26T17:03:02.467542,11.759,can0  204  [16]  9C 09 B1 FF 0F 95 1A DF 28 23 30 75 30 75 00 00
2026-07-26T17:03:02.467727,11.759,can0  041  [04]  1E 00 32 00
2026-07-26T17:03:02.467917,11.760,can0  204  [16]  9C 09 B1 FF 0F 95 1A DF 28 23 30 75 30 75 00 00
2026-07-26T17:03:02.568412,11.860,can0  204  [16]  9C 09 B1 FF 0F 95 1A DF 28 23 30 75 30 75 00 00
2026-07-26T17:03:02.570215,11.862,can0  206  [24]  85 0C C0 06 6B 0C 99 C6 D0 06 3A 0C 67 0C 00 00 00 00 00 00 00 00 00 00
2026-07-26T17:03:02.570411,11.862,can0  040  [04]  08 00 46 00
2026-07-26T17:03:02.570599,11.862,can0  204  [16]  9C 09 B1 FF 0F 95 1A DF 28 23 30 75 30 75 00 00
2026-07-26T17:03:02.668085,11.960,can0  040  [04]  08 00 46 00
2026-07-26T17:03:02.668431,11.960,can0  204  [16]  9C 09 B1 FF 0F 95 1A DF 28 23 30 75 30 75 00 00
2026-07-26T17:03:02.770762,12.062,can0  204  [16]  9C 09 B1 FF 0F 95 1A DF 28 23 30 75 30 75 00 00
2026-07-26T17:03:02.770824,12.062,can0  206  [24]  85 0C C0 06 6B 0C 99 C6 CF 06 3A 0C 67 0C 00 00 00 00 00 00 00 00 00 00
2026-07-26T17:03:02.770955,12.063,can0  041  [04]  1A 00 32 00
2026-07-26T17:03:02.771170,12.063,can0  204  [16]  9C 09 B1 FF 0F 95 1A DF 28 23 30 75 30 75 00 00
2026-07-26T17:03:02.868646,12.160,can0  070  [20]  C7 2C 4D 08 F0 AE 62 03 D0 07 00 00 03 00 00 00 47 00 00 00
2026-07-26T17:03:02.868882,12.160,can0  204  [16]  9C 09 B1 FF 0F 95 1A DF 28 23 30 75 30 75 00 00
2026-07-26T17:03:02.869070,12.161,can0  040  [04]  09 00 42 00
2026-07-26T17:03:02.871428,12.163,can0  206  [24]  76 0C C0 06 67 0C 99 C6 CC 06 39 0C 76 0C 00 00 00 00 00 00 00 00 00 00
2026-07-26T17:03:02.871578,12.163,can0  040  [04]  09 00 42 00
2026-07-26T17:03:02.871777,12.163,can0  204  [16]  9C 09 B1 FF 0F 95 1A DF 28 23 30 75 30 75 00 00
2026-07-26T17:03:02.967737,12.259,can0  070  [20]  C7 2C 4D 08 F0 AE 62 03 D0 07 00 00 03 00 00 00 47 00 00 00
2026-07-26T17:03:02.967949,12.260,can0  204  [16]  9C 09 B1 FF 0F 95 1A DF 28 23 30 75 30 75 00 00
2026-07-26T17:03:02.968157,12.260,can0  041  [04]  12 00 30 00
2026-07-26T17:03:03.067690,12.359,can0  204  [16]  9C 09 B1 FF 0F 95 1A DF 28 23 30 75 30 75 00 00
2026-07-26T17:03:03.069460,12.361,can0  206  [24]  7A 0C C1 06 6B 0C 99 C6 CE 06 30 0C 76 0C 00 00 00 00 00 00 00 00 00 00
2026-07-26T17:03:03.069674,12.361,can0  204  [16]  9C 09 B1 FF 0F 95 1A DF 28 23 30 75 30 75 00 00
2026-07-26T17:03:03.069851,12.361,can0  040  [04]  08 00 3D 00
2026-07-26T17:03:03.167815,12.459,can0  204  [16]  9C 09 B1 FF 0F 95 1A DF 28 23 30 75 30 75 00 00
2026-07-26T17:03:03.175466,12.467,can0  040  [04]  08 00 3D 00
2026-07-26T17:03:03.175877,12.467,can0  070  [20]  C7 2C 4D 08 F0 AE 62 03 B8 0B 00 00 03 00 00 00 25 00 00 00
2026-07-26T17:03:03.176205,12.468,can0  204  [16]  9C 09 B1 FF 0F 95 1A DF 28 23 30 75 30 75 00 00
2026-07-26T17:03:03.282213,12.574,can0  206  [24]  7A 0C C4 06 6B 0C 99 C6 CB 06 30 0C 76 0C 00 00 00 00 00 00 00 00 00 00
2026-07-26T17:03:03.282264,12.574,can0  060  [32]  00 00 00 00 C7 2C 4D 08 45 04 B8 10 00 00 10 0E FF 01 00 00 00 00 00 00 01 00 00 00 00 00 00 00
2026-07-26T17:03:03.282555,12.574,can0  204  [16]  9C 09 B1 FF 0F 95 1A DF 28 23 30 75 30 75 00 00
2026-07-26T17:03:03.282754,12.574,can0  070  [20]  C7 2C 4D 08 F0 AE 62 03 B8 0B 00 00 03 00 00 00 24 00 00 00
2026-07-26T17:03:03.282940,12.575,can0  041  [04]  0E 00 2D 00
2026-07-26T17:03:03.283173,12.575,can0  204  [16]  9C 09 B1 FF 0F 95 1A DF 28 23 30 75 30 75 00 00
2026-07-26T17:03:03.367985,12.660,can0  070  [20]  C7 2C 4D 08 F0 AE 62 03 B8 0B 00 00 03 00 00 00 24 00 00 00
2026-07-26T17:03:03.368166,12.660,can0  204  [16]  9C 09 B1 FF 0F 95 1A DF 28 23 30 75 30 75 00 00
2026-07-26T17:03:03.368352,12.660,can0  040  [04]  0B 00 3C 00
2026-07-26T17:03:03.370143,12.662,can0  206  [24]  75 0C C4 06 71 0C 99 C6 CB 06 2A 0C 7B 0C 00 00 00 00 00 00 00 00 00 00
2026-07-26T17:03:03.468415,12.760,can0  040  [04]  0B 00 3C 00
2026-07-26T17:03:03.468604,12.760,can0  204  [16]  9C 09 B1 FF 0F 95 1A DF 28 23 30 75 30 75 00 00
2026-07-26T17:03:03.472338,12.764,can0  204  [16]  9C 09 B1 FF 0F 95 1A DF 28 23 30 75 30 75 00 00
2026-07-26T17:03:03.568422,12.860,can0  041  [04]  11 00 2F 00
2026-07-26T17:03:03.568632,12.860,can0  204  [16]  9C 09 B1 FF 0F 95 1A DF 28 23 30 75 30 75 00 00
2026-07-26T17:03:03.570443,12.862,can0  206  [24]  75 0C C5 06 6B 0C 99 C6 CC 06 35 0C 7B 0C 00 00 00 00 00 00 00 00 00 00
2026-07-26T17:03:03.570606,12.862,can0  204  [16]  9C 09 B1 FF 0F 95 1A DF 28 23 30 75 30 75 00 00
2026-07-26T17:03:03.570732,12.862,can0  100  [03]  D2 71 04
2026-07-26T17:03:03.570838,12.862,can0  120  [04]  20 19 00 00
2026-07-26T17:03:03.668223,12.960,can0  040  [04]  0B 00 3C 00
2026-07-26T17:03:03.668454,12.960,can0  204  [16]  9C 09 B1 FF 0F 95 1A DF 28 23 30 75 30 75 00 00
2026-07-26T17:03:03.668633,12.960,can0  040  [04]  0B 00 3C 00
2026-07-26T17:03:03.767542,13.059,can0  204  [16]  9C 09 B1 FF 0F 95 1A DF 28 23 30 75 30 75 00 00
2026-07-26T17:03:03.769226,13.061,can0  206  [24]  7A 0C C5 06 6B 0C FC CC CF 06 3A 0C 76 0C 00 00 00 00 00 00 00 00 00 00
2026-07-26T17:03:03.769455,13.061,can0  204  [16]  9C 09 B1 FF 0F 95 1A DF 28 23 30 75 30 75 00 00
2026-07-26T17:03:03.769657,13.061,can0  041  [04]  11 00 32 00
2026-07-26T17:03:03.868561,13.160,can0  070  [20]  C7 2C 4D 08 F0 AE 62 03 B8 0B 00 00 03 00 00 00 24 00 00 00
2026-07-26T17:03:03.868823,13.160,can0  204  [16]  9C 09 B1 FF 0F 95 1A DF 28 23 30 75 30 75 00 00
2026-07-26T17:03:03.870593,13.162,can0  206  [24]  94 0C C5 06 4D 0C FC CC CE 06 3A 0C 7B 0C 00 00 00 00 00 00 00 00 00 00
2026-07-26T17:03:03.870780,13.162,can0  204  [16]  9C 09 B1 FF 0F 95 1A DF 28 23 30 75 30 75 00 00
2026-07-26T17:03:03.967940,13.260,can0  040  [04]  04 00 39 00
2026-07-26T17:03:03.968157,13.260,can0  070  [20]  C7 2C 4D 08 F0 AE 62 03 B8 0B 00 00 03 00 00 00 24 00 00 00
2026-07-26T17:03:03.968373,13.260,can0  204  [16]  9C 09 B1 FF 0F 95 1A DF 28 23 30 75 30 75 00 00
2026-07-26T17:03:03.968547,13.260,can0  040  [04]  04 00 39 00
2026-07-26T17:03:03.968708,13.260,can0  110  [02]  1C 1B
2026-07-26T17:03:03.968923,13.261,can0  204  [16]  9C 09 B1 FF 0F 95 1A DF 28 23 30 75 30 75 00 00
2026-07-26T17:03:04.070071,13.362,can0  206  [24]  99 0C C9 06 4D 0C FC CC CE 06 3A 0C 76 0C 00 00 00 00 00 00 00 00 00 00
2026-07-26T17:03:04.070214,13.362,can0  041  [04]  13 00 32 00
2026-07-26T17:03:04.070362,13.362,can0  204  [16]  9C 09 B1 FF 0F 95 1A DF 28 23 30 75 30 75 00 00
2026-07-26T17:03:04.168298,13.460,can0  204  [16]  9C 09 B1 FF 0F 95 1A DF 28 23 30 75 30 75 00 00
2026-07-26T17:03:04.168502,13.460,can0  040  [04]  03 00 36 00
2026-07-26T17:03:04.168715,13.460,can0  204  [16]  9C 09 B1 FF 0F 95 1A DF 28 23 30 75 30 75 00 00
2026-07-26T17:03:04.170382,13.462,can0  206  [24]  99 0C C9 06 4D 0C FC CC D0 06 3A 0C 76 0C 00 00 00 00 00 00 00 00 00 00
2026-07-26T17:03:04.268018,13.560,can0  070  [20]  C9 2C 4D 08 EF AE 62 03 A0 0F 00 00 03 00 00 00 21 00 00 00
2026-07-26T17:03:04.268082,13.560,can0  040  [04]  03 00 36 00
2026-07-26T17:03:04.268108,13.560,can0  204  [16]  9C 09 B1 FF 0F 95 1A DF 28 23 30 75 30 75 00 00
2026-07-26T17:03:04.268137,13.560,can0  060  [32]  C0 8C B3 0E 7F DA 4D 08 88 51 63 03 9D 00 F6 0A 18 01 80 00 00 00 00 00 02 00 00 00 00 00 00 00
2026-07-26T17:03:04.268169,13.560,can0  060  [32]  00 00 00 00 C9 2C 4D 08 43 04 B8 10 00 00 10 0E FF 01 00 00 00 00 00 01 02 00 00 00 00 00 00 00
2026-07-26T17:03:04.268590,13.560,can0  070  [20]  C9 2C 4D 08 EF AE 62 03 A0 0F 00 00 03 00 00 00 22 00 00 00
2026-07-26T17:03:04.268819,13.560,can0  204  [16]  9C 09 B1 FF 0F 95 1A DF 28 23 30 75 30 75 00 00
2026-07-26T17:03:04.367676,13.659,can0  070  [20]  C9 2C 4D 08 EF AE 62 03 A0 0F 00 00 03 00 00 00 22 00 00 00
2026-07-26T17:03:04.373103,13.665,can0  041  [04]  14 00 32 00
2026-07-26T17:03:04.373144,13.665,can0  204  [16]  9C 09 B1 FF 0F 95 1A DF 28 23 30 75 30 75 00 00
2026-07-26T17:03:04.373180,13.665,can0  206  [24]  9D 0C C8 06 4D 0C FC CC D0 06 3A 0C 71 0C 00 00 00 00 00 00 00 00 00 00
2026-07-26T17:03:04.467554,13.759,can0  204  [16]  9C 09 B1 FF 0F 95 1A DF 28 23 30 75 30 75 00 00
2026-07-26T17:03:04.467692,13.759,can0  040  [04]  67 01 30 00
2026-07-26T17:03:04.471861,13.763,can0  204  [16]  9C 09 B1 FF 0F 95 1A DF 28 23 30 75 30 75 00 00
2026-07-26T17:03:04.471909,13.764,can0  040  [04]  67 01 30 00
2026-07-26T17:03:04.567585,13.859,can0  130  [00]
2026-07-26T17:03:04.567809,13.859,can0  204  [16]  9C 09 B1 FF 0F 95 1A DF 28 23 30 75 30 75 00 00
2026-07-26T17:03:04.569536,13.861,can0  206  [24]  9D 0C C8 06 4D 0C 99 C6 CD 06 3A 0C 71 0C 00 00 00 00 00 00 00 00 00 00
2026-07-26T17:03:04.569770,13.861,can0  204  [16]  9C 09 B1 FF 0F 95 1A DF 28 23 30 75 30 75 00 00
2026-07-26T17:03:04.569945,13.862,can0  041  [04]  15 00 35 00
2026-07-26T17:03:04.668190,13.960,can0  204  [16]  9C 09 B1 FF 0F 95 1A DF 28 23 30 75 30 75 00 00
2026-07-26T17:03:04.668429,13.960,can0  040  [04]  65 01 2A 00
2026-07-26T17:03:04.671118,13.963,can0  204  [16]  9C 09 B1 FF 0F 95 1A DF 28 23 30 75 30 75 00 00
2026-07-26T17:03:04.671147,13.963,can0  206  [24]  84 0C C7 06 66 0C 99 C6 CC 06 3A 0C 71 0C 00 00 00 00 00 00 00 00 00 00
2026-07-26T17:03:04.767888,14.060,can0  060  [32]  00 00 00 00 00 00 00 00 00 00 00 00 00 00 00 00 00 00 00 00 00 00 00 00 00 00 00 00 00 00 00 00
2026-07-26T17:03:04.768042,14.060,can0  040  [04]  65 01 2A 00
2026-07-26T17:03:04.768283,14.060,can0  204  [16]  9C 09 B1 FF 0F 95 1A DF 28 23 30 75 30 75 00 00
2026-07-26T17:03:04.772412,14.064,can0  100  [03]  CF 71 04
2026-07-26T17:03:04.772452,14.064,can0  120  [04]  19 19 00 00
2026-07-26T17:03:04.867942,14.160,can0  070  [20]  C9 2C 4D 08 EF AE 62 03 A0 0F 00 00 03 00 00 00 22 00 00 00
2026-07-26T17:03:04.868156,14.160,can0  204  [16]  9C 09 B1 FF 0F 95 1A DF 28 23 30 75 30 75 00 00
2026-07-26T17:03:04.868408,14.160,can0  041  [04]  18 00 33 00
2026-07-26T17:03:04.870178,14.162,can0  206  [24]  7A 0C C5 06 71 0C 99 C6 CE 06 30 0C 76 0C 00 00 00 00 00 00 00 00 00 00
2026-07-26T17:03:04.870392,14.162,can0  204  [16]  9C 09 B1 FF 0F 95 1A DF 28 23 30 75 30 75 00 00
2026-07-26T17:03:04.968201,14.260,can0  070  [20]  C9 2C 4D 08 EF AE 62 03 A0 0F 00 00 03 00 00 00 22 00 00 00
2026-07-26T17:03:04.968471,14.260,can0  204  [16]  9C 09 B1 FF 0F 95 1A DF 28 23 30 75 30 75 00 00
2026-07-26T17:03:04.968679,14.260,can0  040  [04]  65 01 24 00
2026-07-26T17:03:04.968895,14.260,can0  204  [16]  9C 09 B1 FF 0F 95 1A DF 28 23 30 75 30 75 00 00
2026-07-26T17:03:05.068234,14.360,can0  131  [00]
2026-07-26T17:03:05.068487,14.360,can0  040  [04]  65 01 24 00
2026-07-26T17:03:05.070276,14.362,can0  206  [24]  7F 0C BD 06 6B 0C 99 C6 CC 06 35 0C 71 0C 00 00 00 00 00 00 00 00 00 00
2026-07-26T17:03:05.070496,14.362,can0  204  [16]  9C 09 B1 FF 0F 95 1A DF 28 23 30 75 30 75 00 00
2026-07-26T17:03:05.168249,14.460,can0  204  [16]  9C 09 B1 FF 0F 95 1A DF 28 23 30 75 30 75 00 00
2026-07-26T17:03:05.168432,14.460,can0  041  [04]  0D 00 30 00
2026-07-26T17:03:05.168634,14.460,can0  204  [16]  9C 09 B1 FF 0F 95 1A DF 28 23 30 75 30 75 00 00
2026-07-26T17:03:05.168820,14.460,can0  070  [20]  C9 2C 4D 08 EF AE 62 03 88 13 00 00 03 00 00 00 36 00 00 00
2026-07-26T17:03:05.170572,14.462,can0  206  [24]  7A 0C BD 06 6B 0C 99 C6 CB 06 2B 0C 76 0C 00 00 00 00 00 00 00 00 00 00
2026-07-26T17:03:05.267706,14.559,can0  070  [20]  C9 2C 4D 08 EF AE 62 03 88 13 00 00 03 00 00 00 37 00 00 00
2026-07-26T17:03:05.267901,14.560,can0  040  [04]  61 01 23 00
2026-07-26T17:03:05.268125,14.560,can0  204  [16]  9C 09 B1 FF 0F 95 1A DF 28 23 30 75 30 75 00 00
2026-07-26T17:03:05.268262,14.560,can0  060  [32]  00 00 00 00 C9 2C 4D 08 43 04 B8 10 00 00 10 0E FF 01 00 00 00 00 00 00 01 00 00 00 00 00 00 00
2026-07-26T17:03:05.268712,14.560,can0  204  [16]  9C 09 B1 FF 0F 95 1A DF 28 23 30 75 30 75 00 00
2026-07-26T17:03:05.268841,14.560,can0  133  [00]
2026-07-26T17:03:05.269004,14.561,can0  040  [04]  61 01 23 00
2026-07-26T17:03:05.367681,14.659,can0  070  [20]  C9 2C 4D 08 EF AE 62 03 88 13 00 00 03 00 00 00 37 00 00 00
2026-07-26T17:03:05.367912,14.660,can0  204  [16]  9C 09 B1 FF 0F 95 1A DF 28 23 30 75 30 75 00 00
2026-07-26T17:03:05.369734,14.661,can0  206  [24]  75 0C BE 06 6B 0C 99 C6 CE 06 2B 0C 7B 0C 00 00 00 00 00 00 00 00 00 00
2026-07-26T17:03:05.369893,14.661,can0  041  [04]  0E 00 2D 00
2026-07-26T17:03:05.370049,14.662,can0  204  [16]  9C 09 B1 FF 0F 95 1A DF 28 23 30 75 30 75 00 00
2026-07-26T17:03:05.467986,14.760,can0  204  [16]  9C 09 B1 FF 0F 95 1A DF 28 23 30 75 30 75 00 00
2026-07-26T17:03:05.468258,14.760,can0  040  [04]  01 00 29 00
2026-07-26T17:03:05.567924,14.860,can0  204  [16]  9C 09 B1 FF 0F 95 1A DF 28 23 30 75 30 75 00 00
2026-07-26T17:03:05.569750,14.861,can0  206  [24]  75 0C BF 06 71 0C 99 C6 CE 06 26 0C 7B 0C 00 00 00 00 00 00 00 00 00 00
2026-07-26T17:03:05.569981,14.862,can0  040  [04]  01 00 29 00
2026-07-26T17:03:05.570227,14.862,can0  204  [16]  9C 09 B1 FF 0F 95 1A DF 28 23 30 75 30 75 00 00
2026-07-26T17:03:05.570392,14.862,can0  110  [02]  1D 1B
2026-07-26T17:03:05.668195,14.960,can0  204  [16]  9C 09 B1 FF 0F 95 1A DF 28 23 30 75 30 75 00 00
2026-07-26T17:03:05.668458,14.960,can0  041  [04]  0E 00 2C 00
2026-07-26T17:03:05.668747,14.960,can0  204  [16]  9C 09 B1 FF 0F 95 1A DF 28 23 30 75 30 75 00 00
2026-07-26T17:03:05.670563,14.962,can0  206  [24]  76 0C BD 06 66 0C 99 C6 CE 06 2B 0C 7F 0C 00 00 00 00 00 00 00 00 00 00
2026-07-26T17:03:05.768165,15.060,can0  060  [32]  00 00 00 00 00 00 00 00 00 00 00 00 00 00 00 00 00 00 00 00 00 00 00 00 00 00 00 00 00 00 00 00
2026-07-26T17:03:05.768364,15.060,can0  204  [16]  9C 09 B1 FF 0F 95 1A DF 28 23 30 75 30 75 00 00
2026-07-26T17:03:05.768520,15.060,can0  040  [04]  08 00 29 00
2026-07-26T17:03:05.868281,15.160,can0  204  [16]  9C 09 B1 FF 0F 95 1A DF 28 23 30 75 30 75 00 00
2026-07-26T17:03:05.868439,15.160,can0  070  [20]  C9 2C 4D 08 EF AE 62 03 88 13 00 00 03 00 00 00 37 00 00 00
2026-07-26T17:03:05.870563,15.162,can0  040  [04]  08 00 29 00
2026-07-26T17:03:05.870613,15.162,can0  206  [24]  7B 0C C5 06 6B 0C 99 C6 D0 06 26 0C 7B 0C 00 00 00 00 00 00 00 00 00 00
2026-07-26T17:03:05.870744,15.162,can0  204  [16]  9C 09 B1 FF 0F 95 1A DF 28 23 30 75 30 75 00 00
2026-07-26T17:03:05.967947,15.260,can0  070  [20]  C9 2C 4D 08 EF AE 62 03 88 13 00 00 03 00 00 00 37 00 00 00
2026-07-26T17:03:05.968156,15.260,can0  041  [04]  11 00 2D 00
2026-07-26T17:03:05.968390,15.260,can0  204  [16]  9C 09 B1 FF 0F 95 1A DF 28 23 30 75 30 75 00 00
2026-07-26T17:03:05.968590,15.260,can0  204  [16]  9C 09 B1 FF 0F 95 1A DF 28 23 30 75 30 75 00 00
2026-07-26T17:03:05.968759,15.260,can0  100  [03]  CB 71 04
2026-07-26T17:03:05.968915,15.261,can0  120  [04]  27 19 00 00
2026-07-26T17:03:06.067806,15.359,can0  040  [04]  05 00 28 00
2026-07-26T17:03:06.069684,15.361,can0  206  [24]  7B 0C C4 06 6B 0C 99 C6 CC 06 35 0C 7B 0C 00 00 00 00 00 00 00 00 00 00
2026-07-26T17:03:06.069940,15.362,can0  204  [16]  9C 09 B1 FF 0F 95 1A DF 28 23 30 75 30 75 00 00
2026-07-26T17:03:06.070073,15.362,can0  040  [04]  05 00 28 00
2026-07-26T17:03:06.070221,15.362,can0  204  [16]  9C 09 B1 FF 0F 95 1A DF 28 23 30 75 30 75 00 00
2026-07-26T17:03:06.168274,15.460,can0  204  [16]  9C 09 B1 FF 0F 95 1A DF 28 23 30 75 30 75 00 00
2026-07-26T17:03:06.168445,15.460,can0  041  [04]  18 00 31 00
2026-07-26T17:03:06.168854,15.460,can0  070  [20]  C9 2C 4D 08 EF AE 62 03 70 17 00 00 03 00 00 00 1E 00 00 00
2026-07-26T17:03:06.170740,15.462,can0  206  [24]  7F 0C C4 06 6B 0C 99 C6 CB 06 30 0C 76 0C 00 00 00 00 00 00 00 00 00 00
2026-07-26T17:03:06.268293,15.560,can0  070  [20]  C9 2C 4D 08 EF AE 62 03 70 17 00 00 03 00 00 00 1E 00 00 00
2026-07-26T17:03:06.268513,15.560,can0  204  [16]  9C 09 B1 FF 0F 95 1A DF 28 23 30 75 30 75 00 00
2026-07-26T17:03:06.268731,15.560,can0  060  [32]  00 00 00 00 00 00 00 00 00 00 00 00 00 00 00 00 00 00 00 00 00 00 00 00 00 00 00 00 00 00 00 00
2026-07-26T17:03:06.268846,15.560,can0  060  [32]  00 00 00 00 C9 2C 4D 08 43 04 B8 10 00 00 10 0E FF 01 00 00 00 00 00 00 01 00 00 00 00 00 00 00
2026-07-26T17:03:06.269230,15.561,can0  204  [16]  9C 09 B1 FF 0F 95 1A DF 28 23 30 75 30 75 00 00
2026-07-26T17:03:06.269400,15.561,can0  070  [20]  C9 2C 4D 08 EF AE 62 03 70 17 00 00 03 00 00 00 1E 00 00 00
2026-07-26T17:03:06.273286,15.565,can0  040  [04]  01 00 2A 00
2026-07-26T17:03:06.368442,15.660,can0  204  [16]  9C 09 B1 FF 0F 95 1A DF 28 23 30 75 30 75 00 00
2026-07-26T17:03:06.368594,15.660,can0  040  [04]  01 00 2A 00
2026-07-26T17:03:06.371255,15.663,can0  206  [24]  7F 0C C4 06 71 0C 99 C6 CB 06 30 0C 71 0C 00 00 00 00 00 00 00 00 00 00
2026-07-26T17:03:06.371490,15.663,can0  204  [16]  9C 09 B1 FF 0F 95 1A DF 28 23 30 75 30 75 00 00
2026-07-26T17:03:06.467633,15.759,can0  041  [04]  19 00 33 00
2026-07-26T17:03:06.467922,15.760,can0  204  [16]  9C 09 B1 FF 0F 95 1A DF 28 23 30 75 30 75 00 00
2026-07-26T17:03:06.568433,15.860,can0  204  [16]  9C 09 B1 FF 0F 95 1A DF 28 23 30 75 30 75 00 00
2026-07-26T17:03:06.570251,15.862,can0  206  [24]  84 0C C6 06 6B 0C 99 C6 CC 06 2A 0C 71 0C 00 00 00 00 00 00 00 00 00 00
2026-07-26T17:03:06.570505,15.862,can0  040  [04]  01 00 2D 00
2026-07-26T17:03:06.570656,15.862,can0  204  [16]  9C 09 B1 FF 0F 95 1A DF 28 23 30 75 30 75 00 00
2026-07-26T17:03:06.667848,15.959,can0  040  [04]  01 00 2D 00
2026-07-26T17:03:06.668020,15.960,can0  204  [16]  9C 09 B1 FF 0F 95 1A DF 28 23 30 75 30 75 00 00
2026-07-26T17:03:06.668194,15.960,can0  204  [16]  9C 09 B1 FF 0F 95 1A DF 28 23 30 75 30 75 00 00
2026-07-26T17:03:06.670091,15.962,can0  206  [24]  84 0C C4 06 6B 0C 99 C6 CC 06 2A 0C 71 0C 00 00 00 00 00 00 00 00 00 00
2026-07-26T17:03:06.767719,16.059,can0  041  [04]  17 00 34 00
2026-07-26T17:03:06.767944,16.060,can0  204  [16]  9C 09 B1 FF 0F 95 1A DF 28 23 30 75 30 75 00 00
2026-07-26T17:03:06.768152,16.060,can0  060  [32]  00 00 00 00 00 00 00 00 00 00 00 00 00 00 00 00 00 00 00 00 00 00 00 00 00 00 00 00 00 00 00 00
2026-07-26T17:03:06.768350,16.060,can0  070  [20]  C9 2C 4D 08 EF AE 62 03 70 17 00 00 03 00 00 00 1E 00 00 00
2026-07-26T17:03:06.768554,16.060,can0  204  [16]  9C 09 B1 FF 0F 95 1A DF 28 23 30 75 30 75 00 00
2026-07-26T17:03:06.867916,16.160,can0  040  [04]  03 00 2F 00
2026-07-26T17:03:06.870686,16.162,can0  206  [24]  7F 0C C5 06 6B 0C 99 C6 CF 06 2A 0C 76 0C 00 00 00 00 00 00 00 00 00 00
2026-07-26T17:03:06.870940,16.163,can0  204  [16]  9C 09 B1 FF 0F 95 1A DF 28 23 30 75 30 75 00 00
2026-07-26T17:03:06.871114,16.163,can0  040  [04]  03 00 2F 00
2026-07-26T17:03:06.871360,16.163,can0  070  [20]  C9 2C 4D 08 EF AE 62 03 70 17 00 00 03 00 00 00 1E 00 00 00
2026-07-26T17:03:06.968284,16.260,can0  204  [16]  9C 09 B1 FF 0F 95 1A DF 28 23 30 75 30 75 00 00
2026-07-26T17:03:06.968556,16.260,can0  204  [16]  9C 09 B1 FF 0F 95 1A DF 28 23 30 75 30 75 00 00
2026-07-26T17:03:06.968797,16.260,can0  041  [04]  16 00 34 00
2026-07-26T17:03:07.069891,16.362,can0  206  [24]  7F 0C C5 06 66 0C 99 C6 D0 06 30 0C 76 0C 00 00 00 00 00 00 00 00 00 00
2026-07-26T17:03:07.070147,16.362,can0  204  [16]  9C 09 B1 FF 0F 95 1A DF 28 23 30 75 30 75 00 00
2026-07-26T17:03:07.070337,16.362,can0  204  [16]  9C 09 B1 FF 0F 95 1A DF 28 23 30 75 30 75 00 00
2026-07-26T17:03:07.070509,16.362,can0  040  [04]  06 00 35 00
2026-07-26T17:03:07.167751,16.459,can0  040  [04]  06 00 35 00
2026-07-26T17:03:07.167992,16.460,can0  204  [16]  9C 09 B1 FF 0F 95 1A DF 28 23 30 75 30 75 00 00
2026-07-26T17:03:07.168191,16.460,can0  070  [20]  C9 2C 4D 08 EF AE 62 03 58 1B 00 00 03 00 00 00 0B 00 00 00
2026-07-26T17:03:07.174033,16.466,can0  206  [24]  7B 0C C6 06 6B 0C 99 C6 D1 06 30 0C 7B 0C 00 00 00 00 00 00 00 00 00 00
2026-07-26T17:03:07.174080,16.466,can0  100  [03]  C6 71 04
2026-07-26T17:03:07.174111,16.466,can0  110  [02]  1C 1B
2026-07-26T17:03:07.174130,16.466,can0  120  [04]  28 19 00 00
2026-07-26T17:03:07.267937,16.560,can0  204  [16]  9C 09 B1 FF 0F 95 1A DF 28 23 30 75 30 75 00 00
2026-07-26T17:03:07.268385,16.560,can0  070  [20]  C9 2C 4D 08 EF AE 62 03 58 1B 00 00 03 00 00 00 0B 00 00 00
2026-07-26T17:03:07.268646,16.560,can0  041  [04]  1B 00 2F 00
2026-07-26T17:03:07.268793,16.560,can0  060  [32]  00 00 00 00 C9 2C 4D 08 43 04 B8 10 00 00 10 0E FF 01 00 00 00 00 00 00 01 00 00 00 00 00 00 00
2026-07-26T17:03:07.269237,16.561,can0  204  [16]  9C 09 B1 FF 0F 95 1A DF 28 23 30 75 30 75 00 00
2026-07-26T17:03:07.368132,16.660,can0  070  [20]  C9 2C 4D 08 EF AE 62 03 58 1B 00 00 03 00 00 00 0B 00 00 00
2026-07-26T17:03:07.368385,16.660,can0  204  [16]  9C 09 B1 FF 0F 95 1A DF 28 23 30 75 30 75 00 00
2026-07-26T17:03:07.370372,16.662,can0  206  [24]  7F 0C C6 06 6B 0C 99 C6 D2 06 35 0C 76 0C 00 00 00 00 00 00 00 00 00 00
2026-07-26T17:03:07.370528,16.662,can0  040  [04]  08 00 36 00
2026-07-26T17:03:07.370682,16.662,can0  204  [16]  9C 09 B1 FF 0F 95 1A DF 28 23 30 75 30 75 00 00
2026-07-26T17:03:07.370794,16.662,can0  040  [04]  08 00 36 00
2026-07-26T17:03:07.468251,16.760,can0  204  [16]  9C 09 B1 FF 0F 95 1A DF 28 23 30 75 30 75 00 00
2026-07-26T17:03:07.468456,16.760,can0  204  [16]  9C 09 B1 FF 0F 95 1A DF 28 23 30 75 30 75 00 00
2026-07-26T17:03:07.568413,16.860,can0  041  [04]  17 00 35 00
2026-07-26T17:03:07.571088,16.863,can0  206  [24]  7F 0C C9 06 66 0C 99 C6 D1 06 3A 0C 76 0C 00 00 00 00 00 00 00 00 00 00
2026-07-26T17:03:07.576305,16.868,can0  204  [16]  9C 09 B1 FF 0F 95 1A DF 28 23 30 75 30 75 00 00
2026-07-26T17:03:07.667737,16.959,can0  204  [16]  9C 09 B1 FF 0F 95 1A DF 28 23 30 75 30 75 00 00
2026-07-26T17:03:07.668012,16.960,can0  040  [04]  08 00 3C 00
2026-07-26T17:03:07.668288,16.960,can0  040  [04]  08 00 3C 00
2026-07-26T17:03:07.668626,16.960,can0  204  [16]  9C 09 B1 FF 0F 95 1A DF 28 23 30 75 30 75 00 00
2026-07-26T17:03:07.670923,16.963,can0  206  [24]  7F 0C C9 06 66 0C 99 C6 D1 06 3A 0C 76 0C 00 00 00 00 00 00 00 00 00 00
2026-07-26T17:03:07.768425,17.060,can0  204  [16]  9C 09 B1 FF 0F 95 1A DF 28 23 30 75 30 75 00 00
2026-07-26T17:03:07.768615,17.060,can0  060  [32]  00 00 00 00 00 00 00 00 00 00 00 00 00 00 00 00 00 00 00 00 00 00 00 00 00 00 00 00 00 00 00 00
2026-07-26T17:03:07.768793,17.060,can0  041  [04]  0F 00 34 00
2026-07-26T17:03:07.768986,17.061,can0  204  [16]  9C 09 B1 FF 0F 95 1A DF 28 23 30 75 30 75 00 00
2026-07-26T17:03:07.867541,17.159,can0  070  [20]  C9 2C 4D 08 EF AE 62 03 58 1B 00 00 03 00 00 00 0B 00 00 00
2026-07-26T17:03:07.873636,17.165,can0  206  [24]  76 0C C8 06 66 0C 99 C6 D0 06 3A 0C 7F 0C 00 00 00 00 00 00 00 00 00 00
2026-07-26T17:03:07.873674,17.165,can0  204  [16]  9C 09 B1 FF 0F 95 1A DF 28 23 30 75 30 75 00 00
2026-07-26T17:03:07.873695,17.165,can0  040  [04]  08 00 39 00
2026-07-26T17:03:07.873713,17.165,can0  070  [20]  C9 2C 4D 08 EF AE 62 03 58 1B 00 00 03 00 00 00 0B 00 00 00
2026-07-26T17:03:07.970379,17.262,can0  204  [16]  9C 09 B1 FF 0F 95 1A DF 28 23 30 75 30 75 00 00
2026-07-26T17:03:07.970633,17.262,can0  040  [04]  08 00 39 00
2026-07-26T17:03:07.970839,17.262,can0  204  [16]  9C 09 B1 FF 0F 95 1A DF 28 23 30 75 30 75 00 00
2026-07-26T17:03:08.070132,17.362,can0  206  [24]  76 0C C7 06 61 0C 99 C6 CD 06 3A 0C 7F 0C 00 00 00 00 00 00 00 00 00 00
2026-07-26T17:03:08.070315,17.362,can0  204  [16]  9C 09 B1 FF 0F 95 1A DF 28 23 30 75 30 75 00 00
2026-07-26T17:03:08.070447,17.362,can0  041  [04]  0A 00 33 00
2026-07-26T17:03:08.070579,17.362,can0  204  [16]  9C 09 B1 FF 0F 95 1A DF 28 23 30 75 30 75 00 00
2026-07-26T17:03:08.168409,17.460,can0  204  [16]  9C 09 B1 FF 0F 95 1A DF 28 23 30 75 30 75 00 00
2026-07-26T17:03:08.175882,17.467,can0  040  [04]  08 00 3C 00
2026-07-26T17:03:08.178487,17.470,can0  206  [24]  76 0C C7 06 61 0C 99 C6 C6 06 3F 0C 7F 0C 00 00 00 00 00 00 00 00 00 00
2026-07-26T17:03:08.184030,17.476,can0  070  [20]  C9 2C 4D 08 EF AE 62 03 40 1F 00 00 03 00 00 00 06 00 00 00
2026-07-26T17:03:08.184098,17.476,can0  204  [16]  9C 09 B1 FF 0F 95 1A DF 28 23 30 75 30 75 00 00
2026-07-26T17:03:08.267882,17.559,can0  070  [20]  C9 2C 4D 08 EF AE 62 03 40 1F 00 00 03 00 00 00 05 00 00 00
2026-07-26T17:03:08.268199,17.560,can0  040  [04]  08 00 3C 00
2026-07-26T17:03:08.268464,17.560,can0  204  [16]  9C 09 B1 FF 0F 95 1A DF 28 23 30 75 30 75 00 00
2026-07-26T17:03:08.268793,17.560,can0  060  [32]  00 00 00 00 00 00 00 00 00 00 00 00 00 00 00 00 00 00 00 00 00 00 00 00 00 00 00 00 00 00 00 00
2026-07-26T17:03:08.268931,17.561,can0  060  [32]  00 00 00 00 C9 2C 4D 08 43 04 B8 10 00 00 10 0E FF 01 00 00 00 00 00 00 01 00 00 00 00 00 00 00
2026-07-26T17:03:08.274959,17.567,can0  041  [04]  0C 00 31 00
2026-07-26T17:03:08.368449,17.660,can0  070  [20]  C9 2C 4D 08 EF AE 62 03 40 1F 00 00 03 00 00 00 05 00 00 00
2026-07-26T17:03:08.368692,17.660,can0  204  [16]  9C 09 B1 FF 0F 95 1A DF 28 23 30 75 30 75 00 00
2026-07-26T17:03:08.371514,17.663,can0  206  [24]  76 0C C5 06 61 0C 99 C6 C7 06 3F 0C 7F 0C 00 00 00 00 00 00 00 00 00 00
2026-07-26T17:03:08.371864,17.663,can0  204  [16]  9C 09 B1 FF 0F 95 1A DF 28 23 30 75 30 75 00 00
2026-07-26T17:03:08.372380,17.664,can0  100  [03]  C2 71 04
2026-07-26T17:03:08.378270,17.670,can0  120  [04]  28 19 00 00
2026-07-26T17:03:08.468281,17.760,can0  040  [04]  08 00 3D 00
2026-07-26T17:03:08.468565,17.760,can0  204  [16]  9C 09 B1 FF 0F 95 1A DF 28 23 30 75 30 75 00 00
2026-07-26T17:03:08.468778,17.760,can0  040  [04]  08 00 3D 00
2026-07-26T17:03:08.469049,17.761,can0  204  [16]  9C 09 B1 FF 0F 95 1A DF 28 23 30 75 30 75 00 00
2026-07-26T17:03:08.569360,17.861,can0  206  [24]  71 0C C6 06 62 0C 99 C6 C8 06 43 0C 7F 0C 00 00 00 00 00 00 00 00 00 00
2026-07-26T17:03:08.569589,17.861,can0  204  [16]  9C 09 B1 FF 0F 95 1A DF 28 23 30 75 30 75 00 00
2026-07-26T17:03:08.569768,17.861,can0  041  [04]  11 00 2D 00
2026-07-26T17:03:08.668288,17.960,can0  204  [16]  9C 09 B1 FF 0F 95 1A DF 28 23 30 75 30 75 00 00
2026-07-26T17:03:08.668451,17.960,can0  204  [16]  9C 09 B1 FF 0F 95 1A DF 28 23 30 75 30 75 00 00
2026-07-26T17:03:08.670438,17.962,can0  206  [24]  61 0C C6 06 62 0C 99 C6 C8 06 3F 0C 8F 0C 00 00 00 00 00 00 00 00 00 00
2026-07-26T17:03:08.674387,17.966,can0  040  [04]  0A 00 38 00
2026-07-26T17:03:08.768037,18.060,can0  204  [16]  9C 09 B1 FF 0F 95 1A DF 28 23 30 75 30 75 00 00
2026-07-26T17:03:08.768248,18.060,can0  040  [04]  0A 00 38 00
2026-07-26T17:03:08.768446,18.060,can0  060  [32]  00 00 00 00 00 00 00 00 00 00 00 00 00 00 00 00 00 00 00 00 00 00 00 00 00 00 00 00 00 00 00 00
2026-07-26T17:03:08.768659,18.060,can0  204  [16]  9C 09 B1 FF 0F 95 1A DF 28 23 30 75 30 75 00 00
2026-07-26T17:03:08.768822,18.060,can0  110  [02]  1C 1B
2026-07-26T17:03:08.769023,18.061,can0  070  [20]  C9 2C 4D 08 EF AE 62 03 40 1F 00 00 03 00 00 00 05 00 00 00
2026-07-26T17:03:08.867543,18.159,can0  041  [04]  15 00 30 00
2026-07-26T17:03:08.870216,18.162,can0  206  [24]  61 0C C6 06 66 0C 99 C6 C9 06 3A 0C 8F 0C 00 00 00 00 00 00 00 00 00 00
2026-07-26T17:03:08.870459,18.162,can0  204  [16]  9C 09 B1 FF 0F 95 1A DF 28 23 30 75 30 75 00 00
2026-07-26T17:03:08.870654,18.162,can0  204  [16]  9C 09 B1 FF 0F 95 1A DF 28 23 30 75 30 75 00 00
2026-07-26T17:03:08.967746,18.259,can0  070  [20]  C9 2C 4D 08 EF AE 62 03 40 1F 00 00 03 00 00 00 05 00 00 00
2026-07-26T17:03:08.967889,18.259,can0  060  [32]  C0 8C B3 0E C1 DA 4D 08 5E 4F 63 03 9E 00 F4 0A 18 01 80 00 00 00 00 00 01 00 00 00 00 00 00 00
2026-07-26T17:03:08.968314,18.260,can0  040  [04]  0C 00 36 00
2026-07-26T17:03:08.968528,18.260,can0  204  [16]  9C 09 B1 FF 0F 95 1A DF 28 23 30 75 30 75 00 00
2026-07-26T17:03:08.968680,18.260,can0  040  [04]  0C 00 36 00
2026-07-26T17:03:08.971010,18.263,can0  206  [24]  66 0C C4 06 62 0C 99 C6 CC 06 3F 0C 8A 0C 00 00 00 00 00 00 00 00 00 00
2026-07-26T17:03:09.068736,18.360,can0  204  [16]  9C 09 B1 FF 0F 95 1A DF 28 23 30 75 30 75 00 00
2026-07-26T17:03:09.069125,18.361,can0  204  [16]  9C 09 B1 FF 0F 95 1A DF 28 23 30 75 30 75 00 00
2026-07-26T17:03:09.079302,18.371,can0  041  [04]  13 00 32 00
2026-07-26T17:03:09.169583,18.461,can0  204  [16]  9C 09 B1 FF 0F 95 1A DF 28 23 30 75 30 75 00 00
2026-07-26T17:03:09.169656,18.461,can0  070  [20]  C9 2C 4D 08 ED AE 62 03 28 23 00 00 03 00 00 00 11 00 00 00
2026-07-26T17:03:09.171458,18.463,can0  206  [24]  66 0C C6 06 62 0C 99 C6 CC 06 43 0C 8A 0C 00 00 00 00 00 00 00 00 00 00
2026-07-26T17:03:09.171588,18.463,can0  204  [16]  9C 09 B1 FF 0F 95 1A DF 28 23 30 75 30 75 00 00
2026-07-26T17:03:09.267958,18.560,can0  070  [20]  C9 2C 4D 08 ED AE 62 03 28 23 00 00 03 00 00 00 10 00 00 00
2026-07-26T17:03:09.268181,18.560,can0  040  [04]  0C 00 37 00
2026-07-26T17:03:09.268407,18.560,can0  204  [16]  9C 09 B1 FF 0F 95 1A DF 28 23 30 75 30 75 00 00
2026-07-26T17:03:09.268565,18.560,can0  040  [04]  0C 00 37 00
2026-07-26T17:03:09.367911,18.660,can0  070  [20]  C9 2C 4D 08 ED AE 62 03 28 23 00 00 03 00 00 00 10 00 00 00
2026-07-26T17:03:09.368140,18.660,can0  204  [16]  9C 09 B1 FF 0F 95 1A DF 28 23 30 75 30 75 00 00
2026-07-26T17:03:09.369878,18.661,can0  206  [24]  66 0C C6 06 6B 0C 99 C6 CB 06 3A 0C 8A 0C 00 00 00 00 00 00 00 00 00 00
2026-07-26T17:03:09.370144,18.662,can0  204  [16]  9C 09 B1 FF 0F 95 1A DF 28 23 30 75 30 75 00 00
2026-07-26T17:03:09.370280,18.662,can0  041  [04]  14 00 2E 00
2026-07-26T17:03:09.468176,18.760,can0  204  [16]  9C 09 B1 FF 0F 95 1A DF 28 23 30 75 30 75 00 00
2026-07-26T17:03:09.468386,18.760,can0  040  [04]  0A 00 3A 00
2026-07-26T17:03:09.468642,18.760,can0  204  [16]  9C 09 B1 FF 0F 95 1A DF 28 23 30 75 30 75 00 00
2026-07-26T17:03:09.470374,18.762,can0  206  [24]  7A 0C C6 06 6B 0C 99 C6 C9 06 3A 0C 76 0C 00 00 00 00 00 00 00 00 00 00
2026-07-26T17:03:09.568226,18.860,can0  204  [16]  9C 09 B1 FF 0F 95 1A DF 28 23 30 75 30 75 00 00
2026-07-26T17:03:09.568450,18.860,can0  040  [04]  0A 00 3A 00
2026-07-26T17:03:09.568620,18.860,can0  100  [03]  BC 71 04
2026-07-26T17:03:09.568781,18.860,can0  120  [04]  2A 19 00 00
2026-07-26T17:03:09.573031,18.865,can0  204  [16]  9C 09 B1 FF 0F 95 1A DF 28 23 30 75 30 75 00 00
2026-07-26T17:03:09.668042,18.960,can0  041  [04]  14 00 29 00
2026-07-26T17:03:09.668244,18.960,can0  204  [16]  9C 09 B1 FF 0F 95 1A DF 28 23 30 75 30 75 00 00
2026-07-26T17:03:09.670204,18.962,can0  206  [24]  7A 0C C7 06 6B 0C 99 C6 C9 06 3A 0C 76 0C 00 00 00 00 00 00 00 00 00 00
2026-07-26T17:03:09.768162,19.060,can0  204  [16]  9C 09 B1 FF 0F 95 1A DF 28 23 30 75 30 75 00 00
2026-07-26T17:03:09.768364,19.060,can0  040  [04]  06 00 38 00
2026-07-26T17:03:09.768571,19.060,can0  204  [16]  9C 09 B1 FF 0F 95 1A DF 28 23 30 75 30 75 00 00
2026-07-26T17:03:09.868381,19.160,can0  070  [20]  C9 2C 4D 08 ED AE 62 03 28 23 00 00 03 00 00 00 10 00 00 00
2026-07-26T17:03:09.868658,19.160,can0  040  [04]  06 00 38 00
2026-07-26T17:03:09.872482,19.164,can0  206  [24]  7A 0C C7 06 71 0C 99 C6 CB 06 30 0C 76 0C 00 00 00 00 00 00 00 00 00 00
2026-07-26T17:03:09.872539,19.164,can0  204  [16]  9C 09 B1 FF 0F 95 1A DF 28 23 30 75 30 75 00 00
2026-07-26T17:03:09.872577,19.164,can0  204  [16]  9C 09 B1 FF 0F 95 1A DF 28 23 30 75 30 75 00 00
2026-07-26T17:03:09.872614,19.164,can0  041  [04]  17 00 2A 00
2026-07-26T17:03:09.872653,19.164,can0  070  [20]  C9 2C 4D 08 ED AE 62 03 28 23 00 00 03 00 00 00 10 00 00 00
2026-07-26T17:03:09.967937,19.260,can0  204  [16]  9C 09 B1 FF 0F 95 1A DF 28 23 30 75 30 75 00 00
2026-07-26T17:03:09.970205,19.262,can0  206  [24]  7A 0C C8 06 6B 0C 99 C6 CB 06 35 0C 76 0C 00 00 00 00 00 00 00 00 00 00
2026-07-26T17:03:10.067590,19.359,can0  204  [16]  9C 09 B1 FF 0F 95 1A DF 28 23 30 75 30 75 00 00
2026-07-26T17:03:10.067750,19.359,can0  040  [04]  02 00 31 00
2026-07-26T17:03:10.067878,19.359,can0  040  [04]  02 00 31 00
2026-07-26T17:03:10.068030,19.360,can0  204  [16]  9C 09 B1 FF 0F 95 1A DF 28 23 30 75 30 75 00 00
2026-07-26T17:03:10.167706,19.459,can0  204  [16]  9C 09 B1 FF 0F 95 1A DF 28 23 30 75 30 75 00 00
2026-07-26T17:03:10.169644,19.461,can0  206  [24]  7A 0C C7 06 66 0C 99 C6 C9 06 3A 0C 76 0C 00 00 00 00 00 00 00 00 00 00
2026-07-26T17:03:10.169796,19.461,can0  041  [04]  11 00 28 00
2026-07-26T17:03:10.170011,19.462,can0  204  [16]  9C 09 B1 FF 0F 95 1A DF 28 23 30 75 30 75 00 00
2026-07-26T17:03:10.170169,19.462,can0  070  [20]  C9 2C 4D 08 ED AE 62 03 10 27 00 00 03 00 00 00 09 00 00 00
2026-07-26T17:03:10.267884,19.559,can0  070  [20]  C9 2C 4D 08 ED AE 62 03 10 27 00 00 03 00 00 00 0A 00 00 00
2026-07-26T17:03:10.268038,19.560,can0  204  [16]  9C 09 B1 FF 0F 95 1A DF 28 23 30 75 30 75 00 00
2026-07-26T17:03:10.268199,19.560,can0  070  [20]  C9 2C 4D 08 ED AE 62 03 10 27 00 00 03 00 00 00 0A 00 00 00
2026-07-26T17:03:10.268344,19.560,can0  040  [04]  08 00 2D 00
2026-07-26T17:03:10.268493,19.560,can0  204  [16]  9C 09 B1 FF 0F 95 1A DF 28 23 30 75 30 75 00 00
2026-07-26T17:03:10.268603,19.560,can0  060  [32]  00 00 00 00 C9 2C 4D 08 42 04 B8 10 00 00 10 0E FF 01 00 00 00 00 00 00 01 00 00 00 00 00 00 00
2026-07-26T17:03:10.370351,19.662,can0  040  [04]  08 00 2D 00
2026-07-26T17:03:10.370412,19.662,can0  206  [24]  7A 0C C6 06 66 0C 09 CC CE 06 3A 0C 76 0C 00 00 00 00 00 00 00 00 00 00
2026-07-26T17:03:10.370598,19.662,can0  204  [16]  9C 09 B1 FF 0F 95 1A DF 28 23 30 75 30 75 00 00
2026-07-26T17:03:10.370757,19.662,can0  110  [02]  1C 1B
2026-07-26T17:03:10.468364,19.760,can0  204  [16]  9C 09 B1 FF 0F 95 1A DF 28 23 30 75 30 75 00 00
2026-07-26T17:03:10.468548,19.760,can0  041  [04]  12 00 25 00
2026-07-26T17:03:10.468807,19.760,can0  204  [16]  9C 09 B1 FF 0F 95 1A DF 28 23 30 75 30 75 00 00
2026-07-26T17:03:10.470717,19.762,can0  206  [24]  7A 0C C4 06 66 0C 09 CC CF 06 3F 0C 76 0C 00 00 00 00 00 00 00 00 00 00
2026-07-26T17:03:10.568182,19.860,can0  204  [16]  9C 09 B1 FF 0F 95 1A DF 28 23 30 75 30 75 00 00
2026-07-26T17:03:10.568437,19.860,can0  040  [04]  0C 00 2F 00
2026-07-26T17:03:10.568605,19.860,can0  040  [04]  0C 00 2F 00
2026-07-26T17:03:10.568813,19.860,can0  204  [16]  9C 09 B1 FF 0F 95 1A DF 28 23 30 75 30 75 00 00
2026-07-26T17:03:10.668098,19.960,can0  204  [16]  9C 09 B1 FF 0F 95 1A DF 28 23 30 75 30 75 00 00
2026-07-26T17:03:10.670799,19.962,can0  206  [24]  7A 0C C5 06 66 0C 09 CC C9 06 3F 0C 76 0C 00 00 00 00 00 00 00 00 00 00
2026-07-26T17:03:10.671012,19.963,can0  041  [04]  16 00 24 00
2026-07-26T17:03:10.767621,20.059,can0  204  [16]  9C 09 B1 FF 0F 95 1A DF 28 23 30 75 30 75 00 00
2026-07-26T17:03:10.767861,20.059,can0  204  [16]  9C 09 B1 FF 0F 95 1A DF 28 23 30 75 30 75 00 00
2026-07-26T17:03:10.768063,20.060,can0  070  [20]  C9 2C 4D 08 ED AE 62 03 10 27 00 00 03 00 00 00 0A 00 00 00
2026-07-26T17:03:10.768249,20.060,can0  100  [03]  B7 71 04
2026-07-26T17:03:10.768436,20.060,can0  120  [04]  23 19 00 00
2026-07-26T17:03:10.768645,20.060,can0  060  [32]  00 00 00 00 00 00 00 00 00 00 00 00 00 00 00 00 00 00 00 00 00 00 00 00 00 00 00 00 00 00 00 00
2026-07-26T17:03:10.772931,20.065,can0  040  [04]  03 00 2E 00
2026-07-26T17:03:10.868745,20.160,can0  204  [16]  9C 09 B1 FF 0F 95 1A DF 28 23 30 75 30 75 00 00
2026-07-26T17:03:10.871201,20.163,can0  206  [24]  7A 0C C4 06 6B 0C 09 CC CC 06 3F 0C 76 0C 00 00 00 00 00 00 00 00 00 00
2026-07-26T17:03:10.871360,20.163,can0  040  [04]  03 00 2E 00
2026-07-26T17:03:10.871573,20.163,can0  204  [16]  9C 09 B1 FF 0F 95 1A DF 28 23 30 75 30 75 00 00
2026-07-26T17:03:10.871922,20.164,can0  070  [20]  C9 2C 4D 08 ED AE 62 03 10 27 00 00 03 00 00 00 0A 00 00 00
2026-07-26T17:03:10.970442,20.262,can0  204  [16]  9C 09 B1 FF 0F 95 1A DF 28 23 30 75 30 75 00 00
2026-07-26T17:03:10.970495,20.262,can0  041  [04]  15 00 23 00
2026-07-26T17:03:10.970521,20.262,can0  206  [24]  7A 0C C5 06 6B 0C 09 CC CC 06 3A 0C 76 0C 00 00 00 00 00 00 00 00 00 00
2026-07-26T17:03:10.970729,20.262,can0  204  [16]  9C 09 B1 FF 0F 95 1A DF 28 23 30 75 30 75 00 00
2026-07-26T17:03:11.068268,20.360,can0  204  [16]  9C 09 B1 FF 0F 95 1A DF 28 23 30 75 30 75 00 00
2026-07-26T17:03:11.068453,20.360,can0  040  [04]  02 00 2E 00
2026-07-26T17:03:11.167663,20.459,can0  204  [16]  9C 09 B1 FF 0F 95 1A DF 28 23 30 75 30 75 00 00
2026-07-26T17:03:11.167836,20.459,can0  040  [04]  02 00 2E 00
2026-07-26T17:03:11.168905,20.461,can0  206  [24]  7A 0C C5 06 6B 0C 99 C6 C9 06 3A 0C 76 0C 00 00 00 00 00 00 00 00 00 00
2026-07-26T17:03:11.174274,20.466,can0  070  [20]  C9 2C 4D 08 ED AE 62 03 F8 2A 00 00 03 00 00 00 09 00 00 00
2026-07-26T17:03:11.174318,20.466,can0  204  [16]  9C 09 B1 FF 0F 95 1A DF 28 23 30 75 30 75 00 00
2026-07-26T17:03:11.267643,20.559,can0  041  [04]  12 00 25 00
2026-07-26T17:03:11.267786,20.559,can0  070  [20]  C9 2C 4D 08 ED AE 62 03 F8 2A 00 00 03 00 00 00 09 00 00 00
2026-07-26T17:03:11.267936,20.560,can0  204  [16]  9C 09 B1 FF 0F 95 1A DF 28 23 30 75 30 75 00 00
2026-07-26T17:03:11.268094,20.560,can0  204  [16]  9C 09 B1 FF 0F 95 1A DF 28 23 30 75 30 75 00 00
2026-07-26T17:03:11.268224,20.560,can0  070  [20]  C9 2C 4D 08 ED AE 62 03 F8 2A 00 00 03 00 00 00 09 00 00 00
2026-07-26T17:03:11.384348,20.676,can0  206  [24]  71 0C C6 06 71 0C 99 C6 CB 06 35 0C 7F 0C 00 00 00 00 00 00 00 00 00 00
2026-07-26T17:03:11.386304,20.678,can0  060  [32]  00 00 00 00 C9 2C 4D 08 42 04 B8 10 00 00 10 0E FF 01 00 00 00 00 00 00 01 00 00 00 00 00 00 00
2026-07-26T17:03:11.387069,20.679,can0  204  [16]  9C 09 B1 FF 0F 95 1A DF 28 23 30 75 30 75 00 00
2026-07-26T17:03:11.387320,20.679,can0  040  [04]  08 00 2B 00
2026-07-26T17:03:11.387532,20.679,can0  040  [04]  08 00 2B 00
2026-07-26T17:03:11.466271,20.758,can0  204  [16]  9C 09 B1 FF 0F 95 1A DF 28 23 30 75 30 75 00 00
2026-07-26T17:03:11.466462,20.758,can0  204  [16]  9C 09 B1 FF 0F 95 1A DF 28 23 30 75 30 75 00 00
2026-07-26T17:03:11.466594,20.758,can0  206  [24]  6B 0C C6 06 6B 0C 99 C6 D0 06 3A 0C 85 0C 00 00 00 00 00 00 00 00 00 00
2026-07-26T17:03:11.468913,20.761,can0  041  [04]  15 00 2C 00
2026-07-26T17:03:11.588738,20.880,can0  204  [16]  9C 09 B1 FF 0F 95 1A DF 28 23 30 75 30 75 00 00
2026-07-26T17:03:11.588904,20.881,can0  204  [16]  9C 09 B1 FF 0F 95 1A DF 28 23 30 75 30 75 00 00
2026-07-26T17:03:11.676397,20.968,can0  040  [04]  09 00 2C 00
2026-07-26T17:03:11.676565,20.968,can0  204  [16]  9C 09 B1 FF 0F 95 1A DF 28 23 30 75 30 75 00 00
2026-07-26T17:03:11.678568,20.970,can0  206  [24]  71 0C C5 06 6B 0C 99 C6 D0 06 3A 0C 7F 0C 00 00 00 00 00 00 00 00 00 00
2026-07-26T17:03:11.678699,20.970,can0  040  [04]  09 00 2C 00
2026-07-26T17:03:11.678845,20.970,can0  204  [16]  9C 09 B1 FF 0F 95 1A DF 28 23 30 75 30 75 00 00
2026-07-26T17:03:11.782768,21.074,can0  204  [16]  9C 09 B1 FF 0F 95 1A DF 28 23 30 75 30 75 00 00
2026-07-26T17:03:11.783009,21.075,can0  041  [04]  14 00 32 00
2026-07-26T17:03:11.783050,21.075,can0  070  [20]  C9 2C 4D 08 ED AE 62 03 F8 2A 00 00 03 00 00 00 09 00 00 00
2026-07-26T17:03:11.879788,21.171,can0  204  [16]  9C 09 B1 FF 0F 95 1A DF 28 23 30 75 30 75 00 00
2026-07-26T17:03:11.881649,21.173,can0  206  [24]  71 0C C4 06 6B 0C 99 C6 D1 06 3A 0C 7F 0C 00 00 00 00 00 00 00 00 00 00
2026-07-26T17:03:11.881802,21.173,can0  040  [04]  0A 00 31 00
2026-07-26T17:03:11.881962,21.174,can0  204  [16]  9C 09 B1 FF 0F 95 1A DF 28 23 30 75 30 75 00 00
2026-07-26T17:03:11.882343,21.174,can0  070  [20]  C9 2C 4D 08 ED AE 62 03 F8 2A 00 00 03 00 00 00 09 00 00 00
2026-07-26T17:03:11.968057,21.260,can0  132  [00]
2026-07-26T17:03:11.968219,21.260,can0  040  [04]  0A 00 31 00
2026-07-26T17:03:11.968414,21.260,can0  204  [16]  9C 09 B1 FF 0F 95 1A DF 28 23 30 75 30 75 00 00
2026-07-26T17:03:11.968597,21.260,can0  100  [03]  B0 71 04
2026-07-26T17:03:11.970450,21.262,can0  206  [24]  71 0C C4 06 6B 0C 99 C6 D1 06 3A 0C 7F 0C 00 00 00 00 00 00 00 00 00 00
2026-07-26T17:03:11.970581,21.262,can0  110  [02]  1B 1B
2026-07-26T17:03:11.970693,21.262,can0  120  [04]  1C 19 00 00
2026-07-26T17:03:11.970837,21.262,can0  204  [16]  9C 09 B1 FF 0F 95 1A DF 28 23 30 75 30 75 00 00
2026-07-26T17:03:12.068173,21.360,can0  041  [04]  15 00 33 00
2026-07-26T17:03:12.068383,21.360,can0  204  [16]  9C 09 B1 FF 0F 95 1A DF 28 23 30 75 30 75 00 00
2026-07-26T17:03:12.167960,21.460,can0  204  [16]  9C 09 B1 FF 0F 95 1A DF 28 23 30 75 30 75 00 00
2026-07-26T17:03:12.168174,21.460,can0  040  [04]  06 00 36 00
2026-07-26T17:03:12.169929,21.462,can0  206  [24]  7A 0C C4 06 6B 0C 99 C6 D1 06 3A 0C 76 0C 00 00 00 00 00 00 00 00 00 00
2026-07-26T17:03:12.170196,21.462,can0  070  [20]  CA 2C 4D 08 EF AE 62 03 E0 2E 00 00 03 00 00 00 0F 00 00 00
2026-07-26T17:03:12.170368,21.462,can0  204  [16]  9C 09 B1 FF 0F 95 1A DF 28 23 30 75 30 75 00 00
2026-07-26T17:03:12.170543,21.462,can0  070  [20]  CA 2C 4D 08 EF AE 62 03 E0 2E 00 00 03 00 00 00 0F 00 00 00
2026-07-26T17:03:12.170698,21.462,can0  040  [04]  06 00 36 00
2026-07-26T17:03:12.267782,21.559,can0  204  [16]  9C 09 B1 FF 0F 95 1A DF 28 23 30 75 30 75 00 00
2026-07-26T17:03:12.267973,21.560,can0  070  [20]  CA 2C 4D 08 EF AE 62 03 E0 2E 00 00 03 00 00 00 0F 00 00 00
2026-07-26T17:03:12.268170,21.560,can0  204  [16]  9C 09 B1 FF 0F 95 1A DF 28 23 30 75 30 75 00 00
2026-07-26T17:03:12.268348,21.560,can0  041  [04]  19 00 34 00
2026-07-26T17:03:12.369882,21.661,can0  206  [24]  7A 0C C3 06 6B 0C 99 C6 D0 06 3A 0C 76 0C 00 00 00 00 00 00 00 00 00 00
2026-07-26T17:03:12.370176,21.662,can0  060  [32]  EE DF E8 05 05 CD 4D 08 ED 50 63 03 37 00 B2 03 5B 00 80 00 00 00 00 00 02 00 00 00 00 00 00 00
2026-07-26T17:03:12.370291,21.662,can0  060  [32]  00 00 00 00 CA 2C 4D 08 43 04 B8 10 00 00 10 0E FF 01 00 00 00 00 00 01 02 00 00 00 00 00 00 00
2026-07-26T17:03:12.370689,21.662,can0  204  [16]  9C 09 B1 FF 0F 95 1A DF 28 23 30 75 30 75 00 00
2026-07-26T17:03:12.371005,21.663,can0  040  [04]  07 00 38 00
2026-07-26T17:03:12.371044,21.663,can0  204  [16]  9C 09 B1 FF 0F 95 1A DF 28 23 30 75 30 75 00 00
2026-07-26T17:03:12.468137,21.760,can0  204  [16]  9C 09 B1 FF 0F 95 1A DF 28 23 30 75 30 75 00 00
2026-07-26T17:03:12.468287,21.760,can0  040  [04]  07 00 38 00
2026-07-26T17:03:12.470238,21.762,can0  206  [24]  75 0C C4 06 6B 0C 99 C6 CE 06 3F 0C 7B 0C 00 00 00 00 00 00 00 00 00 00
2026-07-26T17:03:12.568416,21.860,can0  204  [16]  9C 09 B1 FF 0F 95 1A DF 28 23 30 75 30 75 00 00
2026-07-26T17:03:12.568562,21.860,can0  041  [04]  1B 00 32 00
2026-07-26T17:03:12.568704,21.860,can0  204  [16]  9C 09 B1 FF 0F 95 1A DF 28 23 30 75 30 75 00 00
2026-07-26T17:03:12.667626,21.959,can0  204  [16]  9C 09 B1 FF 0F 95 1A DF 28 23 30 75 30 75 00 00
2026-07-26T17:03:12.669567,21.961,can0  206  [24]  7A 0C C4 06 71 0C 99 C6 CD 06 3A 0C 76 0C 00 00 00 00 00 00 00 00 00 00
2026-07-26T17:03:12.669763,21.961,can0  040  [04]  05 00 36 00
2026-07-26T17:03:12.669963,21.962,can0  204  [16]  9C 09 B1 FF 0F 95 1A DF 28 23 30 75 30 75 00 00
2026-07-26T17:03:12.767463,22.059,can0  040  [04]  05 00 36 00
2026-07-26T17:03:12.767668,22.059,can0  204  [16]  9C 09 B1 FF 0F 95 1A DF 28 23 30 75 30 75 00 00
2026-07-26T17:03:12.767842,22.059,can0  070  [20]  CA 2C 4D 08 EF AE 62 03 E0 2E 00 00 03 00 00 00 0F 00 00 00
2026-07-26T17:03:12.867785,22.159,can0  204  [16]  9C 09 B1 FF 0F 95 1A DF 28 23 30 75 30 75 00 00
2026-07-26T17:03:12.869664,22.161,can0  206  [24]  71 0C C4 06 7A 0C 99 C6 CC 06 3A 0C 76 0C 00 00 00 00 00 00 00 00 00 00
2026-07-26T17:03:12.869873,22.161,can0  060  [32]  00 00 00 00 00 00 00 00 00 00 00 00 00 00 00 00 00 00 00 00 00 00 00 00 00 00 00 00 00 00 00 00
2026-07-26T17:03:12.870049,22.162,can0  041  [04]  1B 00 31 00
2026-07-26T17:03:12.870251,22.162,can0  204  [16]  9C 09 B1 FF 0F 95 1A DF 28 23 30 75 30 75 00 00
2026-07-26T17:03:12.870424,22.162,can0  070  [20]  CA 2C 4D 08 EF AE 62 03 E0 2E 00 00 03 00 00 00 0F 00 00 00
2026-07-26T17:03:12.967559,22.259,can0  204  [16]  9C 09 B1 FF 0F 95 1A DF 28 23 30 75 30 75 00 00
2026-07-26T17:03:12.967754,22.259,can0  040  [04]  02 00 29 00
2026-07-26T17:03:12.969535,22.261,can0  206  [24]  76 0C C5 06 75 0C 99 C6 CE 06 3A 0C 76 0C 00 00 00 00 00 00 00 00 00 00
2026-07-26T17:03:12.969756,22.261,can0  204  [16]  9C 09 B1 FF 0F 95 1A DF 28 23 30 75 30 75 00 00
2026-07-26T17:03:12.969911,22.262,can0  040  [04]  02 00 29 00
2026-07-26T17:03:13.068395,22.360,can0  204  [16]  9C 09 B1 FF 0F 95 1A DF 28 23 30 75 30 75 00 00
2026-07-26T17:03:13.068597,22.360,can0  041  [04]  19 00 2D 00
2026-07-26T17:03:13.068829,22.360,can0  204  [16]  9C 09 B1 FF 0F 95 1A DF 28 23 30 75 30 75 00 00
2026-07-26T17:03:13.169441,22.461,can0  206  [24]  6C 0C C5 06 75 0C 99 C6 D0 06 3F 0C 7B 0C 00 00 00 00 00 00 00 00 00 00
2026-07-26T17:03:13.177029,22.469,can0  204  [16]  9C 09 B1 FF 0F 95 1A DF 28 23 30 75 30 75 00 00
2026-07-26T17:03:13.177740,22.469,can0  070  [20]  CA 2C 4D 08 EF AE 62 03 C8 32 00 00 03 00 00 00 0F 00 00 00
2026-07-26T17:03:13.178001,22.470,can0  100  [03]  AA 71 04
2026-07-26T17:03:13.178268,22.470,can0  120  [04]  2D 19 00 00
2026-07-26T17:03:13.267451,22.559,can0  070  [20]  CA 2C 4D 08 EF AE 62 03 C8 32 00 00 03 00 00 00 0E 00 00 00
2026-07-26T17:03:13.267635,22.559,can0  040  [04]  06 00 26 00
2026-07-26T17:03:13.267831,22.559,can0  204  [16]  9C 09 B1 FF 0F 95 1A DF 28 23 30 75 30 75 00 00
2026-07-26T17:03:13.267988,22.560,can0  040  [04]  06 00 26 00
2026-07-26T17:03:13.268179,22.560,can0  204  [16]  9C 09 B1 FF 0F 95 1A DF 28 23 30 75 30 75 00 00
2026-07-26T17:03:13.268351,22.560,can0  070  [20]  CA 2C 4D 08 EF AE 62 03 C8 32 00 00 03 00 00 00 0E 00 00 00
2026-07-26T17:03:13.369931,22.662,can0  206  [24]  6C 0C C4 06 75 0C 99 C6 CF 06 3A 0C 7B 0C 00 00 00 00 00 00 00 00 00 00
2026-07-26T17:03:13.370111,22.662,can0  060  [32]  00 00 00 00 CA 2C 4D 08 43 04 B8 10 00 00 10 0E FF 01 00 00 00 00 00 00 01 00 00 00 00 00 00 00
2026-07-26T17:03:13.370541,22.662,can0  204  [16]  9C 09 B1 FF 0F 95 1A DF 28 23 30 75 30 75 00 00
2026-07-26T17:03:13.370716,22.662,can0  041  [04]  16 00 2D 00
2026-07-26T17:03:13.370913,22.663,can0  204  [16]  9C 09 B1 FF 0F 95 1A DF 28 23 30 75 30 75 00 00
2026-07-26T17:03:13.468069,22.760,can0  204  [16]  9C 09 B1 FF 0F 95 1A DF 28 23 30 75 30 75 00 00
2026-07-26T17:03:13.468281,22.760,can0  040  [04]  06 00 2D 00
2026-07-26T17:03:13.470319,22.762,can0  206  [24]  6C 0C C6 06 7A 0C 99 C6 D1 06 35 0C 7B 0C 00 00 00 00 00 00 00 00 00 00
2026-07-26T17:03:13.568412,22.860,can0  204  [16]  9C 09 B1 FF 0F 95 1A DF 28 23 30 75 30 75 00 00
2026-07-26T17:03:13.568592,22.860,can0  040  [04]  06 00 2D 00
2026-07-26T17:03:13.568775,22.860,can0  204  [16]  9C 09 B1 FF 0F 95 1A DF 28 23 30 75 30 75 00 00
2026-07-26T17:03:13.568929,22.861,can0  110  [02]  1C 1B
2026-07-26T17:03:13.668029,22.960,can0  041  [04]  16 00 2D 00
2026-07-26T17:03:13.668279,22.960,can0  204  [16]  9C 09 B1 FF 0F 95 1A DF 28 23 30 75 30 75 00 00
2026-07-26T17:03:13.670204,22.962,can0  206  [24]  7A 0C C6 06 6B 0C 99 C6 D1 06 3A 0C 76 0C 00 00 00 00 00 00 00 00 00 00
2026-07-26T17:03:13.670423,22.962,can0  204  [16]  9C 09 B1 FF 0F 95 1A DF 28 23 30 75 30 75 00 00
2026-07-26T17:03:13.768393,23.060,can0  040  [04]  05 00 33 00
2026-07-26T17:03:13.768599,23.060,can0  204  [16]  9C 09 B1 FF 0F 95 1A DF 28 23 30 75 30 75 00 00
2026-07-26T17:03:13.768783,23.060,can0  204  [16]  9C 09 B1 FF 0F 95 1A DF 28 23 30 75 30 75 00 00
2026-07-26T17:03:13.768953,23.061,can0  070  [20]  CA 2C 4D 08 EF AE 62 03 C8 32 00 00 03 00 00 00 0E 00 00 00
2026-07-26T17:03:13.770843,23.062,can0  040  [04]  05 00 33 00
2026-07-26T17:03:13.770870,23.062,can0  206  [24]  7A 0C C7 06 6B 0C 99 C6 D1 06 3A 0C 76 0C 00 00 00 00 00 00 00 00 00 00
2026-07-26T17:03:13.867733,23.159,can0  060  [32]  00 00 00 00 00 00 00 00 00 00 00 00 00 00 00 00 00 00 00 00 00 00 00 00 00 00 00 00 00 00 00 00
2026-07-26T17:03:13.867940,23.160,can0  204  [16]  9C 09 B1 FF 0F 95 1A DF 28 23 30 75 30 75 00 00
2026-07-26T17:03:13.868114,23.160,can0  041  [04]  16 00 2D 00
2026-07-26T17:03:13.967640,23.259,can0  204  [16]  9C 09 B1 FF 0F 95 1A DF 28 23 30 75 30 75 00 00
2026-07-26T17:03:13.967840,23.259,can0  070  [20]  CA 2C 4D 08 EF AE 62 03 C8 32 00 00 03 00 00 00 0E 00 00 00
2026-07-26T17:03:13.969615,23.261,can0  206  [24]  7A 0C C6 06 6B 0C 99 C6 CF 06 3A 0C 76 0C 00 00 00 00 00 00 00 00 00 00
2026-07-26T17:03:13.969837,23.261,can0  204  [16]  9C 09 B1 FF 0F 95 1A DF 28 23 30 75 30 75 00 00
2026-07-26T17:03:13.970029,23.262,can0  040  [04]  08 00 39 00
2026-07-26T17:03:14.067575,23.359,can0  204  [16]  9C 09 B1 FF 0F 95 1A DF 28 23 30 75 30 75 00 00
2026-07-26T17:03:14.067753,23.359,can0  040  [04]  08 00 39 00
2026-07-26T17:03:14.067946,23.360,can0  204  [16]  9C 09 B1 FF 0F 95 1A DF 28 23 30 75 30 75 00 00
2026-07-26T17:03:14.169422,23.461,can0  206  [24]  7A 0C C6 06 66 0C 99 C6 CE 06 3F 0C 76 0C 00 00 00 00 00 00 00 00 00 00
2026-07-26T17:03:14.169655,23.461,can0  204  [16]  9C 09 B1 FF 0F 95 1A DF 28 23 30 75 30 75 00 00
2026-07-26T17:03:14.169826,23.461,can0  041  [04]  18 00 2E 00
2026-07-26T17:03:14.170229,23.462,can0  070  [20]  CA 2C 4D 08 EF AE 62 03 B0 36 00 00 03 00 00 00 21 00 00 00
2026-07-26T17:03:14.170417,23.462,can0  070  [20]  CA 2C 4D 08 EF AE 62 03 B0 36 00 00 03 00 00 00 22 00 00 00
2026-07-26T17:03:14.268423,23.560,can0  204  [16]  9C 09 B1 FF 0F 95 1A DF 28 23 30 75 30 75 00 00
2026-07-26T17:03:14.268618,23.560,can0  204  [16]  9C 09 B1 FF 0F 95 1A DF 28 23 30 75 30 75 00 00
2026-07-26T17:03:14.268994,23.561,can0  070  [20]  CA 2C 4D 08 EF AE 62 03 B0 36 00 00 03 00 00 00 22 00 00 00
2026-07-26T17:03:14.269034,23.561,can0  040  [04]  08 00 36 00
2026-07-26T17:03:14.270758,23.562,can0  206  [24]  7A 0C C6 06 62 0C 99 C6 CB 06 43 0C 76 0C 00 00 00 00 00 00 00 00 00 00
2026-07-26T17:03:14.367541,23.659,can0  060  [32]  00 00 00 00 00 00 00 00 00 00 00 00 00 00 00 00 00 00 00 00 00 00 00 00 00 00 00 00 00 00 00 00
2026-07-26T17:03:14.367732,23.659,can0  040  [04]  08 00 36 00
2026-07-26T17:03:14.367930,23.660,can0  204  [16]  9C 09 B1 FF 0F 95 1A DF 28 23 30 75 30 75 00 00
2026-07-26T17:03:14.368057,23.660,can0  060  [32]  00 00 00 00 CA 2C 4D 08 43 04 B8 10 00 00 10 0E FF 01 00 00 00 00 00 00 01 00 00 00 00 00 00 00
2026-07-26T17:03:14.368561,23.660,can0  100  [03]  A4 71 04
2026-07-26T17:03:14.368591,23.660,can0  120  [04]  2C 19 00 00
2026-07-26T17:03:14.368752,23.660,can0  204  [16]  9C 09 B1 FF 0F 95 1A DF 28 23 30 75 30 75 00 00
2026-07-26T17:03:14.468105,23.760,can0  130  [00]
2026-07-26T17:03:14.468316,23.760,can0  041  [04]  19 00 2D 00
2026-07-26T17:03:14.468536,23.760,can0  204  [16]  9C 09 B1 FF 0F 95 1A DF 28 23 30 75 30 75 00 00
2026-07-26T17:03:14.470381,23.762,can0  206  [24]  71 0C C6 06 6B 0C 99 C6 CB 06 3F 0C 7B 0C 00 00 00 00 00 00 00 00 00 00
2026-07-26T17:03:14.470602,23.762,can0  204  [16]  9C 09 B1 FF 0F 95 1A DF 28 23 30 75 30 75 00 00
2026-07-26T17:03:14.567716,23.859,can0  040  [04]  06 00 2F 00
2026-07-26T17:03:14.567924,23.860,can0  204  [16]  9C 09 B1 FF 0F 95 1A DF 28 23 30 75 30 75 00 00
2026-07-26T17:03:14.568095,23.860,can0  040  [04]  06 00 2F 00
2026-07-26T17:03:14.668366,23.960,can0  204  [16]  9C 09 B1 FF 0F 95 1A DF 28 23 30 75 30 75 00 00
2026-07-26T17:03:14.670258,23.962,can0  206  [24]  6C 0C C6 06 6B 0C 99 C6 C9 06 3F 0C 7F 0C 00 00 00 00 00 00 00 00 00 00
2026-07-26T17:03:14.670484,23.962,can0  204  [16]  9C 09 B1 FF 0F 95 1A DF 28 23 30 75 30 75 00 00
2026-07-26T17:03:14.674507,23.966,can0  041  [04]  1B 00 2C 00
2026-07-26T17:03:14.768169,24.060,can0  204  [16]  9C 09 B1 FF 0F 95 1A DF 28 23 30 75 30 75 00 00
2026-07-26T17:03:14.768385,24.060,can0  070  [20]  CA 2C 4D 08 EF AE 62 03 B0 36 00 00 03 00 00 00 22 00 00 00
2026-07-26T17:03:14.768590,24.060,can0  204  [16]  9C 09 B1 FF 0F 95 1A DF 28 23 30 75 30 75 00 00
2026-07-26T17:03:14.770530,24.062,can0  206  [24]  6C 0C C7 06 62 0C 99 C6 C9 06 48 0C 7F 0C 00 00 00 00 00 00 00 00 00 00
2026-07-26T17:03:14.770681,24.062,can0  040  [04]  66 01 30 00
2026-07-26T17:03:14.868193,24.160,can0  060  [32]  00 00 00 00 00 00 00 00 00 00 00 00 00 00 00 00 00 00 00 00 00 00 00 00 00 00 00 00 00 00 00 00
2026-07-26T17:03:14.868379,24.160,can0  040  [04]  66 01 30 00
2026-07-26T17:03:14.868598,24.160,can0  204  [16]  9C 09 B1 FF 0F 95 1A DF 28 23 30 75 30 75 00 00
2026-07-26T17:03:14.868830,24.160,can0  070  [20]  CA 2C 4D 08 EF AE 62 03 B0 36 00 00 03 00 00 00 22 00 00 00
2026-07-26T17:03:14.868958,24.161,can0  131  [00]
2026-07-26T17:03:14.968486,24.260,can0  204  [16]  9C 09 B1 FF 0F 95 1A DF 28 23 30 75 30 75 00 00
2026-07-26T17:03:14.968739,24.260,can0  041  [04]  1B 00 29 00
2026-07-26T17:03:14.971539,24.263,can0  206  [24]  6C 0C C8 06 67 0C 99 C6 CC 06 43 0C 7F 0C 00 00 00 00 00 00 00 00 00 00
2026-07-26T17:03:14.971840,24.263,can0  204  [16]  9C 09 B1 FF 0F 95 1A DF 28 23 30 75 30 75 00 00
2026-07-26T17:03:15.067861,24.359,can0  204  [16]  9C 09 B1 FF 0F 95 1A DF 28 23 30 75 30 75 00 00
2026-07-26T17:03:15.068016,24.360,can0  040  [04]  03 00 36 00
2026-07-26T17:03:15.068340,24.360,can0  204  [16]  9C 09 B1 FF 0F 95 1A DF 28 23 30 75 30 75 00 00
2026-07-26T17:03:15.168325,24.460,can0  040  [04]  03 00 36 00
2026-07-26T17:03:15.170178,24.462,can0  206  [24]  AD 0C C8 06 67 0C 99 C6 D5 06 43 0C 3E 0C 00 00 00 00 00 00 00 00 00 00
2026-07-26T17:03:15.170427,24.462,can0  204  [16]  9C 09 B1 FF 0F 95 1A DF 28 23 30 75 30 75 00 00
2026-07-26T17:03:15.170771,24.462,can0  070  [20]  CA 2C 4D 08 EF AE 62 03 98 3A 00 00 03 00 00 00 23 00 00 00
2026-07-26T17:03:15.170894,24.462,can0  110  [02]  1E 1B
2026-07-26T17:03:15.171036,24.463,can0  204  [16]  9C 09 B1 FF 0F 95 1A DF 28 23 30 75 30 75 00 00
2026-07-26T17:03:15.171162,24.463,can0  133  [00]
2026-07-26T17:03:15.171267,24.463,can0  070  [20]  CA 2C 4D 08 EF AE 62 03 98 3A 00 00 03 00 00 00 23 00 00 00
2026-07-26T17:03:15.267560,24.559,can0  041  [04]  1B 00 26 00
2026-07-26T17:03:15.267754,24.559,can0  060  [32]  C0 8C B3 0E 1B DB 4D 08 54 4C 63 03 9F 00 F1 0A 18 01 80 00 00 00 00 00 01 00 00 00 00 00 00 00
2026-07-26T17:03:15.268342,24.560,can0  204  [16]  9C 09 B1 FF 0F 95 1A DF 28 23 30 75 30 75 00 00
2026-07-26T17:03:15.270861,24.562,can0  206  [24]  B6 0C C8 06 62 0C 99 C6 D2 06 43 0C 39 0C 00 00 00 00 00 00 00 00 00 00
2026-07-26T17:03:15.277015,24.569,can0  070  [20]  CA 2C 4D 08 EF AE 62 03 98 3A 00 00 03 00 00 00 23 00 00 00
2026-07-26T17:03:15.367758,24.659,can0  204  [16]  9C 09 B1 FF 0F 95 1A DF 28 23 30 75 30 75 00 00
2026-07-26T17:03:15.367893,24.659,can0  040  [04]  03 00 34 00
2026-07-26T17:03:15.368033,24.660,can0  204  [16]  9C 09 B1 FF 0F 95 1A DF 28 23 30 75 30 75 00 00
2026-07-26T17:03:15.368167,24.660,can0  040  [04]  03 00 34 00
2026-07-26T17:03:15.468442,24.760,can0  204  [16]  9C 09 B1 FF 0F 95 1A DF 28 23 30 75 30 75 00 00
2026-07-26T17:03:15.470519,24.762,can0  206  [24]  BB 0C C9 06 62 0C 99 C6 D2 06 43 0C 35 0C 00 00 00 00 00 00 00 00 00 00
2026-07-26T17:03:15.470708,24.762,can0  041  [04]  18 00 25 00
2026-07-26T17:03:15.470909,24.763,can0  204  [16]  9C 09 B1 FF 0F 95 1A DF 28 23 30 75 30 75 00 00
2026-07-26T17:03:15.567807,24.859,can0  204  [16]  9C 09 B1 FF 0F 95 1A DF 28 23 30 75 30 75 00 00
2026-07-26T17:03:15.568007,24.860,can0  100  [03]  9F 71 04
2026-07-26T17:03:15.568264,24.860,can0  120  [04]  11 19 00 00
2026-07-26T17:03:15.667942,24.960,can0  040  [04]  02 00 2F 00
2026-07-26T17:03:15.668113,24.960,can0  204  [16]  9C 09 B1 FF 0F 95 1A DF 28 23 30 75 30 75 00 00
2026-07-26T17:03:15.670145,24.962,can0  206  [24]  BC 0C D1 06 66 0C 99 C6 D4 06 3A 0C 39 0C 00 00 00 00 00 00 00 00 00 00
2026-07-26T17:03:15.670283,24.962,can0  040  [04]  02 00 2F 00
2026-07-26T17:03:15.670434,24.962,can0  204  [16]  9C 09 B1 FF 0F 95 1A DF 28 23 30 75 30 75 00 00
2026-07-26T17:03:15.767680,25.059,can0  204  [16]  9C 09 B1 FF 0F 95 1A DF 28 23 30 75 30 75 00 00
2026-07-26T17:03:15.767822,25.059,can0  041  [04]  13 00 20 00
2026-07-26T17:03:15.767962,25.060,can0  204  [16]  9C 09 B1 FF 0F 95 1A DF 28 23 30 75 30 75 00 00
2026-07-26T17:03:15.769851,25.061,can0  206  [24]  B6 0C CF 06 6B 0C 99 C6 D4 06 35 0C 39 0C 00 00 00 00 00 00 00 00 00 00
2026-07-26T17:03:15.770006,25.062,can0  070  [20]  CA 2C 4D 08 EF AE 62 03 98 3A 00 00 03 00 00 00 23 00 00 00
2026-07-26T17:03:15.867499,25.159,can0  204  [16]  9C 09 B1 FF 0F 95 1A DF 28 23 30 75 30 75 00 00
2026-07-26T17:03:15.867646,25.159,can0  040  [04]  65 01 2D 00
2026-07-26T17:03:15.867781,25.159,can0  070  [20]  CA 2C 4D 08 EF AE 62 03 98 3A 00 00 03 00 00 00 23 00 00 00
2026-07-26T17:03:15.867914,25.160,can0  204  [16]  9C 09 B1 FF 0F 95 1A DF 28 23 30 75 30 75 00 00
2026-07-26T17:03:15.968354,25.260,can0  040  [04]  65 01 2D 00
2026-07-26T17:03:15.970382,25.262,can0  206  [24]  7A 0C CE 06 6B 0C 99 C6 CE 06 3A 0C 76 0C 00 00 00 00 00 00 00 00 00 00
2026-07-26T17:03:15.970589,25.262,can0  204  [16]  9C 09 B1 FF 0F 95 1A DF 28 23 30 75 30 75 00 00
2026-07-26T17:03:16.068122,25.360,can0  041  [04]  0B 00 22 00
2026-07-26T17:03:16.068357,25.360,can0  204  [16]  9C 09 B1 FF 0F 95 1A DF 28 23 30 75 30 75 00 00
2026-07-26T17:03:16.068574,25.360,can0  204  [16]  9C 09 B1 FF 0F 95 1A DF 28 23 30 75 30 75 00 00
2026-07-26T17:03:16.169836,25.461,can0  206  [24]  7B 0C CE 06 61 0C 99 C6 CE 06 35 0C 7F 0C 00 00 00 00 00 00 00 00 00 00
2026-07-26T17:03:16.170036,25.462,can0  040  [04]  60 01 2A 00
2026-07-26T17:03:16.170262,25.462,can0  204  [16]  9C 09 B1 FF 0F 95 1A DF 28 23 30 75 30 75 00 00
2026-07-26T17:03:16.170446,25.462,can0  070  [20]  CA 2C 4D 08 EF AE 62 03 80 3E 00 00 03 00 00 00 16 00 00 00
2026-07-26T17:03:16.170601,25.462,can0  040  [04]  60 01 2A 00
2026-07-26T17:03:16.170789,25.462,can0  204  [16]  9C 09 B1 FF 0F 95 1A DF 28 23 30 75 30 75 00 00
2026-07-26T17:03:16.170958,25.463,can0  070  [20]  CA 2C 4D 08 EF AE 62 03 80 3E 00 00 03 00 00 00 16 00 00 00
2026-07-26T17:03:16.267559,25.559,can0  204  [16]  9C 09 B1 FF 0F 95 1A DF 28 23 30 75 30 75 00 00
2026-07-26T17:03:16.267948,25.560,can0  070  [20]  CA 2C 4D 08 EF AE 62 03 80 3E 00 00 03 00 00 00 16 00 00 00
2026-07-26T17:03:16.268168,25.560,can0  041  [04]  0A 00 24 00
2026-07-26T17:03:16.270243,25.562,can0  206  [24]  7B 0C CD 06 61 0C 99 C6 D1 06 3A 0C 7F 0C 00 00 00 00 00 00 00 00 00 00
2026-07-26T17:03:16.368041,25.660,can0  204  [16]  9C 09 B1 FF 0F 95 1A DF 28 23 30 75 30 75 00 00
2026-07-26T17:03:16.368209,25.660,can0  060  [32]  00 00 00 00 CA 2C 4D 08 43 04 B8 10 00 00 10 0E FF 01 00 00 00 00 00 00 01 00 00 00 00 00 00 00
2026-07-26T17:03:16.368651,25.660,can0  204  [16]  9C 09 B1 FF 0F 95 1A DF 28 23 30 75 30 75 00 00
2026-07-26T17:03:16.368842,25.660,can0  040  [04]  59 01 27 00
2026-07-26T17:03:16.467756,25.759,can0  204  [16]  9C 09 B1 FF 0F 95 1A DF 28 23 30 75 30 75 00 00
2026-07-26T17:03:16.467916,25.760,can0  040  [04]  59 01 27 00
2026-07-26T17:03:16.470743,25.762,can0  206  [24]  7B 0C C3 06 61 0C 99 C6 CF 06 3A 0C 7F 0C 00 00 00 00 00 00 00 00 00 00
2026-07-26T17:03:16.470980,25.763,can0  204  [16]  9C 09 B1 FF 0F 95 1A DF 28 23 30 75 30 75 00 00
2026-07-26T17:03:16.567914,25.860,can0  204  [16]  9C 09 B1 FF 0F 95 1A DF 28 23 30 75 30 75 00 00
2026-07-26T17:03:16.568202,25.860,can0  041  [04]  10 00 28 00
2026-07-26T17:03:16.568479,25.860,can0  204  [16]  9C 09 B1 FF 0F 95 1A DF 28 23 30 75 30 75 00 00
2026-07-26T17:03:16.670306,25.962,can0  206  [24]  7B 0C C5 06 61 0C 99 C6 D0 06 3F 0C 7F 0C 00 00 00 00 00 00 00 00 00 00
2026-07-26T17:03:16.670456,25.962,can0  040  [04]  63 01 26 00
2026-07-26T17:03:16.670608,25.962,can0  204  [16]  9C 09 B1 FF 0F 95 1A DF 28 23 30 75 30 75 00 00
2026-07-26T17:03:16.768316,26.060,can0  204  [16]  9C 09 B1 FF 0F 95 1A DF 28 23 30 75 30 75 00 00
2026-07-26T17:03:16.768439,26.060,can0  040  [04]  63 01 26 00
2026-07-26T17:03:16.768567,26.060,can0  070  [20]  CA 2C 4D 08 EF AE 62 03 80 3E 00 00 03 00 00 00 16 00 00 00
2026-07-26T17:03:16.768700,26.060,can0  100  [03]  9B 71 04
2026-07-26T17:03:16.768863,26.060,can0  204  [16]  9C 09 B1 FF 0F 95 1A DF 28 23 30 75 30 75 00 00
2026-07-26T17:03:16.768950,26.061,can0  110  [02]  1E 1B
2026-07-26T17:03:16.769048,26.061,can0  120  [04]  1E 19 00 00
2026-07-26T17:03:16.770939,26.063,can0  206  [24]  7B 0C C6 06 61 0C 99 C6 CE 06 3F 0C 7F 0C 00 00 00 00 00 00 00 00 00 00
2026-07-26T17:03:16.868338,26.160,can0  041  [04]  17 00 28 00
2026-07-26T17:03:16.868587,26.160,can0  204  [16]  9C 09 B1 FF 0F 95 1A DF 28 23 30 75 30 75 00 00
2026-07-26T17:03:16.868854,26.160,can0  060  [32]  00 00 00 00 00 00 00 00 00 00 00 00 00 00 00 00 00 00 00 00 00 00 00 00 00 00 00 00 00 00 00 00
2026-07-26T17:03:16.869068,26.161,can0  070  [20]  CA 2C 4D 08 EF AE 62 03 80 3E 00 00 03 00 00 00 16 00 00 00
2026-07-26T17:03:16.869305,26.161,can0  204  [16]  9C 09 B1 FF 0F 95 1A DF 28 23 30 75 30 75 00 00
2026-07-26T17:03:16.969137,26.261,can0  040  [04]  01 00 26 00
2026-07-26T17:03:16.972870,26.264,can0  206  [24]  75 0C C7 06 6B 0C 99 C6 CD 06 3F 0C 7B 0C 00 00 00 00 00 00 00 00 00 00
2026-07-26T17:03:16.973163,26.265,can0  204  [16]  9C 09 B1 FF 0F 95 1A DF 28 23 30 75 30 75 00 00
2026-07-26T17:03:16.973257,26.265,can0  040  [04]  01 00 26 00
2026-07-26T17:03:17.076597,26.368,can0  204  [16]  9C 09 B1 FF 0F 95 1A DF 28 23 30 75 30 75 00 00
2026-07-26T17:03:17.076743,26.368,can0  204  [16]  9C 09 B1 FF 0F 95 1A DF 28 23 30 75 30 75 00 00
2026-07-26T17:03:17.076937,26.369,can0  041  [04]  19 00 26 00
2026-07-26T17:03:17.172013,26.464,can0  206  [24]  75 0C C7 06 71 0C 99 C6 CB 06 3A 0C 7B 0C 00 00 00 00 00 00 00 00 00 00
2026-07-26T17:03:17.172210,26.464,can0  204  [16]  9C 09 B1 FF 0F 95 1A DF 28 23 30 75 30 75 00 00
2026-07-26T17:03:17.172354,26.464,can0  070  [20]  CA 2C 4D 08 EF AE 62 03 68 42 00 00 03 00 00 00 04 00 00 00
2026-07-26T17:03:17.172493,26.464,can0  204  [16]  9C 09 B1 FF 0F 95 1A DF 28 23 30 75 30 75 00 00
2026-07-26T17:03:17.172618,26.464,can0  070  [20]  CA 2C 4D 08 EF AE 62 03 68 42 00 00 03 00 00 00 04 00 00 00
2026-07-26T17:03:17.177141,26.469,can0  040  [04]  65 01 26 00
2026-07-26T17:03:17.267637,26.559,can0  204  [16]  9C 09 B1 FF 0F 95 1A DF 28 23 30 75 30 75 00 00
2026-07-26T17:03:17.267797,26.559,can0  040  [04]  65 01 26 00
2026-07-26T17:03:17.270551,26.562,can0  206  [24]  75 0C C7 06 6B 0C 99 C6 CD 06 3F 0C 7B 0C 00 00 00 00 00 00 00 00 00 00
2026-07-26T17:03:17.270754,26.562,can0  070  [20]  CA 2C 4D 08 EF AE 62 03 68 42 00 00 03 00 00 00 04 00 00 00
