Timestamp,Elapsed_Time_s,CAN_Message
2026-07-26T17:06:47.470198,2.693,can0  206  [24]  7A 0C C7 06 6B 0C 0D CB D1 06 35 0C 76 0C 00 00 00 00 00 00 00 00 00 00
2026-07-26T17:06:47.470455,2.693,can0  204  [16]  9C 09 B1 FF 0F 95 1A DF 28 23 30 75 30 75 00 00
2026-07-26T17:06:47.580949,2.803,can0  204  [16]  9C 09 B1 FF 0F 95 1A DF 28 23 30 75 30 75 00 00
2026-07-26T17:06:47.581090,2.803,can0  040  [04]  67 01 25 00
2026-07-26T17:06:47.581253,2.804,can0  204  [16]  9C 09 B1 FF 0F 95 1A DF 28 23 30 75 30 75 00 00
2026-07-26T17:06:47.581366,2.804,can0  040  [04]  67 01 25 00
2026-07-26T17:06:47.583099,2.806,can0  206  [24]  7A 0C C6 06 66 0C 0D CB D1 06 44 0C 76 0C 00 00 00 00 00 00 00 00 00 00
2026-07-26T17:06:47.667506,2.890,can0  204  [16]  9C 09 B1 FF 0F 95 1A DF 28 23 30 75 30 75 00 00
2026-07-26T17:06:47.667652,2.890,can0  060  [32]  00 00 00 00 00 00 00 00 00 00 00 00 00 00 00 00 00 00 00 00 00 00 00 00 00 00 00 00 00 00 00 00
2026-07-26T17:06:47.667787,2.890,can0  041  [04]  17 00 23 00
2026-07-26T17:06:47.667935,2.890,can0  204  [16]  9C 09 B1 FF 0F 95 1A DF 28 23 30 75 30 75 00 00
2026-07-26T17:06:47.819100,3.042,can0  204  [16]  9C 09 B1 FF 0F 95 1A DF 28 23 30 75 30 75 00 00
2026-07-26T17:06:47.819176,3.042,can0  206  [24]  75 0C C6 06 66 0C 0D CB D1 06 44 0C 7B 0C 00 00 00 00 00 00 00 00 00 00
2026-07-26T17:06:47.820859,3.043,can0  070  [20]  D3 2C 4D 08 F5 AE 62 03 98 B7 00 00 06 00 00 00 24 00 00 00
2026-07-26T17:06:47.821035,3.043,can0  040  [04]  67 01 27 00
2026-07-26T17:06:47.821254,3.044,can0  204  [16]  9C 09 B1 FF 0F 95 1A DF 28 23 30 75 30 75 00 00
2026-07-26T17:06:47.867697,3.090,can0  040  [04]  67 01 27 00
2026-07-26T17:06:47.868128,3.091,can0  204  [16]  9C 09 B1 FF 0F 95 1A DF 28 23 30 75 30 75 00 00
2026-07-26T17:06:47.868408,3.091,can0  070  [20]  D3 2C 4D 08 F5 AE 62 03 98 B7 00 00 06 00 00 00 24 00 00 00
2026-07-26T17:06:47.967949,3.190,can0  204  [16]  9C 09 B1 FF 0F 95 1A DF 28 23 30 75 30 75 00 00
2026-07-26T17:06:47.969725,3.192,can0  206  [24]  7A 0C C6 06 6B 0C 0D CB D0 06 44 0C 76 0C 00 00 00 00 00 00 00 00 00 00
2026-07-26T17:06:47.969954,3.192,can0  100  [03]  60 71 04
2026-07-26T17:06:47.970124,3.193,can0  110  [02]  1C 1B
2026-07-26T17:06:47.970277,3.193,can0  120  [04]  23 19 00 00
2026-07-26T17:06:47.970439,3.193,can0  041  [04]  15 00 1C 00
2026-07-26T17:06:47.970627,3.193,can0  204  [16]  9C 09 B1 FF 0F 95 1A DF 28 23 30 75 30 75 00 00
2026-07-26T17:06:48.125326,3.348,can0  204  [16]  9C 09 B1 FF 0F 95 1A DF 28 23 30 75 30 75 00 00
2026-07-26T17:06:48.125492,3.348,can0  040  [04]  67 01 27 00
2026-07-26T17:06:48.125698,3.348,can0  204  [16]  9C 09 B1 FF 0F 95 1A DF 28 23 30 75 30 75 00 00
2026-07-26T17:06:48.127968,3.350,can0  206  [24]  7A 0C C5 06 6B 0C 99 C6 D1 06 44 0C 76 0C 00 00 00 00 00 00 00 00 00 00
2026-07-26T17:06:48.176793,3.399,can0  040  [04]  67 01 27 00
2026-07-26T17:06:48.177006,3.399,can0  204  [16]  9C 09 B1 FF 0F 95 1A DF 28 23 30 75 30 75 00 00
2026-07-26T17:06:48.177158,3.400,can0  060  [32]  00 00 00 00 D3 2C 4D 08 4A 04 B8 10 00 00 10 0E FF 01 00 00 00 00 00 00 01 00 00 00 00 00 00 00
2026-07-26T17:06:48.182103,3.405,can0  070  [20]  D3 2C 4D 08 F5 AE 62 03 80 BB 00 00 06 00 00 00 14 00 00 00
2026-07-26T17:06:48.182160,3.405,can0  070  [20]  D3 2C 4D 08 F5 AE 62 03 80 BB 00 00 06 00 00 00 15 00 00 00
2026-07-26T17:06:48.268373,3.491,can0  204  [16]  9C 09 B1 FF 0F 95 1A DF 28 23 30 75 30 75 00 00
2026-07-26T17:06:48.268614,3.491,can0  041  [04]  0F 00 19 00
2026-07-26T17:06:48.270170,3.493,can0  206  [24]  7F 0C C6 06 6B 0C 99 C6 D0 06 44 0C 71 0C 00 00 00 00 00 00 00 00 00 00
2026-07-26T17:06:48.270390,3.493,can0  204  [16]  9C 09 B1 FF 0F 95 1A DF 28 23 30 75 30 75 00 00
2026-07-26T17:06:48.270569,3.493,can0  070  [20]  D3 2C 4D 08 F5 AE 62 03 80 BB 00 00 06 00 00 00 15 00 00 00
2026-07-26T17:06:48.417783,3.640,can0  040  [04]  67 01 22 00
2026-07-26T17:06:48.418012,3.640,can0  204  [16]  9C 09 B1 FF 0F 95 1A DF 28 23 30 75 30 75 00 00
2026-07-26T17:06:48.418216,3.641,can0  204  [16]  9C 09 B1 FF 0F 95 1A DF 28 23 30 75 30 75 00 00
2026-07-26T17:06:48.418361,3.641,can0  040  [04]  67 01 22 00
2026-07-26T17:06:48.519372,3.742,can0  206  [24]  7F 0C C8 06 71 0C 99 C6 CE 06 3A 0C 71 0C 00 00 00 00 00 00 00 00 00 00
2026-07-26T17:06:48.519431,3.742,can0  204  [16]  9C 09 B1 FF 0F 95 1A DF 28 23 30 75 30 75 00 00
2026-07-26T17:06:48.519533,3.742,can0  041  [04]  0D 00 1B 00
2026-07-26T17:06:48.519735,3.742,can0  204  [16]  9C 09 B1 FF 0F 95 1A DF 28 23 30 75 30 75 00 00
2026-07-26T17:06:48.618145,3.841,can0  204  [16]  9C 09 B1 FF 0F 95 1A DF 28 23 30 75 30 75 00 00
2026-07-26T17:06:48.619890,3.842,can0  206  [24]  7F 0C C9 06 6B 0C 99 C6 CE 06 3F 0C 71 0C 00 00 00 00 00 00 00 00 00 00
2026-07-26T17:06:48.620041,3.842,can0  040  [04]  64 01 1B 00
2026-07-26T17:06:48.717584,3.940,can0  204  [16]  9C 09 B1 FF 0F 95 1A DF 28 23 30 75 30 75 00 00
2026-07-26T17:06:48.717787,3.940,can0  060  [32]  00 00 00 00 00 00 00 00 00 00 00 00 00 00 00 00 00 00 00 00 00 00 00 00 00 00 00 00 00 00 00 00
2026-07-26T17:06:48.718811,3.941,can0  040  [04]  64 01 1B 00
2026-07-26T17:06:48.719015,3.941,can0  204  [16]  9C 09 B1 FF 0F 95 1A DF 28 23 30 75 30 75 00 00
2026-07-26T17:06:48.818100,4.041,can0  204  [16]  9C 09 B1 FF 0F 95 1A DF 28 23 30 75 30 75 00 00
2026-07-26T17:06:48.818392,4.041,can0  041  [04]  13 00 20 00
2026-07-26T17:06:48.820959,4.043,can0  206  [24]  7A 0C C8 06 6B 0C 99 C6 CF 06 3F 0C 76 0C 00 00 00 00 00 00 00 00 00 00
2026-07-26T17:06:48.821365,4.044,can0  070  [20]  D3 2C 4D 08 F5 AE 62 03 80 BB 00 00 06 00 00 00 15 00 00 00
2026-07-26T17:06:48.821582,4.044,can0  204  [16]  9C 09 B1 FF 0F 95 1A DF 28 23 30 75 30 75 00 00
2026-07-26T17:06:48.917968,4.140,can0  204  [16]  9C 09 B1 FF 0F 95 1A DF 28 23 30 75 30 75 00 00
2026-07-26T17:06:48.918338,4.141,can0  040  [04]  67 01 17 00
2026-07-26T17:06:48.918567,4.141,can0  070  [20]  D3 2C 4D 08 F5 AE 62 03 80 BB 00 00 06 00 00 00 15 00 00 00
2026-07-26T17:06:49.018105,4.241,can0  204  [16]  9C 09 B1 FF 0F 95 1A DF 28 23 30 75 30 75 00 00
2026-07-26T17:06:49.018408,4.241,can0  040  [04]  67 01 17 00
2026-07-26T17:06:49.020044,4.242,can0  206  [24]  7A 0C C8 06 6B 0C 99 C6 CF 06 3A 0C 76 0C 00 00 00 00 00 00 00 00 00 00
2026-07-26T17:06:49.020282,4.243,can0  204  [16]  9C 09 B1 FF 0F 95 1A DF 28 23 30 75 30 75 00 00
2026-07-26T17:06:49.117896,4.340,can0  041  [04]  19 00 26 00
2026-07-26T17:06:49.118114,4.341,can0  204  [16]  9C 09 B1 FF 0F 95 1A DF 28 23 30 75 30 75 00 00
2026-07-26T17:06:49.118317,4.341,can0  204  [16]  9C 09 B1 FF 0F 95 1A DF 28 23 30 75 30 75 00 00
2026-07-26T17:06:49.120192,4.343,can0  206  [24]  75 0C C8 06 6B 0C 99 C6 D0 06 3A 0C 7B 0C 00 00 00 00 00 00 00 00 00 00
2026-07-26T17:06:49.231136,4.454,can0  040  [04]  67 01 1A 00
2026-07-26T17:06:49.231738,4.454,can0  204  [16]  9C 09 B1 FF 0F 95 1A DF 28 23 30 75 30 75 00 00
2026-07-26T17:06:49.231779,4.454,can0  100  [03]  5E 71 04
2026-07-26T17:06:49.231813,4.454,can0  120  [04]  1E 19 00 00
2026-07-26T17:06:49.231845,4.454,can0  070  [20]  D1 2C 4D 08 F5 AE 62 03 68 BF 00 00 06 00 00 00 14 00 00 00
2026-07-26T17:06:49.232288,4.455,can0  060  [32]  00 00 00 00 00 00 00 00 00 00 00 00 00 00 00 00 00 00 00 00 00 00 00 00 00 00 00 00 00 00 00 00
2026-07-26T17:06:49.232580,4.455,can0  060  [32]  00 00 00 00 D1 2C 4D 08 4A 04 B8 10 00 00 10 0E FF 01 00 00 00 00 00 00 01 00 00 00 00 00 00 00
2026-07-26T17:06:49.233090,4.455,can0  040  [04]  67 01 1A 00
2026-07-26T17:06:49.233522,4.456,can0  070  [20]  D1 2C 4D 08 F5 AE 62 03 68 BF 00 00 06 00 00 00 15 00 00 00
2026-07-26T17:06:49.239326,4.462,can0  204  [16]  9C 09 B1 FF 0F 95 1A DF 28 23 30 75 30 75 00 00
2026-07-26T17:06:49.348464,4.571,can0  206  [24]  75 0C CE 06 66 0C 99 C6 D2 06 44 0C 7B 0C 00 00 00 00 00 00 00 00 00 00
2026-07-26T17:06:49.349693,4.572,can0  204  [16]  9C 09 B1 FF 0F 95 1A DF 28 23 30 75 30 75 00 00
2026-07-26T17:06:49.349772,4.572,can0  041  [04]  19 00 23 00
2026-07-26T17:06:49.349840,4.572,can0  070  [20]  D1 2C 4D 08 F5 AE 62 03 68 BF 00 00 06 00 00 00 15 00 00 00
2026-07-26T17:06:49.415308,4.638,can0  204  [16]  9C 09 B1 FF 0F 95 1A DF 28 23 30 75 30 75 00 00
2026-07-26T17:06:49.415550,4.638,can0  204  [16]  9C 09 B1 FF 0F 95 1A DF 28 23 30 75 30 75 00 00
2026-07-26T17:06:49.415802,4.638,can0  040  [04]  01 00 1E 00
2026-07-26T17:06:49.521676,4.744,can0  206  [24]  7A 0C CC 06 66 0C 99 C6 D2 06 3A 0C 76 0C 00 00 00 00 00 00 00 00 00 00
2026-07-26T17:06:49.522045,4.744,can0  204  [16]  9C 09 B1 FF 0F 95 1A DF 28 23 30 75 30 75 00 00
2026-07-26T17:06:49.522297,4.745,can0  040  [04]  01 00 1E 00
2026-07-26T17:06:49.522558,4.745,can0  204  [16]  9C 09 B1 FF 0F 95 1A DF 28 23 30 75 30 75 00 00
2026-07-26T17:06:49.573728,4.796,can0  041  [04]  18 00 25 00
2026-07-26T17:06:49.573965,4.796,can0  110  [02]  1B 1B
2026-07-26T17:06:49.574298,4.797,can0  204  [16]  9C 09 B1 FF 0F 95 1A DF 28 23 30 75 30 75 00 00
2026-07-26T17:06:49.577258,4.800,can0  206  [24]  75 0C CC 06 71 0C 99 C6 D2 06 35 0C 7B 0C 00 00 00 00 00 00 00 00 00 00
2026-07-26T17:06:49.686275,4.909,can0  204  [16]  9C 09 B1 FF 0F 95 1A DF 28 23 30 75 30 75 00 00
2026-07-26T17:06:49.686554,4.909,can0  040  [04]  67 01 26 00
2026-07-26T17:06:49.687154,4.910,can0  204  [16]  9C 09 B1 FF 0F 95 1A DF 28 23 30 75 30 75 00 00
2026-07-26T17:06:49.687232,4.910,can0  060  [32]  00 00 00 00 00 00 00 00 00 00 00 00 00 00 00 00 00 00 00 00 00 00 00 00 00 00 00 00 00 00 00 00
2026-07-26T17:06:49.687420,4.910,can0  132  [00]
2026-07-26T17:06:49.797210,5.020,can0  040  [04]  67 01 26 00
2026-07-26T17:06:49.797557,5.020,can0  204  [16]  9C 09 B1 FF 0F 95 1A DF 28 23 30 75 30 75 00 00
2026-07-26T17:06:49.800429,5.023,can0  206  [24]  75 0C CB 06 71 0C 99 C6 D1 06 30 0C 7B 0C 00 00 00 00 00 00 00 00 00 00
2026-07-26T17:06:49.800718,5.023,can0  204  [16]  9C 09 B1 FF 0F 95 1A DF 28 23 30 75 30 75 00 00
2026-07-26T17:06:49.800963,5.023,can0  070  [20]  D1 2C 4D 08 F5 AE 62 03 68 BF 00 00 06 00 00 00 15 00 00 00
2026-07-26T17:06:49.911730,5.134,can0  041  [04]  1C 00 27 00
2026-07-26T17:06:49.912013,5.134,can0  204  [16]  9C 09 B1 FF 0F 95 1A DF 28 23 30 75 30 75 00 00
2026-07-26T17:06:49.912633,5.135,can0  070  [20]  D1 2C 4D 08 F5 AE 62 03 68 BF 00 00 06 00 00 00 15 00 00 00
2026-07-26T17:06:49.912907,5.135,can0  204  [16]  9C 09 B1 FF 0F 95 1A DF 28 23 30 75 30 75 00 00
2026-07-26T17:06:49.984942,5.207,can0  206  [24]  7A 0C CB 06 71 0C 99 C6 CE 06 30 0C 76 0C 00 00 00 00 00 00 00 00 00 00
2026-07-26T17:06:49.985295,5.208,can0  040  [04]  03 00 26 00
2026-07-26T17:06:49.985644,5.208,can0  204  [16]  9C 09 B1 FF 0F 95 1A DF 28 23 30 75 30 75 00 00
2026-07-26T17:06:49.991903,5.214,can0  040  [04]  03 00 26 00
2026-07-26T17:06:50.108218,5.331,can0  204  [16]  9C 09 B1 FF 0F 95 1A DF 28 23 30 75 30 75 00 00
2026-07-26T17:06:50.108594,5.331,can0  041  [04]  1D 00 2C 00
2026-07-26T17:06:50.108972,5.331,can0  204  [16]  9C 09 B1 FF 0F 95 1A DF 28 23 30 75 30 75 00 00
2026-07-26T17:06:50.112754,5.335,can0  206  [24]  7A 0C C4 06 71 0C 99 C6 CC 06 2A 0C 76 0C 00 00 00 00 00 00 00 00 00 00
2026-07-26T17:06:50.188598,5.411,can0  204  [16]  9C 09 B1 FF 0F 95 1A DF 28 23 30 75 30 75 00 00
2026-07-26T17:06:50.189071,5.411,can0  070  [20]  D1 2C 4D 08 F5 AE 62 03 50 C3 00 00 06 00 00 00 14 00 00 00
2026-07-26T17:06:50.189402,5.412,can0  060  [32]  00 00 00 00 00 00 00 00 00 00 00 00 00 00 00 00 00 00 00 00 00 00 00 00 00 00 00 00 00 00 00 00
2026-07-26T17:06:50.189735,5.412,can0  204  [16]  9C 09 B1 FF 0F 95 1A DF 28 23 30 75 30 75 00 00
2026-07-26T17:06:50.189955,5.412,can0  060  [32]  00 00 00 00 D1 2C 4D 08 4A 04 B8 10 00 00 10 0E FF 01 00 00 00 00 00 00 01 00 00 00 00 00 00 00
2026-07-26T17:06:50.190548,5.413,can0  040  [04]  67 01 23 00
2026-07-26T17:06:50.314068,5.536,can0  070  [20]  D1 2C 4D 08 F5 AE 62 03 50 C3 00 00 06 00 00 00 14 00 00 00
2026-07-26T17:06:50.317097,5.540,can0  206  [24]  7A 0C C5 06 71 0C 99 C6 CD 06 2A 0C 76 0C 00 00 00 00 00 00 00 00 00 00
2026-07-26T17:06:50.317439,5.540,can0  040  [04]  67 01 23 00
2026-07-26T17:06:50.317813,5.540,can0  204  [16]  9C 09 B1 FF 0F 95 1A DF 28 23 30 75 30 75 00 00
2026-07-26T17:06:50.318168,5.541,can0  070  [20]  D1 2C 4D 08 F5 AE 62 03 50 C3 00 00 06 00 00 00 14 00 00 00
2026-07-26T17:06:50.425088,5.648,can0  204  [16]  9C 09 B1 FF 0F 95 1A DF 28 23 30 75 30 75 00 00
2026-07-26T17:06:50.425447,5.648,can0  041  [04]  1C 00 2D 00
2026-07-26T17:06:50.425756,5.648,can0  100  [03]  5D 71 04
2026-07-26T17:06:50.426032,5.648,can0  120  [04]  1E 19 00 00
2026-07-26T17:06:50.426473,5.649,can0  204  [16]  9C 09 B1 FF 0F 95 1A DF 28 23 30 75 30 75 00 00
2026-07-26T17:06:50.487793,5.710,can0  206  [24]  7F 0C C7 06 6B 0C 99 C6 CD 06 30 0C 71 0C 00 00 00 00 00 00 00 00 00 00
2026-07-26T17:06:50.488620,5.711,can0  204  [16]  9C 09 B1 FF 0F 95 1A DF 28 23 30 75 30 75 00 00
2026-07-26T17:06:50.488926,5.711,can0  040  [04]  01 00 21 00
2026-07-26T17:06:50.489293,5.712,can0  204  [16]  9C 09 B1 FF 0F 95 1A DF 28 23 30 75 30 75 00 00
2026-07-26T17:06:50.495404,5.718,can0  040  [04]  01 00 21 00
2026-07-26T17:06:50.600621,5.823,can0  204  [16]  9C 09 B1 FF 0F 95 1A DF 28 23 30 75 30 75 00 00
2026-07-26T17:06:50.603923,5.826,can0  206  [24]  84 0C C7 06 66 0C 99 C6 CF 06 3A 0C 71 0C 00 00 00 00 00 00 00 00 00 00
2026-07-26T17:06:50.604008,5.826,can0  204  [16]  9C 09 B1 FF 0F 95 1A DF 28 23 30 75 30 75 00 00
2026-07-26T17:06:50.604311,5.827,can0  041  [04]  1B 00 2F 00
2026-07-26T17:06:50.717511,5.940,can0  204  [16]  9C 09 B1 FF 0F 95 1A DF 28 23 30 75 30 75 00 00
2026-07-26T17:06:50.828091,6.051,can0  204  [16]  9C 09 B1 FF 0F 95 1A DF 28 23 30 75 30 75 00 00
2026-07-26T17:06:50.831117,6.054,can0  040  [04]  07 00 19 00
2026-07-26T17:06:50.831181,6.054,can0  206  [24]  7F 0C C8 06 5D 0C 99 C6 CF 06 3F 0C 76 0C 00 00 00 00 00 00 00 00 00 00
2026-07-26T17:06:50.831510,6.054,can0  070  [20]  D1 2C 4D 08 F5 AE 62 03 50 C3 00 00 06 00 00 00 14 00 00 00
2026-07-26T17:06:50.831890,6.054,can0  040  [04]  07 00 19 00
2026-07-26T17:06:50.840693,6.063,can0  204  [16]  9C 09 B1 FF 0F 95 1A DF 28 23 30 75 30 75 00 00
2026-07-26T17:06:50.917233,6.140,can0  204  [16]  9C 09 B1 FF 0F 95 1A DF 28 23 30 75 30 75 00 00
2026-07-26T17:06:50.917590,6.140,can0  041  [04]  19 00 2D 00
2026-07-26T17:06:50.918487,6.141,can0  070  [20]  D1 2C 4D 08 F5 AE 62 03 50 C3 00 00 06 00 00 00 14 00 00 00
2026-07-26T17:06:50.918841,6.141,can0  204  [16]  9C 09 B1 FF 0F 95 1A DF 28 23 30 75 30 75 00 00
2026-07-26T17:06:50.923088,6.146,can0  206  [24]  7B 0C C9 06 5D 0C 99 C6 D1 06 3F 0C 7B 0C 00 00 00 00 00 00 00 00 00 00
2026-07-26T17:06:50.985477,6.208,can0  204  [16]  9C 09 B1 FF 0F 95 1A DF 28 23 30 75 30 75 00 00
2026-07-26T17:06:50.985803,6.208,can0  040  [04]  05 00 17 00
2026-07-26T17:06:50.986168,6.209,can0  204  [16]  9C 09 B1 FF 0F 95 1A DF 28 23 30 75 30 75 00 00
2026-07-26T17:06:51.087775,6.310,can0  040  [04]  05 00 17 00
2026-07-26T17:06:51.088282,6.311,can0  204  [16]  9C 09 B1 FF 0F 95 1A DF 28 23 30 75 30 75 00 00
2026-07-26T17:06:51.091416,6.314,can0  206  [24]  7F 0C C7 06 5D 0C 99 C6 D0 06 3F 0C 76 0C 00 00 00 00 00 00 00 00 00 00
2026-07-26T17:06:51.191129,6.414,can0  204  [16]  9C 09 B1 FF 0F 95 1A DF 28 23 30 75 30 75 00 00
2026-07-26T17:06:51.191378,6.414,can0  041  [04]  19 00 29 00
2026-07-26T17:06:51.191589,6.414,can0  110  [02]  1C 1B
2026-07-26T17:06:51.192137,6.415,can0  070  [20]  D1 2C 4D 08 F7 AE 62 03 38 C7 00 00 06 00 00 00 21 00 00 00
2026-07-26T17:06:51.192211,6.415,can0  204  [16]  9C 09 B1 FF 0F 95 1A DF 28 23 30 75 30 75 00 00
2026-07-26T17:06:51.192391,6.415,can0  060  [32]  DC 66 11 00 3F A0 4D 08 F5 E0 62 03 00 00 17 07 0A 00 7C 00 00 00 00 00 02 00 00 00 00 00 00 00
2026-07-26T17:06:51.192549,6.415,can0  060  [32]  00 00 00 00 D1 2C 4D 08 4C 04 B8 10 00 00 10 0E FF 01 00 00 00 00 00 01 02 00 00 00 00 00 00 00
2026-07-26T17:06:51.300619,6.523,can0  070  [20]  D1 2C 4D 08 F7 AE 62 03 38 C7 00 00 06 00 00 00 21 00 00 00
2026-07-26T17:06:51.303582,6.526,can0  206  [24]  7A 0C C5 06 5D 0C 99 C6 D0 06 44 0C 76 0C 00 00 00 00 00 00 00 00 00 00
2026-07-26T17:06:51.304011,6.526,can0  204  [16]  9C 09 B1 FF 0F 95 1A DF 28 23 30 75 30 75 00 00
2026-07-26T17:06:51.304358,6.527,can0  040  [04]  67 01 10 00
2026-07-26T17:06:51.304937,6.527,can0  070  [20]  D1 2C 4D 08 F7 AE 62 03 38 C7 00 00 06 00 00 00 21 00 00 00
2026-07-26T17:06:51.305017,6.527,can0  204  [16]  9C 09 B1 FF 0F 95 1A DF 28 23 30 75 30 75 00 00
2026-07-26T17:06:51.406777,6.629,can0  040  [04]  67 01 10 00
2026-07-26T17:06:51.407047,6.629,can0  204  [16]  9C 09 B1 FF 0F 95 1A DF 28 23 30 75 30 75 00 00
2026-07-26T17:06:51.410041,6.632,can0  206  [24]  7F 0C C4 06 5D 0C 99 C6 CF 06 44 0C 71 0C 00 00 00 00 00 00 00 00 00 00
2026-07-26T17:06:51.410324,6.633,can0  041  [04]  1C 00 24 00
2026-07-26T17:06:51.513035,6.735,can0  204  [16]  9C 09 B1 FF 0F 95 1A DF 28 23 30 75 30 75 00 00
2026-07-26T17:06:51.513317,6.736,can0  204  [16]  9C 09 B1 FF 0F 95 1A DF 28 23 30 75 30 75 00 00
2026-07-26T17:06:51.615127,6.838,can0  040  [04]  67 01 0A 00
2026-07-26T17:06:51.615527,6.838,can0  204  [16]  9C 09 B1 FF 0F 95 1A DF 28 23 30 75 30 75 00 00
2026-07-26T17:06:51.615747,6.838,can0  100  [03]  5D 71 04
2026-07-26T17:06:51.615930,6.838,can0  120  [04]  15 19 00 00
2026-07-26T17:06:51.619010,6.841,can0  206  [24]  8A 0C C4 06 66 0C 99 C6 D1 06 35 0C 6B 0C 00 00 00 00 00 00 00 00 00 00
2026-07-26T17:06:51.619281,6.842,can0  040  [04]  67 01 0A 00
2026-07-26T17:06:51.619551,6.842,can0  204  [16]  9C 09 B1 FF 0F 95 1A DF 28 23 30 75 30 75 00 00
2026-07-26T17:06:51.720498,6.943,can0  204  [16]  9C 09 B1 FF 0F 95 1A DF 28 23 30 75 30 75 00 00
2026-07-26T17:06:51.720808,6.943,can0  041  [04]  1B 00 1E 00
2026-07-26T17:06:51.721048,6.943,can0  060  [32]  00 00 00 00 00 00 00 00 00 00 00 00 00 00 00 00 00 00 00 00 00 00 00 00 00 00 00 00 00 00 00 00
2026-07-26T17:06:51.728080,6.950,can0  204  [16]  9C 09 B1 FF 0F 95 1A DF 28 23 30 75 30 75 00 00
2026-07-26T17:06:51.822767,7.045,can0  206  [24]  85 0C C1 06 66 0C 99 C6 D1 06 3F 0C 6B 0C 00 00 00 00 00 00 00 00 00 00
2026-07-26T17:06:51.823098,7.046,can0  204  [16]  9C 09 B1 FF 0F 95 1A DF 28 23 30 75 30 75 00 00
2026-07-26T17:06:51.823380,7.046,can0  070  [20]  D1 2C 4D 08 F7 AE 62 03 38 C7 00 00 06 00 00 00 21 00 00 00
2026-07-26T17:06:51.830281,7.053,can0  040  [04]  4D 01 04 00
2026-07-26T17:06:51.879569,7.102,can0  204  [16]  9C 09 B1 FF 0F 95 1A DF 28 23 30 75 30 75 00 00
2026-07-26T17:06:51.879792,7.102,can0  040  [04]  4D 01 04 00
2026-07-26T17:06:51.880049,7.102,can0  204  [16]  9C 09 B1 FF 0F 95 1A DF 28 23 30 75 30 75 00 00
2026-07-26T17:06:51.880332,7.103,can0  070  [20]  D1 2C 4D 08 F7 AE 62 03 38 C7 00 00 06 00 00 00 21 00 00 00
2026-07-26T17:06:51.883593,7.106,can0  206  [24]  7F 0C C4 06 AD 0C 99 C6 D2 06 F4 0B 71 0C 00 00 00 00 00 00 00 00 00 00
2026-07-26T17:06:51.990535,7.213,can0  041  [04]  0B 00 1D 00
2026-07-26T17:06:51.990806,7.213,can0  204  [16]  9C 09 B1 FF 0F 95 1A DF 28 23 30 75 30 75 00 00
2026-07-26T17:06:51.998406,7.221,can0  204  [16]  9C 09 B1 FF 0F 95 1A DF 28 23 30 75 30 75 00 00
2026-07-26T17:06:52.095844,7.318,can0  040  [04]  19 01 06 00
2026-07-26T17:06:52.096137,7.319,can0  204  [16]  9C 09 B1 FF 0F 95 1A DF 28 23 30 75 30 75 00 00
2026-07-26T17:06:52.099061,7.321,can0  206  [24]  7F 0C C4 06 A8 0C 99 C6 D2 06 F9 0B 71 0C 00 00 00 00 00 00 00 00 00 00
2026-07-26T17:06:52.099371,7.322,can0  040  [04]  19 01 06 00
2026-07-26T17:06:52.199388,7.422,can0  204  [16]  9C 09 B1 FF 0F 95 1A DF 28 23 30 75 30 75 00 00
2026-07-26T17:06:52.200023,7.422,can0  070  [20]  D1 2C 4D 08 F7 AE 62 03 20 CB 00 00 06 00 00 00 25 00 00 00
2026-07-26T17:06:52.200346,7.423,can0  204  [16]  9C 09 B1 FF 0F 95 1A DF 28 23 30 75 30 75 00 00
2026-07-26T17:06:52.200659,7.423,can0  070  [20]  D1 2C 4D 08 F7 AE 62 03 20 CB 00 00 06 00 00 00 25 00 00 00
2026-07-26T17:06:52.200940,7.423,can0  060  [32]  00 00 00 00 00 00 00 00 00 00 00 00 00 00 00 00 00 00 00 00 00 00 00 00 00 00 00 00 00 00 00 00
2026-07-26T17:06:52.201350,7.424,can0  041  [04]  00 00 18 00
2026-07-26T17:06:52.301877,7.524,can0  060  [32]  00 00 00 00 D1 2C 4D 08 4C 04 B8 10 00 00 10 0E FF 01 00 00 00 00 00 00 01 00 00 00 00 00 00 00
2026-07-26T17:06:52.305446,7.528,can0  206  [24]  B2 0C C6 06 76 0C 99 C6 D5 06 F4 0B 76 0C 00 00 00 00 00 00 00 00 00 00
2026-07-26T17:06:52.305754,7.528,can0  204  [16]  9C 09 B1 FF 0F 95 1A DF 28 23 30 75 30 75 00 00
2026-07-26T17:06:52.306018,7.528,can0  070  [20]  D1 2C 4D 08 F7 AE 62 03 20 CB 00 00 06 00 00 00 25 00 00 00
2026-07-26T17:06:52.306276,7.529,can0  204  [16]  9C 09 B1 FF 0F 95 1A DF 28 23 30 75 30 75 00 00
2026-07-26T17:06:52.405962,7.628,can0  040  [04]  0C 01 08 00
2026-07-26T17:06:52.406273,7.629,can0  204  [16]  9C 09 B1 FF 0F 95 1A DF 28 23 30 75 30 75 00 00
2026-07-26T17:06:52.406476,7.629,can0  040  [04]  0C 01 08 00
2026-07-26T17:06:52.410182,7.633,can0  206  [24]  AD 0C C6 06 76 0C 99 C6 D5 06 EE 0B 7B 0C 00 00 00 00 00 00 00 00 00 00
2026-07-26T17:06:52.410506,7.633,can0  204  [16]  9C 09 B1 FF 0F 95 1A DF 28 23 30 75 30 75 00 00
2026-07-26T17:06:52.517646,7.740,can0  204  [16]  9C 09 B1 FF 0F 95 1A DF 28 23 30 75 30 75 00 00
2026-07-26T17:06:52.517885,7.740,can0  041  [04]  02 00 15 00
2026-07-26T17:06:52.617984,7.840,can0  204  [16]  9C 09 B1 FF 0F 95 1A DF 28 23 30 75 30 75 00 00
2026-07-26T17:06:52.620990,7.843,can0  206  [24]  AD 0C C7 06 71 0C 99 C6 D2 06 F3 0B 7B 0C 00 00 00 00 00 00 00 00 00 00
2026-07-26T17:06:52.621515,7.844,can0  040  [04]  00 01 08 00
2026-07-26T17:06:52.621806,7.844,can0  204  [16]  9C 09 B1 FF 0F 95 1A DF 28 23 30 75 30 75 00 00
2026-07-26T17:06:52.724943,7.947,can0  204  [16]  9C 09 B1 FF 0F 95 1A DF 28 23 30 75 30 75 00 00
2026-07-26T17:06:52.725567,7.948,can0  040  [04]  00 01 08 00
2026-07-26T17:06:52.725649,7.948,can0  204  [16]  9C 09 B1 FF 0F 95 1A DF 28 23 30 75 30 75 00 00
2026-07-26T17:06:52.781371,8.004,can0  060  [32]  00 00 00 00 00 00 00 00 00 00 00 00 00 00 00 00 00 00 00 00 00 00 00 00 00 00 00 00 00 00 00 00
2026-07-26T17:06:52.785689,8.008,can0  206  [24]  A8 0C C7 06 2F 0C 99 C6 D2 06 3A 0C 7F 0C 00 00 00 00 00 00 00 00 00 00
2026-07-26T17:06:52.785781,8.008,can0  041  [04]  15 00 19 00
2026-07-26T17:06:52.785849,8.008,can0  131  [00]
2026-07-26T17:06:52.785903,8.008,can0  100  [03]  5C 71 04
2026-07-26T17:06:52.785958,8.008,can0  130  [00]
2026-07-26T17:06:52.786622,8.009,can0  110  [02]  1C 1B
2026-07-26T17:06:52.786682,8.009,can0  120  [04]  12 19 00 00
2026-07-26T17:06:52.786730,8.009,can0  204  [16]  9C 09 B1 FF 0F 95 1A DF 28 23 30 75 30 75 00 00
2026-07-26T17:06:52.793484,8.016,can0  070  [20]  D1 2C 4D 08 F7 AE 62 03 20 CB 00 00 06 00 00 00 25 00 00 00
2026-07-26T17:06:52.904451,8.127,can0  204  [16]  9C 09 B1 FF 0F 95 1A DF 28 23 30 75 30 75 00 00
2026-07-26T17:06:52.904780,8.127,can0  040  [04]  FE 00 07 00
2026-07-26T17:06:52.905133,8.128,can0  204  [16]  9C 09 B1 FF 0F 95 1A DF 28 23 30 75 30 75 00 00
2026-07-26T17:06:52.908588,8.131,can0  070  [20]  D1 2C 4D 08 F7 AE 62 03 20 CB 00 00 06 00 00 00 25 00 00 00
2026-07-26T17:06:52.908651,8.131,can0  206  [24]  AD 0C C9 06 34 0C 99 C6 D4 06 35 0C 7B 0C 00 00 00 00 00 00 00 00 00 00
2026-07-26T17:06:52.908948,8.131,can0  040  [04]  FE 00 07 00
2026-07-26T17:06:53.020916,8.243,can0  204  [16]  9C 09 B1 FF 0F 95 1A DF 28 23 30 75 30 75 00 00
2026-07-26T17:06:53.021033,8.243,can0  204  [16]  9C 09 B1 FF 0F 95 1A DF 28 23 30 75 30 75 00 00
2026-07-26T17:06:53.027185,8.250,can0  041  [04]  08 00 1A 00
2026-07-26T17:06:53.125386,8.348,can0  204  [16]  9C 09 B1 FF 0F 95 1A DF 28 23 30 75 30 75 00 00
2026-07-26T17:06:53.128354,8.351,can0  206  [24]  75 0C C9 06 6B 0C 99 C6 D1 06 35 0C 7B 0C 00 00 00 00 00 00 00 00 00 00
2026-07-26T17:06:53.129032,8.351,can0  204  [16]  9C 09 B1 FF 0F 95 1A DF 28 23 30 75 30 75 00 00
2026-07-26T17:06:53.184535,8.407,can0  040  [04]  3A 01 02 00
2026-07-26T17:06:53.184781,8.407,can0  070  [20]  D1 2C 4D 08 F9 AE 62 03 08 CF 00 00 06 00 00 00 18 00 00 00
2026-07-26T17:06:53.185044,8.407,can0  204  [16]  9C 09 B1 FF 0F 95 1A DF 28 23 30 75 30 75 00 00
2026-07-26T17:06:53.185264,8.408,can0  040  [04]  3A 01 02 00
2026-07-26T17:06:53.192627,8.415,can0  070  [20]  D1 2C 4D 08 F9 AE 62 03 08 CF 00 00 06 00 00 00 18 00 00 00
2026-07-26T17:06:53.330516,8.553,can0  060  [32]  00 00 00 00 D1 2C 4D 08 4D 04 B8 10 00 00 10 0E FF 01 00 00 00 00 00 00 01 00 00 00 00 00 00 00
2026-07-26T17:06:53.333127,8.556,can0  206  [24]  76 0C C9 06 70 0C 99 C6 CD 06 35 0C 76 0C 00 00 00 00 00 00 00 00 00 00
2026-07-26T17:06:53.333511,8.556,can0  204  [16]  9C 09 B1 FF 0F 95 1A DF 28 23 30 75 30 75 00 00
2026-07-26T17:06:53.333822,8.556,can0  041  [04]  05 00 1C 00
2026-07-26T17:06:53.334717,8.557,can0  204  [16]  9C 09 B1 FF 0F 95 1A DF 28 23 30 75 30 75 00 00
2026-07-26T17:06:53.334769,8.557,can0  070  [20]  D1 2C 4D 08 F9 AE 62 03 08 CF 00 00 06 00 00 00 18 00 00 00
2026-07-26T17:06:53.386755,8.609,can0  204  [16]  9C 09 B1 FF 0F 95 1A DF 28 23 30 75 30 75 00 00
2026-07-26T17:06:53.387084,8.609,can0  040  [04]  59 01 09 00
2026-07-26T17:06:53.389876,8.612,can0  206  [24]  76 0C C6 06 70 0C 99 C6 CD 06 3A 0C 76 0C 00 00 00 00 00 00 00 00 00 00
2026-07-26T17:06:53.390697,8.613,can0  204  [16]  9C 09 B1 FF 0F 95 1A DF 28 23 30 75 30 75 00 00
2026-07-26T17:06:53.492912,8.715,can0  040  [04]  59 01 09 00
2026-07-26T17:06:53.493204,8.716,can0  204  [16]  9C 09 B1 FF 0F 95 1A DF 28 23 30 75 30 75 00 00
2026-07-26T17:06:53.601567,8.824,can0  204  [16]  9C 09 B1 FF 0F 95 1A DF 28 23 30 75 30 75 00 00
2026-07-26T17:06:53.601850,8.824,can0  041  [04]  09 00 21 00
2026-07-26T17:06:53.604924,8.827,can0  206  [24]  7B 0C C5 06 6B 0C 99 C6 CD 06 44 0C 71 0C 00 00 00 00 00 00 00 00 00 00
2026-07-26T17:06:53.605672,8.828,can0  204  [16]  9C 09 B1 FF 0F 95 1A DF 28 23 30 75 30 75 00 00
2026-07-26T17:06:53.712152,8.935,can0  204  [16]  9C 09 B1 FF 0F 95 1A DF 28 23 30 75 30 75 00 00
2026-07-26T17:06:53.712405,8.935,can0  040  [04]  5D 01 0E 00
2026-07-26T17:06:53.712594,8.935,can0  133  [00]
2026-07-26T17:06:53.712848,8.935,can0  204  [16]  9C 09 B1 FF 0F 95 1A DF 28 23 30 75 30 75 00 00
2026-07-26T17:06:53.713085,8.935,can0  040  [04]  5D 01 0E 00
2026-07-26T17:06:53.824424,9.047,can0  060  [32]  00 00 00 00 00 00 00 00 00 00 00 00 00 00 00 00 00 00 00 00 00 00 00 00 00 00 00 00 00 00 00 00
2026-07-26T17:06:53.827249,9.050,can0  206  [24]  75 0C C5 06 66 0C 99 C6 CE 06 44 0C 7B 0C 00 00 00 00 00 00 00 00 00 00
2026-07-26T17:06:53.828219,9.051,can0  204  [16]  9C 09 B1 FF 0F 95 1A DF 28 23 30 75 30 75 00 00
2026-07-26T17:06:53.828316,9.051,can0  070  [20]  D1 2C 4D 08 F9 AE 62 03 08 CF 00 00 06 00 00 00 18 00 00 00
2026-07-26T17:06:53.828440,9.051,can0  041  [04]  11 00 1F 00
2026-07-26T17:06:53.882824,9.105,can0  204  [16]  9C 09 B1 FF 0F 95 1A DF 28 23 30 75 30 75 00 00
2026-07-26T17:06:53.883116,9.106,can0  204  [16]  9C 09 B1 FF 0F 95 1A DF 28 23 30 75 30 75 00 00
2026-07-26T17:06:53.883367,9.106,can0  070  [20]  D1 2C 4D 08 F9 AE 62 03 08 CF 00 00 06 00 00 00 18 00 00 00
2026-07-26T17:06:53.886325,9.109,can0  206  [24]  75 0C C5 06 66 0C 99 C6 CE 06 44 0C 7B 0C 00 00 00 00 00 00 00 00 00 00
2026-07-26T17:06:53.991940,9.214,can0  040  [04]  5C 01 0E 00
2026-07-26T17:06:53.992334,9.215,can0  204  [16]  9C 09 B1 FF 0F 95 1A DF 28 23 30 75 30 75 00 00
2026-07-26T17:06:53.992625,9.215,can0  100  [03]  5C 71 04
2026-07-26T17:06:53.992907,9.215,can0  120  [04]  18 19 00 00
2026-07-26T17:06:53.993255,9.216,can0  040  [04]  5C 01 0E 00
2026-07-26T17:06:53.999347,9.222,can0  204  [16]  9C 09 B1 FF 0F 95 1A DF 28 23 30 75 30 75 00 00
2026-07-26T17:06:54.100817,9.323,can0  204  [16]  9C 09 B1 FF 0F 95 1A DF 28 23 30 75 30 75 00 00
2026-07-26T17:06:54.104547,9.327,can0  206  [24]  75 0C C5 06 66 0C 99 C6 D0 06 3F 0C 7B 0C 00 00 00 00 00 00 00 00 00 00
2026-07-26T17:06:54.104646,9.327,can0  041  [04]  11 00 21 00
2026-07-26T17:06:54.104702,9.327,can0  204  [16]  9C 09 B1 FF 0F 95 1A DF 28 23 30 75 30 75 00 00
2026-07-26T17:06:54.215389,9.438,can0  204  [16]  9C 09 B1 FF 0F 95 1A DF 28 23 30 75 30 75 00 00
2026-07-26T17:06:54.215739,9.438,can0  070  [20]  D1 2C 4D 08 F9 AE 62 03 F0 D2 00 00 06 00 00 00 23 00 00 00
2026-07-26T17:06:54.216101,9.439,can0  040  [04]  67 01 16 00
2026-07-26T17:06:54.216411,9.439,can0  070  [20]  D1 2C 4D 08 F9 AE 62 03 F0 D2 00 00 06 00 00 00 23 00 00 00
2026-07-26T17:06:54.333143,9.556,can0  206  [24]  75 0C C7 06 6B 0C 99 C6 D0 06 3A 0C 7B 0C 00 00 00 00 00 00 00 00 00 00
2026-07-26T17:06:54.333283,9.556,can0  060  [32]  00 00 00 00 00 00 00 00 00 00 00 00 00 00 00 00 00 00 00 00 00 00 00 00 00 00 00 00 00 00 00 00
2026-07-26T17:06:54.333342,9.556,can0  204  [16]  9C 09 B1 FF 0F 95 1A DF 28 23 30 75 30 75 00 00
2026-07-26T17:06:54.333579,9.556,can0  060  [32]  00 00 00 00 D1 2C 4D 08 4D 04 B8 10 00 00 10 0E FF 01 00 00 00 00 00 00 01 00 00 00 00 00 00 00
2026-07-26T17:06:54.334521,9.557,can0  040  [04]  67 01 16 00
2026-07-26T17:06:54.334584,9.557,can0  070  [20]  D1 2C 4D 08 F9 AE 62 03 F0 D2 00 00 06 00 00 00 23 00 00 00
2026-07-26T17:06:54.335031,9.557,can0  204  [16]  9C 09 B1 FF 0F 95 1A DF 28 23 30 75 30 75 00 00
2026-07-26T17:06:54.390682,9.613,can0  041  [04]  09 00 22 00
2026-07-26T17:06:54.391089,9.613,can0  204  [16]  9C 09 B1 FF 0F 95 1A DF 28 23 30 75 30 75 00 00
2026-07-26T17:06:54.391321,9.614,can0  110  [02]  1B 1B
2026-07-26T17:06:54.394691,9.617,can0  206  [24]  7A 0C C8 06 6B 0C 99 C6 CF 06 35 0C 76 0C 00 00 00 00 00 00 00 00 00 00
2026-07-26T17:06:54.395008,9.617,can0  204  [16]  9C 09 B1 FF 0F 95 1A DF 28 23 30 75 30 75 00 00
2026-07-26T17:06:54.501879,9.724,can0  204  [16]  9C 09 B1 FF 0F 95 1A DF 28 23 30 75 30 75 00 00
2026-07-26T17:06:54.502106,9.725,can0  040  [04]  67 01 1A 00
2026-07-26T17:06:54.502772,9.725,can0  040  [04]  67 01 1A 00
2026-07-26T17:06:54.502838,9.725,can0  204  [16]  9C 09 B1 FF 0F 95 1A DF 28 23 30 75 30 75 00 00
2026-07-26T17:06:54.611453,9.834,can0  206  [24]  7F 0C C7 06 6B 0C 99 C6 D0 06 35 0C 71 0C 00 00 00 00 00 00 00 00 00 00
2026-07-26T17:06:54.611842,9.834,can0  204  [16]  9C 09 B1 FF 0F 95 1A DF 28 23 30 75 30 75 00 00
2026-07-26T17:06:54.619266,9.842,can0  041  [04]  0F 00 25 00
2026-07-26T17:06:54.719291,9.942,can0  204  [16]  9C 09 B1 FF 0F 95 1A DF 28 23 30 75 30 75 00 00
2026-07-26T17:06:54.719669,9.942,can0  204  [16]  9C 09 B1 FF 0F 95 1A DF 28 23 30 75 30 75 00 00
2026-07-26T17:06:54.829286,10.052,can0  206  [24]  7F 0C C6 06 6B 0C 99 C6 D1 06 3A 0C 71 0C 00 00 00 00 00 00 00 00 00 00
2026-07-26T17:06:54.829393,10.052,can0  040  [04]  67 01 21 00
2026-07-26T17:06:54.829645,10.052,can0  060  [32]  00 00 00 00 00 00 00 00 00 00 00 00 00 00 00 00 00 00 00 00 00 00 00 00 00 00 00 00 00 00 00 00
2026-07-26T17:06:54.830013,10.052,can0  204  [16]  9C 09 B1 FF 0F 95 1A DF 28 23 30 75 30 75 00 00
2026-07-26T17:06:54.836103,10.059,can0  070  [20]  D1 2C 4D 08 F9 AE 62 03 F0 D2 00 00 06 00 00 00 23 00 00 00
2026-07-26T17:06:54.836235,10.059,can0  040  [04]  67 01 21 00
2026-07-26T17:06:54.836306,10.059,can0  204  [16]  9C 09 B1 FF 0F 95 1A DF 28 23 30 75 30 75 00 00
2026-07-26T17:06:54.888795,10.111,can0  204  [16]  9C 09 B1 FF 0F 95 1A DF 28 23 30 75 30 75 00 00
2026-07-26T17:06:54.889043,10.111,can0  041  [04]  15 00 28 00
2026-07-26T17:06:54.892335,10.115,can0  206  [24]  7F 0C C7 06 71 0C 99 C6 D1 06 35 0C 71 0C 00 00 00 00 00 00 00 00 00 00
2026-07-26T17:06:54.892685,10.115,can0  070  [20]  D1 2C 4D 08 F9 AE 62 03 F0 D2 00 00 06 00 00 00 23 00 00 00
2026-07-26T17:06:55.013863,10.236,can0  204  [16]  9C 09 B1 FF 0F 95 1A DF 28 23 30 75 30 75 00 00
2026-07-26T17:06:55.014274,10.237,can0  204  [16]  9C 09 B1 FF 0F 95 1A DF 28 23 30 75 30 75 00 00
2026-07-26T17:06:55.014595,10.237,can0  040  [04]  06 00 1F 00
2026-07-26T17:06:55.122471,10.345,can0  040  [04]  06 00 1F 00
2026-07-26T17:06:55.123002,10.345,can0  204  [16]  9C 09 B1 FF 0F 95 1A DF 28 23 30 75 30 75 00 00
2026-07-26T17:06:55.126681,10.349,can0  206  [24]  7A 0C C7 06 6B 0C 99 C6 D1 06 3A 0C 76 0C 00 00 00 00 00 00 00 00 00 00
2026-07-26T17:06:55.127009,10.349,can0  204  [16]  9C 09 B1 FF 0F 95 1A DF 28 23 30 75 30 75 00 00
2026-07-26T17:06:55.232028,10.454,can0  041  [04]  18 00 29 00
2026-07-26T17:06:55.232458,10.455,can0  100  [03]  59 71 04
2026-07-26T17:06:55.232655,10.455,can0  120  [04]  07 19 00 00
2026-07-26T17:06:55.232928,10.455,can0  070  [20]  D1 2C 4D 08 FA AE 62 03 D8 D6 00 00 06 00 00 00 25 00 00 00
2026-07-26T17:06:55.233236,10.456,can0  204  [16]  9C 09 B1 FF 0F 95 1A DF 28 23 30 75 30 75 00 00
2026-07-26T17:06:55.233553,10.456,can0  070  [20]  D1 2C 4D 08 FA AE 62 03 D8 D6 00 00 06 00 00 00 25 00 00 00
2026-07-26T17:06:55.234352,10.457,can0  204  [16]  9C 09 B1 FF 0F 95 1A DF 28 23 30 75 30 75 00 00
2026-07-26T17:06:55.243790,10.466,can0  206  [24]  75 0C C7 06 66 0C 99 C6 D1 06 44 0C 7B 0C 00 00 00 00 00 00 00 00 00 00
2026-07-26T17:06:55.292018,10.514,can0  060  [32]  00 00 00 00 D1 2C 4D 08 4F 04 B8 10 00 00 10 0E FF 01 00 00 00 00 00 00 01 00 00 00 00 00 00 00
2026-07-26T17:06:55.292721,10.515,can0  040  [04]  05 00 1F 00
2026-07-26T17:06:55.293004,10.515,can0  204  [16]  9C 09 B1 FF 0F 95 1A DF 28 23 30 75 30 75 00 00
2026-07-26T17:06:55.293289,10.516,can0  070  [20]  D1 2C 4D 08 FA AE 62 03 D8 D6 00 00 06 00 00 00 25 00 00 00
2026-07-26T17:06:55.293506,10.516,can0  040  [04]  05 00 1F 00
2026-07-26T17:06:55.404857,10.627,can0  204  [16]  9C 09 B1 FF 0F 95 1A DF 28 23 30 75 30 75 00 00
2026-07-26T17:06:55.407856,10.630,can0  206  [24]  75 0C C7 06 6B 0C 99 C6 D1 06 3F 0C 7B 0C 00 00 00 00 00 00 00 00 00 00
2026-07-26T17:06:55.408169,10.631,can0  204  [16]  9C 09 B1 FF 0F 95 1A DF 28 23 30 75 30 75 00 00
2026-07-26T17:06:55.408395,10.631,can0  041  [04]  17 00 26 00
2026-07-26T17:06:55.521905,10.744,can0  204  [16]  9C 09 B1 FF 0F 95 1A DF 28 23 30 75 30 75 00 00
2026-07-26T17:06:55.522198,10.745,can0  204  [16]  9C 09 B1 FF 0F 95 1A DF 28 23 30 75 30 75 00 00
2026-07-26T17:06:55.522442,10.745,can0  040  [04]  04 00 1E 00
2026-07-26T17:06:55.635669,10.858,can0  206  [24]  6B 0C C9 06 6B 0C 99 C6 CF 06 44 0C 85 0C 00 00 00 00 00 00 00 00 00 00
2026-07-26T17:06:55.636283,10.859,can0  204  [16]  9C 09 B1 FF 0F 95 1A DF 28 23 30 75 30 75 00 00
2026-07-26T17:06:55.636371,10.859,can0  040  [04]  04 00 1E 00
2026-07-26T17:06:55.690931,10.913,can0  204  [16]  9C 09 B1 FF 0F 95 1A DF 28 23 30 75 30 75 00 00
2026-07-26T17:06:55.691207,10.914,can0  041  [04]  18 00 25 00
2026-07-26T17:06:55.691763,10.914,can0  204  [16]  9C 09 B1 FF 0F 95 1A DF 28 23 30 75 30 75 00 00
2026-07-26T17:06:55.694836,10.917,can0  206  [24]  6B 0C C9 06 76 0C 99 C6 D0 06 3A 0C 85 0C 00 00 00 00 00 00 00 00 00 00
2026-07-26T17:06:55.804575,11.027,can0  204  [16]  9C 09 B1 FF 0F 95 1A DF 28 23 30 75 30 75 00 00
2026-07-26T17:06:55.804798,11.027,can0  060  [32]  00 00 00 00 00 00 00 00 00 00 00 00 00 00 00 00 00 00 00 00 00 00 00 00 00 00 00 00 00 00 00 00
2026-07-26T17:06:55.805040,11.027,can0  040  [04]  02 00 1C 00
2026-07-26T17:06:55.805507,11.028,can0  070  [20]  D1 2C 4D 08 FA AE 62 03 D8 D6 00 00 06 00 00 00 25 00 00 00
2026-07-26T17:06:55.806322,11.029,can0  204  [16]  9C 09 B1 FF 0F 95 1A DF 28 23 30 75 30 75 00 00
2026-07-26T17:06:55.914523,11.137,can0  040  [04]  02 00 1C 00
2026-07-26T17:06:55.914804,11.137,can0  204  [16]  9C 09 B1 FF 0F 95 1A DF 28 23 30 75 30 75 00 00
2026-07-26T17:06:55.918074,11.140,can0  206  [24]  6B 0C C9 06 76 0C 99 C6 CF 06 35 0C 85 0C 00 00 00 00 00 00 00 00 00 00
2026-07-26T17:06:55.919229,11.142,can0  070  [20]  D1 2C 4D 08 FA AE 62 03 D8 D6 00 00 06 00 00 00 25 00 00 00
2026-07-26T17:06:55.919330,11.142,can0  204  [16]  9C 09 B1 FF 0F 95 1A DF 28 23 30 75 30 75 00 00
2026-07-26T17:06:56.035305,11.258,can0  041  [04]  14 00 25 00
2026-07-26T17:06:56.036184,11.259,can0  110  [02]  1B 1B
2026-07-26T17:06:56.036274,11.259,can0  204  [16]  9C 09 B1 FF 0F 95 1A DF 28 23 30 75 30 75 00 00
2026-07-26T17:06:56.092893,11.315,can0  204  [16]  9C 09 B1 FF 0F 95 1A DF 28 23 30 75 30 75 00 00
2026-07-26T17:06:56.095939,11.318,can0  206  [24]  6B 0C C9 06 71 0C 99 C6 D0 06 35 0C 8A 0C 00 00 00 00 00 00 00 00 00 00
2026-07-26T17:06:56.096226,11.319,can0  040  [04]  61 01 18 00
2026-07-26T17:06:56.096607,11.319,can0  204  [16]  9C 09 B1 FF 0F 95 1A DF 28 23 30 75 30 75 00 00
2026-07-26T17:06:56.096794,11.319,can0  040  [04]  61 01 18 00
2026-07-26T17:06:56.210988,11.433,can0  204  [16]  9C 09 B1 FF 0F 95 1A DF 28 23 30 75 30 75 00 00
2026-07-26T17:06:56.211115,11.434,can0  070  [20]  D1 2C 4D 08 FA AE 62 03 C0 DA 00 00 06 00 00 00 32 00 00 00
2026-07-26T17:06:56.215353,11.438,can0  041  [04]  13 00 22 00
2026-07-26T17:06:56.215442,11.438,can0  070  [20]  D1 2C 4D 08 FA AE 62 03 C0 DA 00 00 06 00 00 00 31 00 00 00
2026-07-26T17:06:56.215484,11.438,can0  204  [16]  9C 09 B1 FF 0F 95 1A DF 28 23 30 75 30 75 00 00
2026-07-26T17:06:56.215522,11.438,can0  206  [24]  66 0C C9 06 76 0C 99 C6 CD 06 30 0C 8A 0C 00 00 00 00 00 00 00 00 00 00
2026-07-26T17:06:56.326851,11.549,can0  060  [32]  00 00 00 00 00 00 00 00 00 00 00 00 00 00 00 00 00 00 00 00 00 00 00 00 00 00 00 00 00 00 00 00
2026-07-26T17:06:56.327256,11.550,can0  204  [16]  9C 09 B1 FF 0F 95 1A DF 28 23 30 75 30 75 00 00
2026-07-26T17:06:56.327491,11.550,can0  060  [32]  00 00 00 00 D1 2C 4D 08 4F 04 B8 10 00 00 10 0E FF 01 00 00 00 00 00 00 01 00 00 00 00 00 00 00
2026-07-26T17:06:56.328112,11.551,can0  070  [20]  D1 2C 4D 08 FA AE 62 03 C0 DA 00 00 06 00 00 00 31 00 00 00
2026-07-26T17:06:56.328496,11.551,can0  040  [04]  5A 01 19 00
2026-07-26T17:06:56.390088,11.613,can0  204  [16]  9C 09 B1 FF 0F 95 1A DF 28 23 30 75 30 75 00 00
2026-07-26T17:06:56.390421,11.613,can0  100  [03]  57 71 04
2026-07-26T17:06:56.394313,11.617,can0  120  [04]  1A 19 00 00
2026-07-26T17:06:56.394413,11.617,can0  040  [04]  5A 01 19 00
2026-07-26T17:06:56.394479,11.617,can0  206  [24]  71 0C C7 06 7B 0C 99 C6 CD 06 26 0C 7F 0C 00 00 00 00 00 00 00 00 00 00
2026-07-26T17:06:56.394660,11.617,can0  204  [16]  9C 09 B1 FF 0F 95 1A DF 28 23 30 75 30 75 00 00
2026-07-26T17:06:56.503513,11.726,can0  204  [16]  9C 09 B1 FF 0F 95 1A DF 28 23 30 75 30 75 00 00
2026-07-26T17:06:56.503750,11.726,can0  041  [04]  09 00 22 00
2026-07-26T17:06:56.504012,11.726,can0  204  [16]  9C 09 B1 FF 0F 95 1A DF 28 23 30 75 30 75 00 00
2026-07-26T17:06:56.617426,11.840,can0  206  [24]  75 0C C7 06 6B 0C 99 C6 CE 06 35 0C 7B 0C 00 00 00 00 00 00 00 00 00 00
2026-07-26T17:06:56.623610,11.846,can0  204  [16]  9C 09 B1 FF 0F 95 1A DF 28 23 30 75 30 75 00 00
2026-07-26T17:06:56.623712,11.846,can0  040  [04]  5C 01 1A 00
2026-07-26T17:06:56.623783,11.846,can0  204  [16]  9C 09 B1 FF 0F 95 1A DF 28 23 30 75 30 75 00 00
2026-07-26T17:06:56.740701,11.963,can0  040  [04]  5C 01 1A 00
2026-07-26T17:06:56.740971,11.963,can0  204  [16]  9C 09 B1 FF 0F 95 1A DF 28 23 30 75 30 75 00 00
2026-07-26T17:06:56.744347,11.967,can0  206  [24]  7F 0C C7 06 71 0C 99 C6 CF 06 35 0C 71 0C 00 00 00 00 00 00 00 00 00 00
2026-07-26T17:06:56.802486,12.025,can0  041  [04]  0C 00 21 00
2026-07-26T17:06:56.802764,12.025,can0  204  [16]  9C 09 B1 FF 0F 95 1A DF 28 23 30 75 30 75 00 00
2026-07-26T17:06:56.803711,12.026,can0  060  [32]  00 00 00 00 00 00 00 00 00 00 00 00 00 00 00 00 00 00 00 00 00 00 00 00 00 00 00 00 00 00 00 00
2026-07-26T17:06:56.803803,12.026,can0  070  [20]  D1 2C 4D 08 FA AE 62 03 C0 DA 00 00 06 00 00 00 31 00 00 00
2026-07-26T17:06:56.803871,12.026,can0  204  [16]  9C 09 B1 FF 0F 95 1A DF 28 23 30 75 30 75 00 00
2026-07-26T17:06:56.919174,12.142,can0  040  [04]  5F 01 1B 00
2026-07-26T17:06:56.919482,12.142,can0  204  [16]  9C 09 B1 FF 0F 95 1A DF 28 23 30 75 30 75 00 00
2026-07-26T17:06:56.922567,12.146,can0  206  [24]  7F 0C C6 06 71 0C 99 C6 CE 06 30 0C 71 0C 00 00 00 00 00 00 00 00 00 00
2026-07-26T17:06:56.923541,12.146,can0  070  [20]  D1 2C 4D 08 FA AE 62 03 C0 DA 00 00 06 00 00 00 31 00 00 00
2026-07-26T17:06:56.923670,12.146,can0  204  [16]  9C 09 B1 FF 0F 95 1A DF 28 23 30 75 30 75 00 00
2026-07-26T17:06:56.930435,12.153,can0  040  [04]  5F 01 1B 00
2026-07-26T17:06:57.038319,12.261,can0  060  [32]  C0 8C B3 0E 75 E4 4D 08 43 E5 62 03 B1 00 D7 0A 16 01 80 00 00 00 00 00 01 00 00 00 00 00 00 00
2026-07-26T17:06:57.046324,12.269,can0  204  [16]  9C 09 B1 FF 0F 95 1A DF 28 23 30 75 30 75 00 00
2026-07-26T17:06:57.046413,12.269,can0  041  [04]  15 00 24 00
2026-07-26T17:06:57.096931,12.319,can0  204  [16]  9C 09 B1 FF 0F 95 1A DF 28 23 30 75 30 75 00 00
2026-07-26T17:06:57.101652,12.324,can0  206  [24]  7F 0C C4 06 71 0C 99 C6 D1 06 35 0C 71 0C 00 00 00 00 00 00 00 00 00 00
2026-07-26T17:06:57.101788,12.324,can0  204  [16]  9C 09 B1 FF 0F 95 1A DF 28 23 30 75 30 75 00 00
2026-07-26T17:06:57.101894,12.324,can0  040  [04]  65 01 1C 00
2026-07-26T17:06:57.210995,12.433,can0  204  [16]  9C 09 B1 FF 0F 95 1A DF 28 23 30 75 30 75 00 00
2026-07-26T17:06:57.211261,12.434,can0  070  [20]  D1 2C 4D 08 FA AE 62 03 A8 DE 00 00 06 00 00 00 29 00 00 00
2026-07-26T17:06:57.211478,12.434,can0  040  [04]  65 01 1C 00
2026-07-26T17:06:57.211735,12.434,can0  070  [20]  D1 2C 4D 08 FA AE 62 03 A8 DE 00 00 06 00 00 00 29 00 00 00
2026-07-26T17:06:57.212032,12.434,can0  204  [16]  9C 09 B1 FF 0F 95 1A DF 28 23 30 75 30 75 00 00
2026-07-26T17:06:57.215149,12.438,can0  206  [24]  7F 0C C5 06 6B 0C 99 C6 D1 06 3A 0C 71 0C 00 00 00 00 00 00 00 00 00 00
2026-07-26T17:06:57.331874,12.554,can0  204  [16]  9C 09 B1 FF 0F 95 1A DF 28 23 30 75 30 75 00 00
2026-07-26T17:06:57.332289,12.555,can0  041  [04]  1A 00 25 00
2026-07-26T17:06:57.332543,12.555,can0  070  [20]  D1 2C 4D 08 FA AE 62 03 A8 DE 00 00 06 00 00 00 29 00 00 00
2026-07-26T17:06:57.332814,12.555,can0  204  [16]  9C 09 B1 FF 0F 95 1A DF 28 23 30 75 30 75 00 00
2026-07-26T17:06:57.455413,12.678,can0  206  [24]  7A 0C C6 06 71 0C 99 C6 D2 06 30 0C 76 0C 00 00 00 00 00 00 00 00 00 00
2026-07-26T17:06:57.455745,12.678,can0  204  [16]  9C 09 B1 FF 0F 95 1A DF 28 23 30 75 30 75 00 00
2026-07-26T17:06:57.456012,12.678,can0  040  [04]  62 01 1C 00
2026-07-26T17:06:57.514693,12.737,can0  204  [16]  9C 09 B1 FF 0F 95 1A DF 28 23 30 75 30 75 00 00
2026-07-26T17:06:57.515350,12.738,can0  040  [04]  62 01 1C 00
2026-07-26T17:06:57.515437,12.738,can0  204  [16]  9C 09 B1 FF 0F 95 1A DF 28 23 30 75 30 75 00 00
2026-07-26T17:06:57.630167,12.853,can0  041  [04]  1A 00 25 00
2026-07-26T17:06:57.633928,12.856,can0  206  [24]  75 0C C6 06 7B 0C 09 CC D4 06 26 0C 7B 0C 00 00 00 00 00 00 00 00 00 00
2026-07-26T17:06:57.634596,12.857,can0  100  [03]  54 71 04
2026-07-26T17:06:57.634682,12.857,can0  110  [02]  1A 1B
2026-07-26T17:06:57.634815,12.857,can0  120  [04]  20 19 00 00
2026-07-26T17:06:57.635325,12.858,can0  204  [16]  9C 09 B1 FF 0F 95 1A DF 28 23 30 75 30 75 00 00
2026-07-26T17:06:57.635396,12.858,can0  204  [16]  9C 09 B1 FF 0F 95 1A DF 28 23 30 75 30 75 00 00
2026-07-26T17:06:57.696755,12.919,can0  040  [04]  61 01 19 00
2026-07-26T17:06:57.697049,12.919,can0  204  [16]  9C 09 B1 FF 0F 95 1A DF 28 23 30 75 30 75 00 00
2026-07-26T17:06:57.697273,12.920,can0  040  [04]  61 01 19 00
2026-07-26T17:06:57.701052,12.923,can0  206  [24]  75 0C C8 06 7B 0C 09 CC D6 06 26 0C 7B 0C 00 00 00 00 00 00 00 00 00 00
2026-07-26T17:06:57.813722,13.036,can0  204  [16]  9C 09 B1 FF 0F 95 1A DF 28 23 30 75 30 75 00 00
2026-07-26T17:06:57.813987,13.036,can0  204  [16]  9C 09 B1 FF 0F 95 1A DF 28 23 30 75 30 75 00 00
2026-07-26T17:06:57.814237,13.037,can0  070  [20]  D1 2C 4D 08 FA AE 62 03 A8 DE 00 00 06 00 00 00 29 00 00 00
2026-07-26T17:06:57.820779,13.043,can0  041  [04]  19 00 26 00
2026-07-26T17:06:57.897029,13.119,can0  204  [16]  9C 09 B1 FF 0F 95 1A DF 28 23 30 75 30 75 00 00
2026-07-26T17:06:57.897176,13.120,can0  206  [24]  7B 0C C9 06 76 0C 09 CC D1 06 2A 0C 7B 0C 00 00 00 00 00 00 00 00 00 00
2026-07-26T17:06:57.897252,13.120,can0  070  [20]  D1 2C 4D 08 FA AE 62 03 A8 DE 00 00 06 00 00 00 29 00 00 00
2026-07-26T17:06:57.897396,13.120,can0  204  [16]  9C 09 B1 FF 0F 95 1A DF 28 23 30 75 30 75 00 00
2026-07-26T17:06:57.897705,13.120,can0  040  [04]  47 01 13 00
2026-07-26T17:06:58.017727,13.240,can0  040  [04]  47 01 13 00
2026-07-26T17:06:58.018000,13.240,can0  204  [16]  9C 09 B1 FF 0F 95 1A DF 28 23 30 75 30 75 00 00
2026-07-26T17:06:58.018292,13.241,can0  204  [16]  9C 09 B1 FF 0F 95 1A DF 28 23 30 75 30 75 00 00
2026-07-26T17:06:58.130852,13.353,can0  206  [24]  7B 0C C8 06 76 0C 09 CC D1 06 2A 0C 7B 0C 00 00 00 00 00 00 00 00 00 00
2026-07-26T17:06:58.131128,13.354,can0  041  [04]  18 00 29 00
2026-07-26T17:06:58.131406,13.354,can0  204  [16]  9C 09 B1 FF 0F 95 1A DF 28 23 30 75 30 75 00 00
2026-07-26T17:06:58.243764,13.466,can0  204  [16]  9C 09 B1 FF 0F 95 1A DF 28 23 30 75 30 75 00 00
2026-07-26T17:06:58.244106,13.467,can0  070  [20]  D1 2C 4D 08 FA AE 62 03 90 E2 00 00 06 00 00 00 39 00 00 00
2026-07-26T17:06:58.244197,13.467,can0  040  [04]  35 01 13 00
2026-07-26T17:06:58.244389,13.467,can0  204  [16]  9C 09 B1 FF 0F 95 1A DF 28 23 30 75 30 75 00 00
2026-07-26T17:06:58.244628,13.467,can0  070  [20]  D1 2C 4D 08 FA AE 62 03 90 E2 00 00 06 00 00 00 39 00 00 00
2026-07-26T17:06:58.247780,13.470,can0  206  [24]  7F 0C C7 06 71 0C 09 CC CE 06 30 0C 76 0C 00 00 00 00 00 00 00 00 00 00
2026-07-26T17:06:58.248032,13.470,can0  040  [04]  35 01 13 00
2026-07-26T17:06:58.305189,13.528,can0  204  [16]  9C 09 B1 FF 0F 95 1A DF 28 23 30 75 30 75 00 00
2026-07-26T17:06:58.305551,13.528,can0  070  [20]  D1 2C 4D 08 FA AE 62 03 90 E2 00 00 06 00 00 00 39 00 00 00
2026-07-26T17:06:58.305745,13.528,can0  060  [32]  00 00 00 00 D1 2C 4D 08 4F 04 B8 10 00 00 10 0E FF 01 00 00 00 00 00 00 01 00 00 00 00 00 00 00
2026-07-26T17:06:58.306390,13.529,can0  204  [16]  9C 09 B1 FF 0F 95 1A DF 28 23 30 75 30 75 00 00
2026-07-26T17:06:58.417121,13.640,can0  041  [04]  17 00 27 00
2026-07-26T17:06:58.420904,13.643,can0  206  [24]  7F 0C C8 06 61 0C 99 C6 CB 06 44 0C 76 0C 00 00 00 00 00 00 00 00 00 00
2026-07-26T17:06:58.421314,13.644,can0  204  [16]  9C 09 B1 FF 0F 95 1A DF 28 23 30 75 30 75 00 00
2026-07-26T17:06:58.532597,13.755,can0  204  [16]  9C 09 B1 FF 0F 95 1A DF 28 23 30 75 30 75 00 00
2026-07-26T17:06:58.532942,13.755,can0  040  [04]  41 01 1B 00
2026-07-26T17:06:58.533403,13.756,can0  204  [16]  9C 09 B1 FF 0F 95 1A DF 28 23 30 75 30 75 00 00
2026-07-26T17:06:58.533588,13.756,can0  040  [04]  41 01 1B 00
2026-07-26T17:06:58.596390,13.819,can0  206  [24]  7F 0C C7 06 5D 0C 99 C6 C8 06 48 0C 76 0C 00 00 00 00 00 00 00 00 00 00
2026-07-26T17:06:58.596518,13.819,can0  204  [16]  9C 09 B1 FF 0F 95 1A DF 28 23 30 75 30 75 00 00
2026-07-26T17:06:58.596654,13.819,can0  041  [04]  13 00 25 00
2026-07-26T17:06:58.603313,13.826,can0  204  [16]  9C 09 B1 FF 0F 95 1A DF 28 23 30 75 30 75 00 00
2026-07-26T17:06:58.714651,13.937,can0  204  [16]  9C 09 B1 FF 0F 95 1A DF 28 23 30 75 30 75 00 00
2026-07-26T17:06:58.717675,13.940,can0  206  [24]  7F 0C C8 06 5D 0C 99 C6 C9 06 52 0C 76 0C 00 00 00 00 00 00 00 00 00 00
2026-07-26T17:06:58.718901,13.941,can0  204  [16]  9C 09 B1 FF 0F 95 1A DF 28 23 30 75 30 75 00 00
2026-07-26T17:06:58.724242,13.947,can0  040  [04]  50 01 1F 00
2026-07-26T17:06:58.834190,14.057,can0  100  [03]  51 71 04
2026-07-26T17:06:58.842262,14.065,can0  120  [04]  1B 19 00 00
2026-07-26T17:06:58.842367,14.065,can0  070  [20]  D1 2C 4D 08 FA AE 62 03 90 E2 00 00 06 00 00 00 39 00 00 00
2026-07-26T17:06:58.842441,14.065,can0  040  [04]  50 01 1F 00
2026-07-26T17:06:58.842506,14.065,can0  204  [16]  9C 09 B1 FF 0F 95 1A DF 28 23 30 75 30 75 00 00
2026-07-26T17:06:58.842576,14.065,can0  060  [32]  00 00 00 00 00 00 00 00 00 00 00 00 00 00 00 00 00 00 00 00 00 00 00 00 00 00 00 00 00 00 00 00
2026-07-26T17:06:58.896543,14.119,can0  204  [16]  9C 09 B1 FF 0F 95 1A DF 28 23 30 75 30 75 00 00
2026-07-26T17:06:58.896793,14.119,can0  041  [04]  16 00 27 00
2026-07-26T17:06:58.899716,14.122,can0  206  [24]  7F 0C C9 06 5D 0C 99 C6 C9 06 4D 0C 76 0C 00 00 00 00 00 00 00 00 00 00
2026-07-26T17:06:58.906463,14.129,can0  070  [20]  D1 2C 4D 08 FA AE 62 03 90 E2 00 00 06 00 00 00 39 00 00 00
2026-07-26T17:06:58.906552,14.129,can0  204  [16]  9C 09 B1 FF 0F 95 1A DF 28 23 30 75 30 75 00 00
2026-07-26T17:06:59.025866,14.248,can0  204  [16]  9C 09 B1 FF 0F 95 1A DF 28 23 30 75 30 75 00 00
2026-07-26T17:06:59.025964,14.248,can0  040  [04]  60 01 21 00
2026-07-26T17:06:59.026006,14.248,can0  204  [16]  9C 09 B1 FF 0F 95 1A DF 28 23 30 75 30 75 00 00
2026-07-26T17:06:59.026044,14.248,can0  206  [24]  7A 0C CB 06 5D 0C 99 C6 CE 06 52 0C 76 0C 00 00 00 00 00 00 00 00 00 00
2026-07-26T17:06:59.137470,14.360,can0  040  [04]  60 01 21 00
2026-07-26T17:06:59.139325,14.362,can0  204  [16]  9C 09 B1 FF 0F 95 1A DF 28 23 30 75 30 75 00 00
2026-07-26T17:06:59.139567,14.362,can0  041  [04]  15 00 2A 00
2026-07-26T17:06:59.199314,14.422,can0  204  [16]  9C 09 B1 FF 0F 95 1A DF 28 23 30 75 30 75 00 00
2026-07-26T17:06:59.199536,14.422,can0  110  [02]  1D 1B
2026-07-26T17:06:59.199796,14.422,can0  070  [20]  D3 2C 4D 08 FA AE 62 03 78 E6 00 00 06 00 00 00 3F 00 00 00
2026-07-26T17:06:59.200052,14.422,can0  204  [16]  9C 09 B1 FF 0F 95 1A DF 28 23 30 75 30 75 00 00
2026-07-26T17:06:59.202934,14.425,can0  206  [24]  7A 0C C9 06 66 0C 99 C6 D0 06 44 0C 76 0C 00 00 00 00 00 00 00 00 00 00
2026-07-26T17:06:59.210377,14.433,can0  070  [20]  D3 2C 4D 08 FA AE 62 03 78 E6 00 00 06 00 00 00 3F 00 00 00
2026-07-26T17:06:59.318322,14.541,can0  204  [16]  9C 09 B1 FF 0F 95 1A DF 28 23 30 75 30 75 00 00
2026-07-26T17:06:59.319294,14.542,can0  040  [04]  0A 00 23 00
2026-07-26T17:06:59.319383,14.542,can0  070  [20]  D3 2C 4D 08 FA AE 62 03 78 E6 00 00 06 00 00 00 3F 00 00 00
2026-07-26T17:06:59.320128,14.543,can0  060  [32]  00 00 00 00 00 00 00 00 00 00 00 00 00 00 00 00 00 00 00 00 00 00 00 00 00 00 00 00 00 00 00 00
2026-07-26T17:06:59.320215,14.543,can0  040  [04]  0A 00 23 00
2026-07-26T17:06:59.320282,14.543,can0  204  [16]  9C 09 B1 FF 0F 95 1A DF 28 23 30 75 30 75 00 00
2026-07-26T17:06:59.320353,14.543,can0  060  [32]  00 00 00 00 D3 2C 4D 08 4F 04 B8 10 00 00 10 0E FF 01 00 00 00 00 00 00 01 00 00 00 00 00 00 00
2026-07-26T17:06:59.436201,14.659,can0  206  [24]  7A 0C C9 06 71 0C 99 C6 D0 06 3F 0C 76 0C 00 00 00 00 00 00 00 00 00 00
2026-07-26T17:06:59.436519,14.659,can0  204  [16]  9C 09 B1 FF 0F 95 1A DF 28 23 30 75 30 75 00 00
2026-07-26T17:06:59.436759,14.659,can0  041  [04]  19 00 2A 00
2026-07-26T17:06:59.437001,14.659,can0  204  [16]  9C 09 B1 FF 0F 95 1A DF 28 23 30 75 30 75 00 00
2026-07-26T17:06:59.495149,14.718,can0  204  [16]  9C 09 B1 FF 0F 95 1A DF 28 23 30 75 30 75 00 00
2026-07-26T17:06:59.495485,14.718,can0  040  [04]  13 00 27 00
2026-07-26T17:06:59.499475,14.722,can0  206  [24]  84 0C C9 06 6B 0C 99 C6 D2 06 30 0C 71 0C 00 00 00 00 00 00 00 00 00 00
2026-07-26T17:06:59.618565,14.841,can0  204  [16]  9C 09 B1 FF 0F 95 1A DF 28 23 30 75 30 75 00 00
2026-07-26T17:06:59.618774,14.841,can0  040  [04]  13 00 27 00
2026-07-26T17:06:59.626129,14.849,can0  204  [16]  9C 09 B1 FF 0F 95 1A DF 28 23 30 75 30 75 00 00
2026-07-26T17:06:59.626236,14.849,can0  132  [00]
2026-07-26T17:06:59.738356,14.961,can0  204  [16]  9C 09 B1 FF 0F 95 1A DF 28 23 30 75 30 75 00 00
2026-07-26T17:06:59.738449,14.961,can0  041  [04]  15 00 2B 00
2026-07-26T17:06:59.738498,14.961,can0  206  [24]  7F 0C C9 06 71 0C 99 C6 D0 06 35 0C 71 0C 00 00 00 00 00 00 00 00 00 00
2026-07-26T17:06:59.738809,14.961,can0  204  [16]  9C 09 B1 FF 0F 95 1A DF 28 23 30 75 30 75 00 00
2026-07-26T17:06:59.802522,15.025,can0  204  [16]  9C 09 B1 FF 0F 95 1A DF 28 23 30 75 30 75 00 00
2026-07-26T17:06:59.802765,15.025,can0  040  [04]  0C 00 2C 00
2026-07-26T17:06:59.803148,15.026,can0  070  [20]  D3 2C 4D 08 FA AE 62 03 78 E6 00 00 06 00 00 00 3F 00 00 00
2026-07-26T17:06:59.803390,15.026,can0  060  [32]  00 00 00 00 00 00 00 00 00 00 00 00 00 00 00 00 00 00 00 00 00 00 00 00 00 00 00 00 00 00 00 00
2026-07-26T17:06:59.810698,15.033,can0  040  [04]  0C 00 2C 00
2026-07-26T17:06:59.920858,15.143,can0  204  [16]  9C 09 B1 FF 0F 95 1A DF 28 23 30 75 30 75 00 00
2026-07-26T17:06:59.924003,15.146,can0  206  [24]  76 0C C7 06 75 0C 99 C6 CF 06 35 0C 76 0C 00 00 00 00 00 00 00 00 00 00
2026-07-26T17:06:59.924626,15.147,can0  204  [16]  9C 09 B1 FF 0F 95 1A DF 28 23 30 75 30 75 00 00
2026-07-26T17:06:59.925416,15.148,can0  070  [20]  D3 2C 4D 08 FA AE 62 03 78 E6 00 00 06 00 00 00 3F 00 00 00
2026-07-26T17:06:59.925920,15.148,can0  041  [04]  16 00 2F 00
2026-07-26T17:07:00.045072,15.267,can0  100  [03]  51 71 04
2026-07-26T17:07:00.052573,15.275,can0  120  [04]  1D 19 00 00
2026-07-26T17:07:00.053001,15.275,can0  204  [16]  9C 09 B1 FF 0F 95 1A DF 28 23 30 75 30 75 00 00
2026-07-26T17:07:00.053381,15.276,can0  204  [16]  9C 09 B1 FF 0F 95 1A DF 28 23 30 75 30 75 00 00
2026-07-26T17:07:00.058902,15.281,can0  206  [24]  76 0C C8 06 70 0C 99 C6 CD 06 3A 0C 76 0C 00 00 00 00 00 00 00 00 00 00
2026-07-26T17:07:00.120119,15.343,can0  040  [04]  0A 00 32 00
2026-07-26T17:07:00.120528,15.343,can0  204  [16]  9C 09 B1 FF 0F 95 1A DF 28 23 30 75 30 75 00 00
2026-07-26T17:07:00.127163,15.350,can0  040  [04]  0A 00 32 00
2026-07-26T17:07:00.127233,15.350,can0  204  [16]  9C 09 B1 FF 0F 95 1A DF 28 23 30 75 30 75 00 00
2026-07-26T17:07:00.236572,15.459,can0  070  [20]  D3 2C 4D 08 FA AE 62 03 00 00 00 00 07 00 00 00 1A 00 00 00
2026-07-26T17:07:00.236935,15.459,can0  204  [16]  9C 09 B1 FF 0F 95 1A DF 28 23 30 75 30 75 00 00
2026-07-26T17:07:00.241479,15.464,can0  206  [24]  71 0C C7 06 75 0C 99 C6 D0 06 35 0C 76 0C 00 00 00 00 00 00 00 00 00 00
2026-07-26T17:07:00.241595,15.464,can0  041  [04]  1A 00 31 00
2026-07-26T17:07:00.242025,15.464,can0  070  [20]  D3 2C 4D 08 FA AE 62 03 00 00 00 00 07 00 00 00 1A 00 00 00
2026-07-26T17:07:00.308485,15.531,can0  204  [16]  9C 09 B1 FF 0F 95 1A DF 28 23 30 75 30 75 00 00
2026-07-26T17:07:00.308629,15.531,can0  070  [20]  D3 2C 4D 08 FA AE 62 03 00 00 00 00 07 00 00 00 1A 00 00 00
2026-07-26T17:07:00.308905,15.531,can0  204  [16]  9C 09 B1 FF 0F 95 1A DF 28 23 30 75 30 75 00 00
2026-07-26T17:07:00.309008,15.531,can0  060  [32]  00 00 00 00 D3 2C 4D 08 4F 04 B8 10 00 00 10 0E FF 01 00 00 00 00 00 00 01 00 00 00 00 00 00 00
2026-07-26T17:07:00.309464,15.532,can0  040  [04]  0B 00 32 00
2026-07-26T17:07:00.349678,15.572,can0   002  [04]  09 05 f0 10 0
2026-07-26T17:07:00.444383,15.667,can0  206  [24]  71 0C C7 06 75 0C 99 C6 CE 06 3A 0C 76 0C 00 00 00 00 00 00 00 00 00 00
2026-07-26T17:07:00.447881,15.670,can0  204  [16]  9C 09 B1 FF 0F 95 1A DF 28 23 30 75 30 75 00 00
2026-07-26T17:07:00.448251,15.671,can0  040  [04]  0B 00 32 00
2026-07-26T17:07:00.448325,15.671,can0  002  [04]  90 5F 01 00
2026-07-26T17:07:00.448393,15.671,can0  204  [16]  9C 09 B1 FF 0F 95 1A DF 28 23 30 75 30 75 00 00
2026-07-26T17:07:00.535839,15.758,can0  041  [04]  18 00 31 00
2026-07-26T17:07:00.536248,15.759,can0  204  [16]  9C 09 B1 FF 0F 95 1A DF 28 23 30 75 30 75 00 00
2026-07-26T17:07:00.543498,15.766,can0  206  [24]  71 0C C6 06 75 0C 99 C6 CE 06 35 0C 76 0C 00 00 00 00 00 00 00 00 00 00
2026-07-26T17:07:00.543600,15.766,can0  204  [16]  9C 09 B1 FF 0F 95 1A DF 28 23 30 75 30 75 00 00
2026-07-26T17:07:00.612458,15.835,can0  040  [04]  18 00 2B 00
2026-07-26T17:07:00.612574,15.835,can0  204  [16]  9C 09 B1 FF 0F 95 1A DF 28 23 30 75 30 75 00 00
2026-07-26T17:07:00.612786,15.835,can0  040  [04]  18 00 2B 00
2026-07-26T17:07:00.730753,15.953,can0  204  [16]  9C 09 B1 FF 0F 95 1A DF 28 23 30 75 30 75 00 00
2026-07-26T17:07:00.734497,15.957,can0  206  [24]  71 0C C4 06 7A 0C 99 C6 CE 06 30 0C 76 0C 00 00 00 00 00 00 00 00 00 00
2026-07-26T17:07:00.735026,15.957,can0  204  [16]  9C 09 B1 FF 0F 95 1A DF 28 23 30 75 30 75 00 00
2026-07-26T17:07:00.735383,15.958,can0  041  [04]  17 00 2D 00
2026-07-26T17:07:00.847370,16.070,can0  110  [02]  1C 1B
2026-07-26T17:07:00.847739,16.070,can0  204  [16]  9C 09 B1 FF 0F 95 1A DF 28 23 30 75 30 75 00 00
2026-07-26T17:07:00.848464,16.071,can0  070  [20]  D3 2C 4D 08 FA AE 62 03 00 00 00 00 07 00 00 00 1A 00 00 00
2026-07-26T17:07:00.848801,16.071,can0  060  [32]  00 00 00 00 00 00 00 00 00 00 00 00 00 00 00 00 00 00 00 00 00 00 00 00 00 00 00 00 00 00 00 00
2026-07-26T17:07:00.855395,16.078,can0  204  [16]  9C 09 B1 FF 0F 95 1A DF 28 23 30 75 30 75 00 00
2026-07-26T17:07:00.924720,16.147,can0  040  [04]  0D 00 29 00
2026-07-26T17:07:00.924861,16.147,can0  206  [24]  75 0C C4 06 7A 0C 99 C6 D1 06 35 0C 71 0C 00 00 00 00 00 00 00 00 00 00
2026-07-26T17:07:00.927607,16.150,can0  204  [16]  9C 09 B1 FF 0F 95 1A DF 28 23 30 75 30 75 00 00
2026-07-26T17:07:00.928390,16.151,can0  070  [20]  D3 2C 4D 08 FA AE 62 03 00 00 00 00 07 00 00 00 1A 00 00 00
2026-07-26T17:07:00.929105,16.152,can0  040  [04]  0D 00 29 00
2026-07-26T17:07:00.999891,16.222,can0  204  [16]  9C 09 B1 FF 0F 95 1A DF 28 23 30 75 30 75 00 00
2026-07-26T17:07:01.000041,16.222,can0  041  [04]  15 00 2C 00
2026-07-26T17:07:01.003088,16.226,can0  204  [16]  9C 09 B1 FF 0F 95 1A DF 28 23 30 75 30 75 00 00
2026-07-26T17:07:01.003159,16.226,can0  206  [24]  80 0C C3 06 7A 0C 99 C6 CD 06 30 0C 6B 0C 00 00 00 00 00 00 00 00 00 00
2026-07-26T17:07:01.125429,16.348,can0  204  [16]  9C 09 B1 FF 0F 95 1A DF 28 23 30 75 30 75 00 00
2026-07-26T17:07:01.125852,16.348,can0  040  [04]  05 00 2F 00
2026-07-26T17:07:01.126186,16.349,can0  204  [16]  9C 09 B1 FF 0F 95 1A DF 28 23 30 75 30 75 00 00
2026-07-26T17:07:01.247661,16.470,can0  100  [03]  50 71 04
2026-07-26T17:07:01.252136,16.475,can0  120  [04]  1C 19 00 00
2026-07-26T17:07:01.252235,16.475,can0  070  [20]  D3 2C 4D 08 FC AE 62 03 E8 03 00 00 07 00 00 00 21 00 00 00
2026-07-26T17:07:01.252303,16.475,can0  040  [04]  05 00 2F 00
2026-07-26T17:07:01.252366,16.475,can0  204  [16]  9C 09 B1 FF 0F 95 1A DF 28 23 30 75 30 75 00 00
2026-07-26T17:07:01.252437,16.475,can0  206  [24]  7B 0C C3 06 7F 0C 99 C6 CD 06 26 0C 71 0C 00 00 00 00 00 00 00 00 00 00
2026-07-26T17:07:01.262230,16.485,can0  070  [20]  D3 2C 4D 08 FC AE 62 03 E8 03 00 00 07 00 00 00 21 00 00 00
2026-07-26T17:07:01.315986,16.538,can0  204  [16]  9C 09 B1 FF 0F 95 1A DF 28 23 30 75 30 75 00 00
2026-07-26T17:07:01.316131,16.539,can0  041  [04]  18 00 29 00
2026-07-26T17:07:01.316945,16.539,can0  204  [16]  9C 09 B1 FF 0F 95 1A DF 28 23 30 75 30 75 00 00
2026-07-26T17:07:01.317000,16.539,can0  070  [20]  D3 2C 4D 08 FC AE 62 03 E8 03 00 00 07 00 00 00 21 00 00 00
2026-07-26T17:07:01.317040,16.539,can0  060  [32]  00 00 00 00 D3 2C 4D 08 51 04 B8 10 00 00 10 0E FF 01 00 00 00 00 00 00 01 00 00 00 00 00 00 00
2026-07-26T17:07:01.460856,16.683,can0  206  [24]  7F 0C C4 06 7B 0C 99 C6 CC 06 30 0C 71 0C 00 00 00 00 00 00 00 00 00 00
2026-07-26T17:07:01.461278,16.684,can0  204  [16]  9C 09 B1 FF 0F 95 1A DF 28 23 30 75 30 75 00 00
2026-07-26T17:07:01.461375,16.684,can0  040  [04]  0B 00 32 00
2026-07-26T17:07:01.463738,16.686,can0  204  [16]  9C 09 B1 FF 0F 95 1A DF 28 23 30 75 30 75 00 00
2026-07-26T17:07:01.463862,16.686,can0  040  [04]  0B 00 32 00
2026-07-26T17:07:01.532336,16.755,can0  204  [16]  9C 09 B1 FF 0F 95 1A DF 28 23 30 75 30 75 00 00
2026-07-26T17:07:01.535665,16.758,can0  206  [24]  7F 0C C5 06 80 0C 99 C6 CE 06 25 0C 71 0C 00 00 00 00 00 00 00 00 00 00
2026-07-26T17:07:01.535936,16.758,can0  041  [04]  17 00 26 00
2026-07-26T17:07:01.536236,16.759,can0  204  [16]  9C 09 B1 FF 0F 95 1A DF 28 23 30 75 30 75 00 00
2026-07-26T17:07:01.655962,16.878,can0  204  [16]  9C 09 B1 FF 0F 95 1A DF 28 23 30 75 30 75 00 00
2026-07-26T17:07:01.656253,16.879,can0  040  [04]  0F 00 30 00
2026-07-26T17:07:01.719730,16.942,can0  204  [16]  9C 09 B1 FF 0F 95 1A DF 28 23 30 75 30 75 00 00
2026-07-26T17:07:01.723307,16.946,can0  206  [24]  84 0C C7 06 76 0C 99 C6 CD 06 35 0C 71 0C 00 00 00 00 00 00 00 00 00 00
2026-07-26T17:07:01.723754,16.946,can0  204  [16]  9C 09 B1 FF 0F 95 1A DF 28 23 30 75 30 75 00 00
2026-07-26T17:07:01.724109,16.947,can0  040  [04]  0F 00 30 00
2026-07-26T17:07:01.842359,17.065,can0  204  [16]  9C 09 B1 FF 0F 95 1A DF 28 23 30 75 30 75 00 00
2026-07-26T17:07:01.842647,17.065,can0  041  [04]  1A 00 25 00
2026-07-26T17:07:01.842859,17.065,can0  070  [20]  D3 2C 4D 08 FC AE 62 03 E8 03 00 00 07 00 00 00 21 00 00 00
2026-07-26T17:07:01.843135,17.066,can0  204  [16]  9C 09 B1 FF 0F 95 1A DF 28 23 30 75 30 75 00 00
2026-07-26T17:07:01.843360,17.066,can0  060  [32]  00 00 00 00 00 00 00 00 00 00 00 00 00 00 00 00 00 00 00 00 00 00 00 00 00 00 00 00 00 00 00 00
2026-07-26T17:07:01.910449,17.133,can0  206  [24]  7F 0C C8 06 76 0C 99 C6 D1 06 35 0C 76 0C 00 00 00 00 00 00 00 00 00 00
2026-07-26T17:07:01.910577,17.133,can0  204  [16]  9C 09 B1 FF 0F 95 1A DF 28 23 30 75 30 75 00 00
2026-07-26T17:07:01.919363,17.142,can0  070  [20]  D3 2C 4D 08 FC AE 62 03 E8 03 00 00 07 00 00 00 21 00 00 00
2026-07-26T17:07:01.919445,17.142,can0  040  [04]  0B 00 2F 00
2026-07-26T17:07:01.919485,17.142,can0  204  [16]  9C 09 B1 FF 0F 95 1A DF 28 23 30 75 30 75 00 00
2026-07-26T17:07:02.035957,17.258,can0  040  [04]  0B 00 2F 00
2026-07-26T17:07:02.036570,17.259,can0  204  [16]  9C 09 B1 FF 0F 95 1A DF 28 23 30 75 30 75 00 00
2026-07-26T17:07:02.050207,17.273,can0  206  [24]  7F 0C C8 06 71 0C 99 C6 D2 06 3A 0C 76 0C 00 00 00 00 00 00 00 00 00 00
2026-07-26T17:07:02.155936,17.378,can0  204  [16]  9C 09 B1 FF 0F 95 1A DF 28 23 30 75 30 75 00 00
2026-07-26T17:07:02.156265,17.379,can0  041  [04]  1A 00 25 00
2026-07-26T17:07:02.156595,17.379,can0  204  [16]  9C 09 B1 FF 0F 95 1A DF 28 23 30 75 30 75 00 00
2026-07-26T17:07:02.212531,17.435,can0  204  [16]  9C 09 B1 FF 0F 95 1A DF 28 23 30 75 30 75 00 00
2026-07-26T17:07:02.212878,17.435,can0  070  [20]  D3 2C 4D 08 FE AE 62 03 D0 07 00 00 07 00 00 00 1A 00 00 00
2026-07-26T17:07:02.213193,17.436,can0  040  [04]  67 01 23 00
2026-07-26T17:07:02.216601,17.439,can0  206  [24]  7F 0C C8 06 71 0C 99 C6 D2 06 30 0C 76 0C 00 00 00 00 00 00 00 00 00 00
2026-07-26T17:07:02.216971,17.439,can0  070  [20]  D3 2C 4D 08 FE AE 62 03 D0 07 00 00 07 00 00 00 1A 00 00 00
2026-07-26T17:07:02.217331,17.440,can0  040  [04]  67 01 23 00
2026-07-26T17:07:02.217740,17.440,can0  204  [16]  9C 09 B1 FF 0F 95 1A DF 28 23 30 75 30 75 00 00
2026-07-26T17:07:02.323513,17.546,can0  070  [20]  D3 2C 4D 08 FE AE 62 03 D0 07 00 00 07 00 00 00 1A 00 00 00
2026-07-26T17:07:02.332064,17.554,can0  204  [16]  9C 09 B1 FF 0F 95 1A DF 28 23 30 75 30 75 00 00
2026-07-26T17:07:02.332175,17.555,can0  041  [04]  1C 00 24 00
2026-07-26T17:07:02.428512,17.651,can0  100  [03]  51 71 04
2026-07-26T17:07:02.428878,17.651,can0  204  [16]  9C 09 B1 FF 0F 95 1A DF 28 23 30 75 30 75 00 00
2026-07-26T17:07:02.429167,17.652,can0  060  [32]  00 00 00 00 D3 2C 4D 08 52 04 B8 10 00 00 10 0E FF 01 00 00 00 00 00 00 01 00 00 00 00 00 00 00
2026-07-26T17:07:02.432504,17.655,can0  206  [24]  7F 0C C8 06 6B 0C 99 C6 D5 06 35 0C 76 0C 00 00 00 00 00 00 00 00 00 00
2026-07-26T17:07:02.432828,17.655,can0  110  [02]  1A 1B
2026-07-26T17:07:02.433397,17.656,can0  120  [04]  21 19 00 00
2026-07-26T17:07:02.433735,17.656,can0  204  [16]  9C 09 B1 FF 0F 95 1A DF 28 23 30 75 30 75 00 00
2026-07-26T17:07:02.434034,17.656,can0  040  [04]  06 00 1D 00
2026-07-26T17:07:02.549683,17.772,can0  204  [16]  9C 09 B1 FF 0F 95 1A DF 28 23 30 75 30 75 00 00
2026-07-26T17:07:02.553104,17.776,can0  040  [04]  06 00 1D 00
2026-07-26T17:07:02.553207,17.776,can0  206  [24]  7F 0C C8 06 71 0C 99 C6 D1 06 2A 0C 71 0C 00 00 00 00 00 00 00 00 00 00
2026-07-26T17:07:02.553634,17.776,can0  204  [16]  9C 09 B1 FF 0F 95 1A DF 28 23 30 75 30 75 00 00
2026-07-26T17:07:02.607158,17.830,can0  204  [16]  9C 09 B1 FF 0F 95 1A DF 28 23 30 75 30 75 00 00
2026-07-26T17:07:02.615206,17.838,can0  041  [04]  17 00 20 00
2026-07-26T17:07:02.615292,17.838,can0  204  [16]  9C 09 B1 FF 0F 95 1A DF 28 23 30 75 30 75 00 00
2026-07-26T17:07:02.755108,17.978,can0  131  [00]
2026-07-26T17:07:02.755213,17.978,can0  130  [00]
2026-07-26T17:07:02.755286,17.978,can0  206  [24]  85 0C C6 06 71 0C 99 C6 D1 06 2A 0C 6B 0C 00 00 00 00 00 00 00 00 00 00
2026-07-26T17:07:02.755566,17.978,can0  204  [16]  9C 09 B1 FF 0F 95 1A DF 28 23 30 75 30 75 00 00
2026-07-26T17:07:02.765762,17.988,can0  040  [04]  01 00 1F 00
2026-07-26T17:07:02.825637,18.048,can0  040  [04]  01 00 1F 00
2026-07-26T17:07:02.825738,18.048,can0  204  [16]  9C 09 B1 FF 0F 95 1A DF 28 23 30 75 30 75 00 00
2026-07-26T17:07:02.825809,18.048,can0  070  [20]  D3 2C 4D 08 FE AE 62 03 D0 07 00 00 07 00 00 00 1A 00 00 00
2026-07-26T17:07:02.825875,18.048,can0  204  [16]  9C 09 B1 FF 0F 95 1A DF 28 23 30 75 30 75 00 00
2026-07-26T17:07:02.938725,18.161,can0  206  [24]  85 0C C5 06 66 0C 99 C6 D0 06 35 0C 6B 0C 00 00 00 00 00 00 00 00 00 00
2026-07-26T17:07:02.938973,18.161,can0  060  [32]  00 00 00 00 00 00 00 00 00 00 00 00 00 00 00 00 00 00 00 00 00 00 00 00 00 00 00 00 00 00 00 00
2026-07-26T17:07:02.939223,18.162,can0  041  [04]  0B 00 1A 00
2026-07-26T17:07:02.939509,18.162,can0  204  [16]  9C 09 B1 FF 0F 95 1A DF 28 23 30 75 30 75 00 00
2026-07-26T17:07:02.940155,18.163,can0  070  [20]  D3 2C 4D 08 FE AE 62 03 D0 07 00 00 07 00 00 00 1A 00 00 00
2026-07-26T17:07:02.940444,18.163,can0  204  [16]  9C 09 B1 FF 0F 95 1A DF 28 23 30 75 30 75 00 00
2026-07-26T17:07:03.049024,18.271,can0  040  [04]  02 00 1F 00
2026-07-26T17:07:03.049429,18.272,can0  204  [16]  9C 09 B1 FF 0F 95 1A DF 28 23 30 75 30 75 00 00
2026-07-26T17:07:03.052779,18.275,can0  206  [24]  7F 0C C5 06 66 0C 99 C6 D1 06 3A 0C 71 0C 00 00 00 00 00 00 00 00 00 00
2026-07-26T17:07:03.061587,18.284,can0  040  [04]  02 00 1F 00
2026-07-26T17:07:03.112383,18.335,can0  204  [16]  9C 09 B1 FF 0F 95 1A DF 28 23 30 75 30 75 00 00
2026-07-26T17:07:03.112688,18.335,can0  204  [16]  9C 09 B1 FF 0F 95 1A DF 28 23 30 75 30 75 00 00
2026-07-26T17:07:03.112926,18.335,can0  041  [04]  0F 00 1A 00
2026-07-26T17:07:03.247792,18.470,can0  070  [20]  D4 2C 4D 08 FF AE 62 03 B8 0B 00 00 07 00 00 00 39 00 00 00
2026-07-26T17:07:03.247907,18.470,can0  204  [16]  9C 09 B1 FF 0F 95 1A DF 28 23 30 75 30 75 00 00
2026-07-26T17:07:03.247995,18.470,can0  206  [24]  7F 0C C3 06 66 0C 99 C6 CE 06 3F 0C 71 0C 00 00 00 00 00 00 00 00 00 00
2026-07-26T17:07:03.248210,18.471,can0  070  [20]  D4 2C 4D 08 FF AE 62 03 B8 0B 00 00 07 00 00 00 39 00 00 00
2026-07-26T17:07:03.248608,18.471,can0  204  [16]  9C 09 B1 FF 0F 95 1A DF 28 23 30 75 30 75 00 00
2026-07-26T17:07:03.248926,18.471,can0  040  [04]  06 00 1D 00
2026-07-26T17:07:03.313745,18.536,can0  060  [32]  C0 8C B3 0E B9 E4 4D 08 57 E2 62 03 B2 00 D9 0A 16 01 80 00 00 00 00 00 01 00 00 00 00 00 00 00
2026-07-26T17:07:03.314357,18.537,can0  204  [16]  9C 09 B1 FF 0F 95 1A DF 28 23 30 75 30 75 00 00
2026-07-26T17:07:03.314615,18.537,can0  070  [20]  D4 2C 4D 08 FF AE 62 03 B8 0B 00 00 07 00 00 00 39 00 00 00
2026-07-26T17:07:03.314861,18.537,can0  040  [04]  06 00 1D 00
2026-07-26T17:07:03.315097,18.538,can0  204  [16]  9C 09 B1 FF 0F 95 1A DF 28 23 30 75 30 75 00 00
2026-07-26T17:07:03.318501,18.541,can0  206  [24]  7A 0C C1 06 6B 0C 99 C6 CF 06 35 0C 76 0C 00 00 00 00 00 00 00 00 00 00
2026-07-26T17:07:03.428691,18.651,can0  041  [04]  10 00 1B 00
2026-07-26T17:07:03.436343,18.659,can0  204  [16]  9C 09 B1 FF 0F 95 1A DF 28 23 30 75 30 75 00 00
2026-07-26T17:07:03.540214,18.763,can0  204  [16]  9C 09 B1 FF 0F 95 1A DF 28 23 30 75 30 75 00 00
2026-07-26T17:07:03.541904,18.764,can0  206  [24]  75 0C C3 06 6B 0C 99 C6 CF 06 35 0C 7B 0C 00 00 00 00 00 00 00 00 00 00
2026-07-26T17:07:03.544417,18.767,can0  204  [16]  9C 09 B1 FF 0F 95 1A DF 28 23 30 75 30 75 00 00
2026-07-26T17:07:03.544686,18.767,can0  040  [04]  01 00 1F 00
2026-07-26T17:07:03.612582,18.835,can0  100  [03]  52 71 04
2026-07-26T17:07:03.623873,18.846,can0  120  [04]  17 19 00 00
2026-07-26T17:07:03.623984,18.846,can0  040  [04]  01 00 1F 00
2026-07-26T17:07:03.624068,18.846,can0  204  [16]  9C 09 B1 FF 0F 95 1A DF 28 23 30 75 30 75 00 00
2026-07-26T17:07:03.624148,18.847,can0  133  [00]
2026-07-26T17:07:03.624220,18.847,can0  204  [16]  9C 09 B1 FF 0F 95 1A DF 28 23 30 75 30 75 00 00
2026-07-26T17:07:03.754949,18.977,can0  041  [04]  13 00 20 00
2026-07-26T17:07:03.757160,18.980,can0  206  [24]  75 0C C4 06 71 0C 99 C6 CF 06 35 0C 7B 0C 00 00 00 00 00 00 00 00 00 00
2026-07-26T17:07:03.766266,18.989,can0  204  [16]  9C 09 B1 FF 0F 95 1A DF 28 23 30 75 30 75 00 00
2026-07-26T17:07:03.812832,19.035,can0  204  [16]  9C 09 B1 FF 0F 95 1A DF 28 23 30 75 30 75 00 00
2026-07-26T17:07:03.813090,19.036,can0  040  [04]  67 01 23 00
2026-07-26T17:07:03.813341,19.036,can0  070  [20]  D4 2C 4D 08 FF AE 62 03 B8 0B 00 00 07 00 00 00 39 00 00 00
2026-07-26T17:07:03.813600,19.036,can0  204  [16]  9C 09 B1 FF 0F 95 1A DF 28 23 30 75 30 75 00 00
2026-07-26T17:07:03.813831,19.036,can0  040  [04]  67 01 23 00
2026-07-26T17:07:03.817235,19.040,can0  206  [24]  7A 0C C4 06 71 0C 99 C6 D1 06 35 0C 76 0C 00 00 00 00 00 00 00 00 00 00
2026-07-26T17:07:03.924002,19.146,can0  204  [16]  9C 09 B1 FF 0F 95 1A DF 28 23 30 75 30 75 00 00
2026-07-26T17:07:03.924715,19.147,can0  070  [20]  D4 2C 4D 08 FF AE 62 03 B8 0B 00 00 07 00 00 00 39 00 00 00
2026-07-26T17:07:03.924821,19.147,can0  204  [16]  9C 09 B1 FF 0F 95 1A DF 28 23 30 75 30 75 00 00
2026-07-26T17:07:03.934746,19.157,can0  041  [04]  16 00 24 00
2026-07-26T17:07:04.035561,19.258,can0  110  [02]  1B 1B
2026-07-26T17:07:04.038959,19.261,can0  204  [16]  9C 09 B1 FF 0F 95 1A DF 28 23 30 75 30 75 00 00
2026-07-26T17:07:04.039043,19.261,can0  206  [24]  7F 0C C5 06 66 0C 86 CB D0 06 35 0C 76 0C 00 00 00 00 00 00 00 00 00 00
2026-07-26T17:07:04.039263,19.262,can0  040  [04]  65 01 22 00
2026-07-26T17:07:04.039521,19.262,can0  204  [16]  9C 09 B1 FF 0F 95 1A DF 28 23 30 75 30 75 00 00
2026-07-26T17:07:04.148889,19.371,can0  040  [04]  65 01 22 00
2026-07-26T17:07:04.149209,19.372,can0  204  [16]  9C 09 B1 FF 0F 95 1A DF 28 23 30 75 30 75 00 00
2026-07-26T17:07:04.257540,19.480,can0  204  [16]  9C 09 B1 FF 0F 95 1A DF 28 23 30 75 30 75 00 00
2026-07-26T17:07:04.262067,19.484,can0  206  [24]  7F 0C C6 06 66 0C 86 CB D0 06 35 0C 76 0C 00 00 00 00 00 00 00 00 00 00
2026-07-26T17:07:04.262761,19.485,can0  070  [20]  D3 2C 4D 08 FF AE 62 03 A0 0F 00 00 07 00 00 00 53 00 00 00
2026-07-26T17:07:04.263030,19.485,can0  041  [04]  13 00 24 00
2026-07-26T17:07:04.263296,19.486,can0  070  [20]  D3 2C 4D 08 FF AE 62 03 A0 0F 00 00 07 00 00 00 54 00 00 00
2026-07-26T17:07:04.263561,19.486,can0  204  [16]  9C 09 B1 FF 0F 95 1A DF 28 23 30 75 30 75 00 00
2026-07-26T17:07:04.324730,19.547,can0  204  [16]  9C 09 B1 FF 0F 95 1A DF 28 23 30 75 30 75 00 00
2026-07-26T17:07:04.325019,19.547,can0  070  [20]  D3 2C 4D 08 FF AE 62 03 A0 0F 00 00 07 00 00 00 54 00 00 00
2026-07-26T17:07:04.325253,19.548,can0  040  [04]  03 00 26 00
2026-07-26T17:07:04.325553,19.548,can0  204  [16]  9C 09 B1 FF 0F 95 1A DF 28 23 30 75 30 75 00 00
2026-07-26T17:07:04.329299,19.552,can0  206  [24]  89 0C C9 06 5D 0C 86 CB D1 06 35 0C 76 0C 00 00 00 00 00 00 00 00 00 00
2026-07-26T17:07:04.438844,19.661,can0  060  [32]  00 00 00 00 D3 2C 4D 08 54 04 B8 10 00 00 10 0E FF 01 00 00 00 00 00 00 01 00 00 00 00 00 00 00
2026-07-26T17:07:04.439814,19.662,can0  040  [04]  03 00 26 00
2026-07-26T17:07:04.439870,19.662,can0  204  [16]  9C 09 B1 FF 0F 95 1A DF 28 23 30 75 30 75 00 00
2026-07-26T17:07:04.547154,19.770,can0  204  [16]  9C 09 B1 FF 0F 95 1A DF 28 23 30 75 30 75 00 00
2026-07-26T17:07:04.547483,19.770,can0  041  [04]  13 00 24 00
2026-07-26T17:07:04.550791,19.773,can0  206  [24]  89 0C C7 06 57 0C 86 CB D1 06 3A 0C 76 0C 00 00 00 00 00 00 00 00 00 00
2026-07-26T17:07:04.551229,19.774,can0  204  [16]  9C 09 B1 FF 0F 95 1A DF 28 23 30 75 30 75 00 00
2026-07-26T17:07:04.607237,19.830,can0  040  [04]  0E 00 29 00
2026-07-26T17:07:04.607518,19.830,can0  204  [16]  9C 09 B1 FF 0F 95 1A DF 28 23 30 75 30 75 00 00
2026-07-26T17:07:04.607767,19.830,can0  204  [16]  9C 09 B1 FF 0F 95 1A DF 28 23 30 75 30 75 00 00
2026-07-26T17:07:04.612367,19.835,can0  040  [04]  0E 00 29 00
2026-07-26T17:07:04.721407,19.944,can0  206  [24]  89 0C C8 06 5D 0C 86 CB CF 06 35 0C 76 0C 00 00 00 00 00 00 00 00 00 00
2026-07-26T17:07:04.721742,19.944,can0  204  [16]  9C 09 B1 FF 0F 95 1A DF 28 23 30 75 30 75 00 00
2026-07-26T17:07:04.721985,19.944,can0  041  [04]  0D 00 25 00
2026-07-26T17:07:04.722258,19.945,can0  204  [16]  9C 09 B1 FF 0F 95 1A DF 28 23 30 75 30 75 00 00
2026-07-26T17:07:04.832760,20.055,can0  100  [03]  54 71 04
2026-07-26T17:07:04.832961,20.055,can0  120  [04]  1A 19 00 00
2026-07-26T17:07:04.833270,20.056,can0  070  [20]  D3 2C 4D 08 FF AE 62 03 A0 0F 00 00 07 00 00 00 54 00 00 00
2026-07-26T17:07:04.833551,20.056,can0  204  [16]  9C 09 B1 FF 0F 95 1A DF 28 23 30 75 30 75 00 00
2026-07-26T17:07:04.843661,20.066,can0  206  [24]  85 0C E2 06 5C 0C 99 C6 D1 06 3F 0C 76 0C 00 00 00 00 00 00 00 00 00 00
2026-07-26T17:07:04.950653,20.173,can0  040  [04]  0A 00 27 00
2026-07-26T17:07:04.951120,20.174,can0  204  [16]  9C 09 B1 FF 0F 95 1A DF 28 23 30 75 30 75 00 00
2026-07-26T17:07:04.951443,20.174,can0  060  [32]  00 00 00 00 00 00 00 00 00 00 00 00 00 00 00 00 00 00 00 00 00 00 00 00 00 00 00 00 00 00 00 00
2026-07-26T17:07:04.951770,20.174,can0  070  [20]  D3 2C 4D 08 FF AE 62 03 A0 0F 00 00 07 00 00 00 54 00 00 00
2026-07-26T17:07:04.952066,20.174,can0  040  [04]  0A 00 27 00
2026-07-26T17:07:04.952412,20.175,can0  204  [16]  9C 09 B1 FF 0F 95 1A DF 28 23 30 75 30 75 00 00
2026-07-26T17:07:05.012441,20.235,can0  204  [16]  9C 09 B1 FF 0F 95 1A DF 28 23 30 75 30 75 00 00
2026-07-26T17:07:05.012767,20.235,can0  041  [04]  10 00 2B 00
2026-07-26T17:07:05.015807,20.238,can0  206  [24]  85 0C E0 06 5C 0C 99 C6 D1 06 3F 0C 76 0C 00 00 00 00 00 00 00 00 00 00
2026-07-26T17:07:05.016210,20.239,can0  204  [16]  9C 09 B1 FF 0F 95 1A DF 28 23 30 75 30 75 00 00
2026-07-26T17:07:05.133787,20.356,can0  204  [16]  9C 09 B1 FF 0F 95 1A DF 28 23 30 75 30 75 00 00
2026-07-26T17:07:05.141216,20.364,can0  040  [04]  0D 00 25 00
2026-07-26T17:07:05.253949,20.476,can0  204  [16]  9C 09 B1 FF 0F 95 1A DF 28 23 30 75 30 75 00 00
2026-07-26T17:07:05.257288,20.480,can0  040  [04]  0D 00 25 00
2026-07-26T17:07:05.257370,20.480,can0  206  [24]  76 0C DF 06 70 0C 99 C6 D0 06 3A 0C 76 0C 00 00 00 00 00 00 00 00 00 00
2026-07-26T17:07:05.257725,20.480,can0  070  [20]  D3 2C 4D 08 FF AE 62 03 88 13 00 00 07 00 00 00 34 00 00 00
2026-07-26T17:07:05.258116,20.481,can0  204  [16]  9C 09 B1 FF 0F 95 1A DF 28 23 30 75 30 75 00 00
2026-07-26T17:07:05.270773,20.493,can0  070  [20]  D3 2C 4D 08 FF AE 62 03 88 13 00 00 07 00 00 00 33 00 00 00
2026-07-26T17:07:05.337608,20.560,can0  041  [04]  19 00 2D 00
2026-07-26T17:07:05.337972,20.560,can0  204  [16]  9C 09 B1 FF 0F 95 1A DF 28 23 30 75 30 75 00 00
2026-07-26T17:07:05.338618,20.561,can0  070  [20]  D3 2C 4D 08 FF AE 62 03 88 13 00 00 07 00 00 00 33 00 00 00
2026-07-26T17:07:05.338994,20.561,can0  204  [16]  9C 09 B1 FF 0F 95 1A DF 28 23 30 75 30 75 00 00
2026-07-26T17:07:05.342018,20.564,can0  206  [24]  76 0C E1 06 70 0C 99 C6 D0 06 3A 0C 76 0C 00 00 00 00 00 00 00 00 00 00
2026-07-26T17:07:05.468844,20.691,can0  060  [32]  00 00 00 00 00 00 00 00 00 00 00 00 00 00 00 00 00 00 00 00 00 00 00 00 00 00 00 00 00 00 00 00
2026-07-26T17:07:05.469207,20.692,can0  040  [04]  1D 00 1B 00
2026-07-26T17:07:05.469556,20.692,can0  204  [16]  9C 09 B1 FF 0F 95 1A DF 28 23 30 75 30 75 00 00
2026-07-26T17:07:05.469779,20.692,can0  060  [32]  00 00 00 00 D3 2C 4D 08 54 04 B8 10 00 00 10 0E FF 01 00 00 00 00 00 00 01 00 00 00 00 00 00 00
2026-07-26T17:07:05.470852,20.693,can0  040  [04]  1D 00 1B 00
2026-07-26T17:07:05.470908,20.693,can0  204  [16]  9C 09 B1 FF 0F 95 1A DF 28 23 30 75 30 75 00 00
2026-07-26T17:07:05.549836,20.772,can0  206  [24]  76 0C E0 06 70 0C 99 C6 D0 06 3A 0C 76 0C 00 00 00 00 00 00 00 00 00 00
2026-07-26T17:07:05.550401,20.773,can0  204  [16]  9C 09 B1 FF 0F 95 1A DF 28 23 30 75 30 75 00 00
2026-07-26T17:07:05.550749,20.773,can0  041  [04]  1D 00 31 00
2026-07-26T17:07:05.733860,20.956,can0  110  [02]  1D 1B
2026-07-26T17:07:05.733998,20.956,can0  204  [16]  9C 09 B1 FF 0F 95 1A DF 28 23 30 75 30 75 00 00
2026-07-26T17:07:05.734072,20.956,can0  204  [16]  9C 09 B1 FF 0F 95 1A DF 28 23 30 75 30 75 00 00
2026-07-26T17:07:05.734140,20.957,can0  040  [04]  12 00 1A 00
2026-07-26T17:07:05.841108,21.064,can0  206  [24]  85 0C C7 06 70 0C 99 C6 D0 06 3F 0C 67 0C 00 00 00 00 00 00 00 00 00 00
2026-07-26T17:07:05.841504,21.064,can0  204  [16]  9C 09 B1 FF 0F 95 1A DF 28 23 30 75 30 75 00 00
2026-07-26T17:07:05.841731,21.064,can0  040  [04]  12 00 1A 00
2026-07-26T17:07:05.841987,21.064,can0  204  [16]  9C 09 B1 FF 0F 95 1A DF 28 23 30 75 30 75 00 00
2026-07-26T17:07:05.842240,21.065,can0  041  [04]  1C 00 33 00
2026-07-26T17:07:05.842530,21.065,can0  204  [16]  9C 09 B1 FF 0F 95 1A DF 28 23 30 75 30 75 00 00
2026-07-26T17:07:05.842733,21.065,can0  070  [20]  D3 2C 4D 08 FF AE 62 03 88 13 00 00 07 00 00 00 33 00 00 00
2026-07-26T17:07:05.844340,21.067,can0  206  [24]  85 0C C9 06 70 0C 99 C6 C8 06 3F 0C 67 0C 00 00 00 00 00 00 00 00 00 00
2026-07-26T17:07:05.917852,21.140,can0  204  [16]  9C 09 B1 FF 0F 95 1A DF 28 23 30 75 30 75 00 00
2026-07-26T17:07:05.919089,21.142,can0  060  [32]  00 00 00 00 00 00 00 00 00 00 00 00 00 00 00 00 00 00 00 00 00 00 00 00 00 00 00 00 00 00 00 00
2026-07-26T17:07:05.919473,21.142,can0  040  [04]  08 00 1F 00
2026-07-26T17:07:05.919660,21.142,can0  204  [16]  9C 09 B1 FF 0F 95 1A DF 28 23 30 75 30 75 00 00
2026-07-26T17:07:05.919890,21.142,can0  070  [20]  D3 2C 4D 08 FF AE 62 03 88 13 00 00 07 00 00 00 33 00 00 00
2026-07-26T17:07:05.929070,21.151,can0  100  [03]  56 71 04
2026-07-26T17:07:06.058751,21.281,can0  120  [04]  1B 19 00 00
2026-07-26T17:07:06.059100,21.282,can0  040  [04]  08 00 1F 00
2026-07-26T17:07:06.060504,21.283,can0  204  [16]  9C 09 B1 FF 0F 95 1A DF 28 23 30 75 30 75 00 00
2026-07-26T17:07:06.064635,21.287,can0  206  [24]  8E 0C C7 06 66 0C 99 C6 C7 06 44 0C 62 0C 00 00 00 00 00 00 00 00 00 00
2026-07-26T17:07:06.065036,21.287,can0  204  [16]  9C 09 B1 FF 0F 95 1A DF 28 23 30 75 30 75 00 00
2026-07-26T17:07:06.133578,21.356,can0  041  [04]  1B 00 2F 00
2026-07-26T17:07:06.134749,21.357,can0  204  [16]  9C 09 B1 FF 0F 95 1A DF 28 23 30 75 30 75 00 00
2026-07-26T17:07:06.143527,21.366,can0  204  [16]  9C 09 B1 FF 0F 95 1A DF 28 23 30 75 30 75 00 00
2026-07-26T17:07:06.247438,21.470,can0   002  [04]  0b 03 00 10 0
2026-07-26T17:07:06.270032,21.492,can0  206  [24]  89 0C C7 06 66 0C 99 C6 C7 06 44 0C 67 0C 00 00 00 00 00 00 00 00 00 00
2026-07-26T17:07:06.271348,21.494,can0  070  [20]  D3 2C 4D 08 FF AE 62 03 70 17 00 00 07 00 00 00 25 00 00 00
2026-07-26T17:07:06.271444,21.494,can0  040  [04]  67 01 1C 00
2026-07-26T17:07:06.271770,21.494,can0  204  [16]  9C 09 B1 FF 0F 95 1A DF 28 23 30 75 30 75 00 00
2026-07-26T17:07:06.272131,21.495,can0  070  [20]  D3 2C 4D 08 FF AE 62 03 70 17 00 00 07 00 00 00 25 00 00 00
2026-07-26T17:07:06.279963,21.502,can0  040  [04]  67 01 1C 00
2026-07-26T17:07:06.355045,21.577,can0  204  [16]  9C 09 B1 FF 0F 95 1A DF 28 23 30 75 30 75 00 00
2026-07-26T17:07:06.355174,21.578,can0  070  [20]  D3 2C 4D 08 FF AE 62 03 70 17 00 00 07 00 00 00 25 00 00 00
2026-07-26T17:07:06.355655,21.578,can0  002  [04]  B0 30 01 00
2026-07-26T17:07:06.356102,21.579,can0  204  [16]  9C 09 B1 FF 0F 95 1A DF 28 23 30 75 30 75 00 00
2026-07-26T17:07:06.356435,21.579,can0  041  [04]  1B 00 2E 00
2026-07-26T17:07:06.357183,21.580,can0  206  [24]  89 0C C6 06 66 0C 99 C6 C7 06 3F 0C 67 0C 00 00 00 00 00 00 00 00 00 00
2026-07-26T17:07:06.451079,21.673,can0  204  [16]  9C 09 B1 FF 0F 95 1A DF 28 23 30 75 30 75 00 00
2026-07-26T17:07:06.451185,21.674,can0  060  [32]  00 00 00 00 D3 2C 4D 08 54 04 B8 10 00 00 10 0E FF 01 00 00 00 00 00 00 01 00 00 00 00 00 00 00
2026-07-26T17:07:06.451539,21.674,can0  204  [16]  9C 09 B1 FF 0F 95 1A DF 28 23 30 75 30 75 00 00
2026-07-26T17:07:06.451985,21.674,can0  040  [04]  08 00 10 00
2026-07-26T17:07:06.543625,21.766,can0  040  [04]  08 00 10 00
2026-07-26T17:07:06.548318,21.771,can0  206  [24]  7F 0C C6 06 66 0C 99 C6 C5 06 3A 0C 71 0C 00 00 00 00 00 00 00 00 00 00
2026-07-26T17:07:06.548833,21.771,can0  204  [16]  9C 09 B1 FF 0F 95 1A DF 28 23 30 75 30 75 00 00
2026-07-26T17:07:06.668836,21.891,can0  204  [16]  9C 09 B1 FF 0F 95 1A DF 28 23 30 75 30 75 00 00
2026-07-26T17:07:06.669181,21.892,can0  041  [04]  1E 00 2B 00
2026-07-26T17:07:06.669525,21.892,can0  204  [16]  9C 09 B1 FF 0F 95 1A DF 28 23 30 75 30 75 00 00
2026-07-26T17:07:06.731099,21.954,can0  206  [24]  7A 0C C6 06 6B 0C 99 C6 CF 06 35 0C 76 0C 00 00 00 00 00 00 00 00 00 00
2026-07-26T17:07:06.731530,21.954,can0  204  [16]  9C 09 B1 FF 0F 95 1A DF 28 23 30 75 30 75 00 00
2026-07-26T17:07:06.738816,21.961,can0  040  [04]  16 00 18 00
2026-07-26T17:07:06.738890,21.961,can0  204  [16]  9C 09 B1 FF 0F 95 1A DF 28 23 30 75 30 75 00 00
2026-07-26T17:07:06.860248,22.083,can0  040  [04]  16 00 18 00
2026-07-26T17:07:06.860581,22.083,can0  070  [20]  D3 2C 4D 08 FF AE 62 03 70 17 00 00 07 00 00 00 25 00 00 00
2026-07-26T17:07:06.860932,22.083,can0  204  [16]  9C 09 B1 FF 0F 95 1A DF 28 23 30 75 30 75 00 00
2026-07-26T17:07:06.864534,22.087,can0  206  [24]  7B 0C C8 06 66 0C 99 C6 D1 06 3A 0C 7B 0C 00 00 00 00 00 00 00 00 00 00
2026-07-26T17:07:06.864965,22.087,can0  204  [16]  9C 09 B1 FF 0F 95 1A DF 28 23 30 75 30 75 00 00
2026-07-26T17:07:06.929044,22.151,can0  041  [04]  1D 00 29 00
2026-07-26T17:07:06.939545,22.162,can0  070  [20]  D3 2C 4D 08 FF AE 62 03 70 17 00 00 07 00 00 00 25 00 00 00
2026-07-26T17:07:06.939641,22.162,can0  204  [16]  9C 09 B1 FF 0F 95 1A DF 28 23 30 75 30 75 00 00
2026-07-26T17:07:07.059583,22.282,can0  204  [16]  9C 09 B1 FF 0F 95 1A DF 28 23 30 75 30 75 00 00
2026-07-26T17:07:07.073312,22.296,can0  060  [32]  BE FD D5 02 C3 BE 4D 08 64 A8 63 03 48 00 46 05 84 00 77 00 00 00 00 00 02 00 00 00 00 00 00 00
2026-07-26T17:07:07.073416,22.296,can0  060  [32]  5A F1 E8 05 82 91 4D 08 FD 1F 62 03 00 00 B5 00 D0 00 7D 00 00 00 00 01 02 00 00 00 00 00 00 00
2026-07-26T17:07:07.073482,22.296,can0  040  [04]  15 00 19 00
2026-07-26T17:07:07.073556,22.296,can0  206  [24]  7F 0C C8 06 66 0C 99 C6 D1 06 35 0C 76 0C 00 00 00 00 00 00 00 00 00 00
2026-07-26T17:07:07.073634,22.296,can0  040  [04]  15 00 19 00
2026-07-26T17:07:07.073706,22.296,can0  204  [16]  9C 09 B1 FF 0F 95 1A DF 28 23 30 75 30 75 00 00
2026-07-26T17:07:07.141278,22.364,can0  204  [16]  9C 09 B1 FF 0F 95 1A DF 28 23 30 75 30 75 00 00
2026-07-26T17:07:07.141528,22.364,can0  041  [04]  1F 00 26 00
2026-07-26T17:07:07.141791,22.364,can0  204  [16]  9C 09 B1 FF 0F 95 1A DF 28 23 30 75 30 75 00 00
2026-07-26T17:07:07.142036,22.364,can0  100  [03]  56 71 04
2026-07-26T17:07:07.142222,22.365,can0  110  [02]  1D 1B
2026-07-26T17:07:07.142475,22.365,can0  120  [04]  1F 19 00 00
2026-07-26T17:07:07.272852,22.495,can0  206  [24]  7A 0C C7 06 6B 0C 99 C6 D4 06 3A 0C 76 0C 00 00 00 00 00 00 00 00 00 00
2026-07-26T17:07:07.273312,22.496,can0  070  [20]  D3 2C 4D 08 FE AE 62 03 58 1B 00 00 07 00 00 00 1A 00 00 00
2026-07-26T17:07:07.273738,22.496,can0  204  [16]  9C 09 B1 FF 0F 95 1A DF 28 23 30 75 30 75 00 00
2026-07-26T17:07:07.273987,22.496,can0  070  [20]  D3 2C 4D 08 FE AE 62 03 58 1B 00 00 07 00 00 00 19 00 00 00
2026-07-26T17:07:07.284041,22.506,can0  040  [04]  0B 00 22 00
2026-07-26T17:07:07.348333,22.571,can0  204  [16]  9C 09 B1 FF 0F 95 1A DF 28 23 30 75 30 75 00 00
2026-07-26T17:07:07.348839,22.571,can0  040  [04]  0B 00 22 00
2026-07-26T17:07:07.349277,22.572,can0  070  [20]  D3 2C 4D 08 FE AE 62 03 58 1B 00 00 07 00 00 00 19 00 00 00
2026-07-26T17:07:07.349719,22.572,can0  204  [16]  9C 09 B1 FF 0F 95 1A DF 28 23 30 75 30 75 00 00
2026-07-26T17:07:07.350946,22.573,can0  206  [24]  7F 0C C7 06 66 0C 99 C6 D4 06 3F 0C 76 0C 00 00 00 00 00 00 00 00 00 00
2026-07-26T17:07:07.426770,22.649,can0  204  [16]  9C 09 B1 FF 0F 95 1A DF 28 23 30 75 30 75 00 00
2026-07-26T17:07:07.427020,22.649,can0  041  [04]  22 00 26 00
2026-07-26T17:07:07.427292,22.650,can0  204  [16]  9C 09 B1 FF 0F 95 1A DF 28 23 30 75 30 75 00 00
2026-07-26T17:07:07.557381,22.780,can0  206  [24]  7A 0C C8 06 6B 0C 99 C6 D1 06 3F 0C 76 0C 00 00 00 00 00 00 00 00 00 00
2026-07-26T17:07:07.565633,22.788,can0  204  [16]  9C 09 B1 FF 0F 95 1A DF 28 23 30 75 30 75 00 00
2026-07-26T17:07:07.565736,22.788,can0  040  [04]  05 00 29 00
2026-07-26T17:07:07.565808,22.788,can0  204  [16]  9C 09 B1 FF 0F 95 1A DF 28 23 30 75 30 75 00 00
2026-07-26T17:07:07.624885,22.847,can0  040  [04]  05 00 29 00
2026-07-26T17:07:07.625333,22.848,can0  204  [16]  9C 09 B1 FF 0F 95 1A DF 28 23 30 75 30 75 00 00
2026-07-26T17:07:07.628475,22.851,can0  206  [24]  7A 0C C8 06 6B 0C 99 C6 D1 06 3F 0C 76 0C 00 00 00 00 00 00 00 00 00 00
2026-07-26T17:07:07.628822,22.851,can0  041  [04]  1D 00 29 00
2026-07-26T17:07:07.749782,22.972,can0  204  [16]  9C 09 B1 FF 0F 95 1A DF 28 23 30 75 30 75 00 00
2026-07-26T17:07:07.750253,22.973,can0  204  [16]  9C 09 B1 FF 0F 95 1A DF 28 23 30 75 30 75 00 00
2026-07-26T17:07:07.867212,23.090,can0  040  [04]  04 00 2A 00
2026-07-26T17:07:07.867623,23.090,can0  204  [16]  9C 09 B1 FF 0F 95 1A DF 28 23 30 75 30 75 00 00
2026-07-26T17:07:07.868522,23.091,can0  070  [20]  D3 2C 4D 08 FE AE 62 03 58 1B 00 00 07 00 00 00 19 00 00 00
2026-07-26T17:07:07.873066,23.095,can0  206  [24]  7F 0C C8 06 66 0C 99 C6 D1 06 3F 0C 76 0C 00 00 00 00 00 00 00 00 00 00
2026-07-26T17:07:07.873527,23.096,can0  040  [04]  04 00 2A 00
2026-07-26T17:07:07.873903,23.096,can0  204  [16]  9C 09 B1 FF 0F 95 1A DF 28 23 30 75 30 75 00 00
2026-07-26T17:07:07.940363,23.163,can0  070  [20]  D3 2C 4D 08 FE AE 62 03 58 1B 00 00 07 00 00 00 19 00 00 00
2026-07-26T17:07:07.940732,23.163,can0  204  [16]  9C 09 B1 FF 0F 95 1A DF 28 23 30 75 30 75 00 00
2026-07-26T17:07:07.941039,23.163,can0  041  [04]  19 00 2C 00
2026-07-26T17:07:08.062088,23.285,can0  204  [16]  9C 09 B1 FF 0F 95 1A DF 28 23 30 75 30 75 00 00
2026-07-26T17:07:08.065489,23.288,can0  206  [24]  7F 0C C5 06 66 0C 99 C6 D1 06 3A 0C 76 0C 00 00 00 00 00 00 00 00 00 00
2026-07-26T17:07:08.065933,23.288,can0  204  [16]  9C 09 B1 FF 0F 95 1A DF 28 23 30 75 30 75 00 00
2026-07-26T17:07:08.074334,23.297,can0  040  [04]  02 00 29 00
2026-07-26T17:07:08.131093,23.354,can0  204  [16]  9C 09 B1 FF 0F 95 1A DF 28 23 30 75 30 75 00 00
2026-07-26T17:07:08.131317,23.354,can0  040  [04]  02 00 29 00
2026-07-26T17:07:08.131578,23.354,can0  204  [16]  9C 09 B1 FF 0F 95 1A DF 28 23 30 75 30 75 00 00
2026-07-26T17:07:08.135010,23.357,can0  206  [24]  7F 0C C8 06 66 0C 99 C6 D1 06 3F 0C 76 0C 00 00 00 00 00 00 00 00 00 00
2026-07-26T17:07:08.253857,23.476,can0  070  [20]  D3 2C 4D 08 FE AE 62 03 40 1F 00 00 07 00 00 00 6A 00 00 00
2026-07-26T17:07:08.254114,23.477,can0  041  [04]  14 00 2E 00
2026-07-26T17:07:08.254402,23.477,can0  204  [16]  9C 09 B1 FF 0F 95 1A DF 28 23 30 75 30 75 00 00
2026-07-26T17:07:08.254795,23.477,can0  070  [20]  D3 2C 4D 08 FE AE 62 03 40 1F 00 00 07 00 00 00 69 00 00 00
2026-07-26T17:07:08.255079,23.477,can0  204  [16]  9C 09 B1 FF 0F 95 1A DF 28 23 30 75 30 75 00 00
2026-07-26T17:07:08.315135,23.538,can0  070  [20]  D3 2C 4D 08 FE AE 62 03 40 1F 00 00 07 00 00 00 69 00 00 00
2026-07-26T17:07:08.315913,23.538,can0  040  [04]  67 01 27 00
2026-07-26T17:07:08.315997,23.538,can0  204  [16]  9C 09 B1 FF 0F 95 1A DF 28 23 30 75 30 75 00 00
2026-07-26T17:07:08.319655,23.542,can0  206  [24]  7F 0C C7 06 66 0C 99 C6 D1 06 3F 0C 76 0C 00 00 00 00 00 00 00 00 00 00
2026-07-26T17:07:08.320008,23.542,can0  100  [03]  57 71 04
2026-07-26T17:07:08.320336,23.543,can0  040  [04]  67 01 27 00
2026-07-26T17:07:08.320616,23.543,can0  120  [04]  16 19 00 00
2026-07-26T17:07:08.446666,23.669,can0  204  [16]  9C 09 B1 FF 0F 95 1A DF 28 23 30 75 30 75 00 00
2026-07-26T17:07:08.447091,23.669,can0  204  [16]  9C 09 B1 FF 0F 95 1A DF 28 23 30 75 30 75 00 00
2026-07-26T17:07:08.447147,23.670,can0  060  [32]  00 00 00 00 D3 2C 4D 08 52 04 B8 10 00 00 10 0E FF 01 00 00 00 00 00 00 01 00 00 00 00 00 00 00
2026-07-26T17:07:08.448091,23.670,can0  041  [04]  18 00 31 00
2026-07-26T17:07:08.565371,23.788,can0  206  [24]  84 0C C6 06 66 0C 99 C6 D1 06 3F 0C 71 0C 00 00 00 00 00 00 00 00 00 00
2026-07-26T17:07:08.565967,23.788,can0  204  [16]  9C 09 B1 FF 0F 95 1A DF 28 23 30 75 30 75 00 00
2026-07-26T17:07:08.573764,23.796,can0  204  [16]  9C 09 B1 FF 0F 95 1A DF 28 23 30 75 30 75 00 00
2026-07-26T17:07:08.626003,23.848,can0  040  [04]  63 01 21 00
2026-07-26T17:07:08.626396,23.849,can0  204  [16]  9C 09 B1 FF 0F 95 1A DF 28 23 30 75 30 75 00 00
2026-07-26T17:07:08.626695,23.849,can0  040  [04]  63 01 21 00
2026-07-26T17:07:08.629753,23.852,can0  206  [24]  7F 0C C6 06 66 0C 99 C6 CF 06 3F 0C 76 0C 00 00 00 00 00 00 00 00 00 00
2026-07-26T17:07:08.745533,23.968,can0  204  [16]  9C 09 B1 FF 0F 95 1A DF 28 23 30 75 30 75 00 00
2026-07-26T17:07:08.745909,23.968,can0  204  [16]  9C 09 B1 FF 0F 95 1A DF 28 23 30 75 30 75 00 00
2026-07-26T17:07:08.746228,23.969,can0  041  [04]  1A 00 34 00
2026-07-26T17:07:08.746521,23.969,can0  110  [02]  1A 1B
2026-07-26T17:07:08.861019,24.083,can0  204  [16]  9C 09 B1 FF 0F 95 1A DF 28 23 30 75 30 75 00 00
2026-07-26T17:07:08.861375,24.084,can0  070  [20]  D3 2C 4D 08 FE AE 62 03 40 1F 00 00 07 00 00 00 69 00 00 00
2026-07-26T17:07:08.864510,24.087,can0  206  [24]  7F 0C CC 06 66 0C 99 C6 CE 06 3F 0C 76 0C 00 00 00 00 00 00 00 00 00 00
2026-07-26T17:07:08.864847,24.087,can0  040  [04]  5C 01 1A 00
2026-07-26T17:07:08.865257,24.088,can0  204  [16]  9C 09 B1 FF 0F 95 1A DF 28 23 30 75 30 75 00 00
2026-07-26T17:07:08.927536,24.150,can0  204  [16]  9C 09 B1 FF 0F 95 1A DF 28 23 30 75 30 75 00 00
2026-07-26T17:07:08.928180,24.151,can0  070  [20]  D3 2C 4D 08 FE AE 62 03 40 1F 00 00 07 00 00 00 69 00 00 00
2026-07-26T17:07:08.928414,24.151,can0  040  [04]  5C 01 1A 00
2026-07-26T17:07:08.928648,24.151,can0  060  [32]  00 00 00 00 00 00 00 00 00 00 00 00 00 00 00 00 00 00 00 00 00 00 00 00 00 00 00 00 00 00 00 00
2026-07-26T17:07:08.937202,24.160,can0  204  [16]  9C 09 B1 FF 0F 95 1A DF 28 23 30 75 30 75 00 00
2026-07-26T17:07:09.045119,24.268,can0  060  [32]  C0 8C B3 0E FA E4 4D 08 67 DF 62 03 B2 00 D7 0A 16 01 80 00 00 00 00 00 01 00 00 00 00 00 00 00
2026-07-26T17:07:09.048661,24.271,can0  206  [24]  7A 0C C9 06 6B 0C 99 C6 CF 06 3F 0C 76 0C 00 00 00 00 00 00 00 00 00 00
2026-07-26T17:07:09.048987,24.271,can0  041  [04]  1D 00 36 00
2026-07-26T17:07:09.056482,24.279,can0  204  [16]  9C 09 B1 FF 0F 95 1A DF 28 23 30 75 30 75 00 00
2026-07-26T17:07:09.172565,24.395,can0  204  [16]  9C 09 B1 FF 0F 95 1A DF 28 23 30 75 30 75 00 00
2026-07-26T17:07:09.172897,24.395,can0  040  [04]  56 01 16 00
2026-07-26T17:07:09.173261,24.396,can0  204  [16]  9C 09 B1 FF 0F 95 1A DF 28 23 30 75 30 75 00 00
2026-07-26T17:07:09.187885,24.410,can0  206  [24]  75 0C C8 06 6B 0C 99 C6 CF 06 4E 0C 7B 0C 00 00 00 00 00 00 00 00 00 00
2026-07-26T17:07:09.239248,24.462,can0  070  [20]  D3 2C 4D 08 FE AE 62 03 28 23 00 00 07 00 00 00 4A 00 00 00
2026-07-26T17:07:09.239339,24.462,can0  040  [04]  56 01 16 00
2026-07-26T17:07:09.239380,24.462,can0  204  [16]  9C 09 B1 FF 0F 95 1A DF 28 23 30 75 30 75 00 00
2026-07-26T17:07:09.248468,24.471,can0  070  [20]  D3 2C 4D 08 FE AE 62 03 28 23 00 00 07 00 00 00 4A 00 00 00
2026-07-26T17:07:09.248538,24.471,can0  204  [16]  9C 09 B1 FF 0F 95 1A DF 28 23 30 75 30 75 00 00
2026-07-26T17:07:09.248576,24.471,can0  041  [04]  1E 00 32 00
2026-07-26T17:07:09.363395,24.586,can0  204  [16]  9C 09 B1 FF 0F 95 1A DF 28 23 30 75 30 75 00 00
2026-07-26T17:07:09.363880,24.586,can0  070  [20]  D3 2C 4D 08 FE AE 62 03 28 23 00 00 07 00 00 00 4A 00 00 00
2026-07-26T17:07:09.368182,24.591,can0  206  [24]  75 0C C8 06 6B 0C 99 C6 CC 06 49 0C 7B 0C 00 00 00 00 00 00 00 00 00 00
2026-07-26T17:07:09.427729,24.650,can0  204  [16]  9C 09 B1 FF 0F 95 1A DF 28 23 30 75 30 75 00 00
2026-07-26T17:07:09.428339,24.651,can0  040  [04]  5D 01 15 00
2026-07-26T17:07:09.428416,24.651,can0  204  [16]  9C 09 B1 FF 0F 95 1A DF 28 23 30 75 30 75 00 00
2026-07-26T17:07:09.428548,24.651,can0  040  [04]  5D 01 15 00
2026-07-26T17:07:09.549657,24.772,can0  204  [16]  9C 09 B1 FF 0F 95 1A DF 28 23 30 75 30 75 00 00
2026-07-26T17:07:09.555190,24.778,can0  206  [24]  71 0C C8 06 70 0C 99 C6 CF 06 4E 0C 7B 0C 00 00 00 00 00 00 00 00 00 00
2026-07-26T17:07:09.555307,24.778,can0  132  [00]
2026-07-26T17:07:09.555377,24.778,can0  041  [04]  14 00 2C 00
2026-07-26T17:07:09.555460,24.778,can0  204  [16]  9C 09 B1 FF 0F 95 1A DF 28 23 30 75 30 75 00 00
2026-07-26T17:07:09.555679,24.778,can0  100  [03]  5A 71 04
2026-07-26T17:07:09.564243,24.787,can0  120  [04]  0D 19 00 00
2026-07-26T17:07:09.674295,24.897,can0  204  [16]  9C 09 B1 FF 0F 95 1A DF 28 23 30 75 30 75 00 00
2026-07-26T17:07:09.674526,24.897,can0  040  [04]  03 00 11 00
2026-07-26T17:07:09.678420,24.901,can0  206  [24]  71 0C C6 06 70 0C 99 C6 CF 06 49 0C 7B 0C 00 00 00 00 00 00 00 00 00 00
2026-07-26T17:07:09.678901,24.901,can0  204  [16]  9C 09 B1 FF 0F 95 1A DF 28 23 30 75 30 75 00 00
2026-07-26T17:07:09.744104,24.967,can0  040  [04]  03 00 11 00
2026-07-26T17:07:09.744477,24.967,can0  204  [16]  9C 09 B1 FF 0F 95 1A DF 28 23 30 75 30 75 00 00
2026-07-26T17:07:09.878585,25.102,can0  204  [16]  9C 09 B1 FF 0F 95 1A DF 28 23 30 75 30 75 00 00
2026-07-26T17:07:09.879706,25.102,can0  041  [04]  0B 00 28 00
2026-07-26T17:07:09.880035,25.102,can0  070  [20]  D3 2C 4D 08 FE AE 62 03 28 23 00 00 07 00 00 00 4A 00 00 00
2026-07-26T17:07:09.884799,25.107,can0  206  [24]  76 0C C8 06 70 0C 99 C6 CE 06 52 0C 76 0C 00 00 00 00 00 00 00 00 00 00
2026-07-26T17:07:09.892921,25.115,can0  204  [16]  9C 09 B1 FF 0F 95 1A DF 28 23 30 75 30 75 00 00
2026-07-26T17:07:09.943493,25.166,can0  204  [16]  9C 09 B1 FF 0F 95 1A DF 28 23 30 75 30 75 00 00
2026-07-26T17:07:09.943633,25.166,can0  070  [20]  D3 2C 4D 08 FE AE 62 03 28 23 00 00 07 00 00 00 4A 00 00 00
2026-07-26T17:07:09.944026,25.166,can0  040  [04]  13 00 15 00
2026-07-26T17:07:09.944448,25.167,can0  204  [16]  9C 09 B1 FF 0F 95 1A DF 28 23 30 75 30 75 00 00
2026-07-26T17:07:09.944668,25.167,can0  040  [04]  13 00 15 00
2026-07-26T17:07:10.058845,25.281,can0  206  [24]  76 0C C9 06 70 0C 99 C6 CE 06 49 0C 76 0C 00 00 00 00 00 00 00 00 00 00
2026-07-26T17:07:10.059179,25.282,can0  204  [16]  9C 09 B1 FF 0F 95 1A DF 28 23 30 75 30 75 00 00
2026-07-26T17:07:10.059433,25.282,can0  041  [04]  10 00 27 00
2026-07-26T17:07:10.059690,25.282,can0  204  [16]  9C 09 B1 FF 0F 95 1A DF 28 23 30 75 30 75 00 00
2026-07-26T17:07:10.169993,25.392,can0  204  [16]  9C 09 B1 FF 0F 95 1A DF 28 23 30 75 30 75 00 00
2026-07-26T17:07:10.173413,25.396,can0  206  [24]  76 0C C8 06 75 0C 99 C6 D1 06 44 0C 76 0C 00 00 00 00 00 00 00 00 00 00
2026-07-26T17:07:10.227578,25.450,can0  070  [20]  D3 2C 4D 08 FC AE 62 03 10 27 00 00 07 00 00 00 1F 00 00 00
2026-07-26T17:07:10.227955,25.450,can0  040  [04]  07 00 16 00
2026-07-26T17:07:10.228204,25.451,can0  204  [16]  9C 09 B1 FF 0F 95 1A DF 28 23 30 75 30 75 00 00
2026-07-26T17:07:10.228453,25.451,can0  070  [20]  D3 2C 4D 08 FC AE 62 03 10 27 00 00 07 00 00 00 20 00 00 00
2026-07-26T17:07:10.228707,25.451,can0  040  [04]  07 00 16 00
2026-07-26T17:07:10.228922,25.451,can0  204  [16]  9C 09 B1 FF 0F 95 1A DF 28 23 30 75 30 75 00 00
2026-07-26T17:07:10.338558,25.561,can0  070  [20]  D3 2C 4D 08 FC AE 62 03 10 27 00 00 07 00 00 00 20 00 00 00
2026-07-26T17:07:10.338843,25.561,can0  204  [16]  9C 09 B1 FF 0F 95 1A DF 28 23 30 75 30 75 00 00
2026-07-26T17:07:10.342364,25.565,can0  206  [24]  7A 0C C8 06 6B 0C 99 C6 CE 06 44 0C 76 0C 00 00 00 00 00 00 00 00 00 00
2026-07-26T17:07:10.342713,25.565,can0  041  [04]  16 00 26 00
2026-07-26T17:07:10.342903,25.565,can0  110  [02]  1C 1B
2026-07-26T17:07:10.343196,25.566,can0  204  [16]  9C 09 B1 FF 0F 95 1A DF 28 23 30 75 30 75 00 00
2026-07-26T17:07:10.446855,25.669,can0  204  [16]  9C 09 B1 FF 0F 95 1A DF 28 23 30 75 30 75 00 00
2026-07-26T17:07:10.447111,25.670,can0  040  [04]  09 00 20 00
2026-07-26T17:07:10.556617,25.779,can0  204  [16]  9C 09 B1 FF 0F 95 1A DF 28 23 30 75 30 75 00 00
2026-07-26T17:07:10.556802,25.779,can0  060  [32]  00 00 00 00 D3 2C 4D 08 51 04 B8 10 00 00 10 0E FF 01 00 00 00 00 00 00 01 00 00 00 00 00 00 00
2026-07-26T17:07:10.560679,25.783,can0  206  [24]  7A 0C C9 06 6B 0C 99 C6 CE 06 49 0C 76 0C 00 00 00 00 00 00 00 00 00 00
2026-07-26T17:07:10.560956,25.783,can0  040  [04]  09 00 20 00
2026-07-26T17:07:10.561291,25.784,can0  204  [16]  9C 09 B1 FF 0F 95 1A DF 28 23 30 75 30 75 00 00
2026-07-26T17:07:10.670318,25.893,can0  041  [04]  19 00 2A 00
2026-07-26T17:07:10.674091,25.897,can0  204  [16]  9C 09 B1 FF 0F 95 1A DF 28 23 30 75 30 75 00 00
2026-07-26T17:07:10.674178,25.897,can0  206  [24]  75 0C C9 06 6B 0C 99 C6 CE 06 3F 0C 7B 0C 00 00 00 00 00 00 00 00 00 00
2026-07-26T17:07:10.674423,25.897,can0  204  [16]  9C 09 B1 FF 0F 95 1A DF 28 23 30 75 30 75 00 00
2026-07-26T17:07:10.727898,25.950,can0  204  [16]  9C 09 B1 FF 0F 95 1A DF 28 23 30 75 30 75 00 00
2026-07-26T17:07:10.728155,25.951,can0  040  [04]  08 00 29 00
2026-07-26T17:07:10.728381,25.951,can0  100  [03]  5C 71 04
2026-07-26T17:07:10.728624,25.951,can0  120  [04]  19 19 00 00
2026-07-26T17:07:10.728789,25.951,can0  040  [04]  08 00 29 00
2026-07-26T17:07:10.837957,26.060,can0  204  [16]  9C 09 B1 FF 0F 95 1A DF 28 23 30 75 30 75 00 00
2026-07-26T17:07:10.838224,26.061,can0  070  [20]  D3 2C 4D 08 FC AE 62 03 10 27 00 00 07 00 00 00 20 00 00 00
2026-07-26T17:07:10.841977,26.064,can0  206  [24]  71 0C C8 06 71 0C 99 C6 CD 06 3A 0C 7F 0C 00 00 00 00 00 00 00 00 00 00
2026-07-26T17:07:10.842367,26.065,can0  204  [16]  9C 09 B1 FF 0F 95 1A DF 28 23 30 75 30 75 00 00
2026-07-26T17:07:10.842674,26.065,can0  041  [04]  1E 00 2B 00
2026-07-26T17:07:10.957407,26.180,can0  204  [16]  9C 09 B1 FF 0F 95 1A DF 28 23 30 75 30 75 00 00
2026-07-26T17:07:10.958083,26.180,can0  070  [20]  D3 2C 4D 08 FC AE 62 03 10 27 00 00 07 00 00 00 20 00 00 00
2026-07-26T17:07:10.958535,26.181,can0  204  [16]  9C 09 B1 FF 0F 95 1A DF 28 23 30 75 30 75 00 00
2026-07-26T17:07:11.073931,26.296,can0  206  [24]  71 0C C9 06 71 0C 99 C6 CE 06 3A 0C 7F 0C 00 00 00 00 00 00 00 00 00 00
2026-07-26T17:07:11.074329,26.297,can0  060  [32]  00 00 00 00 00 00 00 00 00 00 00 00 00 00 00 00 00 00 00 00 00 00 00 00 00 00 00 00 00 00 00 00
2026-07-26T17:07:11.074674,26.297,can0  040  [04]  0A 00 2A 00
2026-07-26T17:07:11.075070,26.297,can0  204  [16]  9C 09 B1 FF 0F 95 1A DF 28 23 30 75 30 75 00 00
2026-07-26T17:07:11.075356,26.298,can0  040  [04]  0A 00 2A 00
2026-07-26T17:07:11.075722,26.298,can0  204  [16]  9C 09 B1 FF 0F 95 1A DF 28 23 30 75 30 75 00 00
2026-07-26T17:07:11.136512,26.359,can0  204  [16]  9C 09 B1 FF 0F 95 1A DF 28 23 30 75 30 75 00 00
2026-07-26T17:07:11.136853,26.359,can0  041  [04]  21 00 27 00
2026-07-26T17:07:11.140152,26.363,can0  206  [24]  61 0C C5 06 6B 0C 99 C6 CF 06 3F 0C 8F 0C 00 00 00 00 00 00 00 00 00 00
2026-07-26T17:07:11.251383,26.474,can0  070  [20]  D3 2C 4D 08 FC AE 62 03 F8 2A 00 00 07 00 00 00 1C 00 00 00
