Timestamp,Elapsed_Time_s,CAN_Message
2026-03-07T13:58:09.732183,1.758,can0  070  [20]  9F F8 4C 08 D9 F5 61 03 28 23 00 00 3A 15 00 00 34 00 00 00
2026-03-07T13:58:09.732404,1.758,can0  060  [32]  00 00 00 00 9F F8 4C 08 2E 4B B7 10 00 00 10 0E FF 01 00 00 00 00 00 00 01 00 00 00 00 00 00 00
2026-03-07T13:58:09.732542,1.758,can0  070  [20]  9F F8 4C 08 D9 F5 61 03 28 23 00 00 3A 15 00 00 33 00 00 00
2026-03-07T13:58:09.732643,1.758,can0  041  [04]  B5 00 02 00
2026-03-07T13:58:09.830820,1.856,can0  100  [03]  99 59 04
2026-03-07T13:58:09.930674,1.956,can0  120  [04]  00 00 00 00
2026-03-07T13:58:09.930759,1.956,can0  070  [20]  9F F8 4C 08 D9 F5 61 03 28 23 00 00 3A 15 00 00 33 00 00 00
2026-03-07T13:58:09.930895,1.956,can0  206  [24]  A3 0C 93 06 A3 0C B1 E0 1B 07 BB 0C A7 0C 00 00 00 00 00 00 00 00 00 00
2026-03-07T13:58:10.130703,2.156,can0  206  [24]  A7 0C 8F 06 A7 0C C5 E1 1B 07 BF 0C 9F 0C 00 00 00 00 00 00 00 00 00 00
2026-03-07T13:58:10.130785,2.156,can0  041  [04]  B5 00 00 00
2026-03-07T13:58:10.230471,2.256,can0  206  [24]  A3 0C 88 06 9F 0C C5 E1 1B 07 C7 0C A7 0C 00 00 00 00 00 00 00 00 00 00
2026-03-07T13:58:10.230596,2.256,can0  060  [32]  00 00 00 00 00 00 00 00 00 00 00 00 00 00 00 00 00 00 00 00 00 00 00 00 00 00 00 00 00 00 00 00
2026-03-07T13:58:10.230709,2.256,can0  070  [20]  9F F8 4C 08 D9 F5 61 03 28 23 00 00 3A 15 00 00 33 00 00 00
2026-03-07T13:58:10.330912,2.356,can0  041  [04]  B5 00 00 00
2026-03-07T13:58:10.331037,2.356,can0  206  [24]  9F 0C 91 06 AB 0C A0 E2 1B 07 A7 0C A3 0C 00 00 00 00 00 00 00 00 00 00
2026-03-07T13:58:10.531045,2.556,can0  206  [24]  A7 0C 91 06 9F 0C B1 E0 1D 07 C7 0C A3 0C 00 00 00 00 00 00 00 00 00 00
2026-03-07T13:58:10.531148,2.556,can0  041  [04]  E4 00 00 00
2026-03-07T13:58:10.631583,2.657,can0  206  [24]  AB 0C 93 06 A3 0C A0 E2 1D 07 BB 0C 9F 0C 00 00 00 00 00 00 00 00 00 00
2026-03-07T13:58:10.730303,2.756,can0  070  [20]  9F F8 4C 08 DB F5 61 03 10 27 00 00 3A 15 00 00 38 00 00 00
2026-03-07T13:58:10.730365,2.756,can0  070  [20]  9F F8 4C 08 DB F5 61 03 10 27 00 00 3A 15 00 00 38 00 00 00
2026-03-07T13:58:10.730447,2.756,can0  060  [32]  00 00 00 00 9F F8 4C 08 2F 4B B7 10 00 00 10 0E FF 01 00 00 00 00 00 00 01 00 00 00 00 00 00 00
2026-03-07T13:58:10.830283,2.856,can0  070  [20]  9F F8 4C 08 DB F5 61 03 10 27 00 00 3A 15 00 00 38 00 00 00
2026-03-07T13:58:10.830476,2.856,can0  206  [24]  9B 0C 91 06 AF 0C 57 E3 18 07 C3 0C 9F 0C 00 00 00 00 00 00 00 00 00 00
2026-03-07T13:58:10.830677,2.856,can0  041  [04]  E4 00 02 00
2026-03-07T13:58:11.130685,3.156,can0  206  [24]  97 0C 93 06 AF 0C B1 E0 1F 07 BB 0C A7 0C 00 00 00 00 00 00 00 00 00 00
2026-03-07T13:58:11.131017,3.156,can0  100  [03]  97 59 04
2026-03-07T13:58:11.131278,3.157,can0  110  [02]  F4 1E
2026-03-07T13:58:11.131467,3.157,can0  120  [04]  00 00 00 00
2026-03-07T13:58:11.131549,3.157,can0  041  [04]  D1 00 02 00
2026-03-07T13:58:11.131656,3.157,can0  206  [24]  9F 0C 91 06 A3 0C B1 E0 1B 07 B7 0C A7 0C 00 00 00 00 00 00 00 00 00 00
2026-03-07T13:58:11.230844,3.256,can0  070  [20]  9F F8 4C 08 DB F5 61 03 10 27 00 00 3A 15 00 00 38 00 00 00
2026-03-07T13:58:11.230991,3.256,can0  060  [32]  00 00 00 00 00 00 00 00 00 00 00 00 00 00 00 00 00 00 00 00 00 00 00 00 00 00 00 00 00 00 00 00
2026-03-07T13:58:11.330884,3.356,can0  206  [24]  AF 0C 97 06 A3 0C A0 E2 1D 07 B7 0C 9B 0C 00 00 00 00 00 00 00 00 00 00
2026-03-07T13:58:11.331003,3.356,can0  041  [04]  C9 00 02 00
2026-03-07T13:58:11.531015,3.556,can0  206  [24]  97 0C 91 06 A3 0C B1 E0 1D 07 B3 0C AB 0C 00 00 00 00 00 00 00 00 00 00
2026-03-07T13:58:11.630575,3.656,can0  206  [24]  AF 0C 8D 06 A7 0C B1 E0 1D 07 C3 0C 97 0C 00 00 00 00 00 00 00 00 00 00
2026-03-07T13:58:11.730730,3.756,can0  041  [04]  C9 00 02 00
2026-03-07T13:58:11.730809,3.756,can0  070  [20]  9F F8 4C 08 DC F5 61 03 F8 2A 00 00 3A 15 00 00 13 00 00 00
2026-03-07T13:58:11.730893,3.756,can0  070  [20]  9F F8 4C 08 DC F5 61 03 F8 2A 00 00 3A 15 00 00 13 00 00 00
2026-03-07T13:58:11.730970,3.756,can0  060  [32]  00 00 00 00 00 00 00 00 00 00 00 00 00 00 00 00 00 00 00 00 00 00 00 00 00 00 00 00 00 00 00 00
2026-03-07T13:58:11.830444,3.856,can0  060  [32]  00 00 00 00 9F F8 4C 08 31 4B B7 10 00 00 10 0E FF 01 00 00 00 00 00 00 01 00 00 00 00 00 00 00
2026-03-07T13:58:11.830707,3.856,can0  206  [24]  BB 0C 91 06 A3 0C C5 E1 1B 07 BF 0C 8F 0C 00 00 00 00 00 00 00 00 00 00
2026-03-07T13:58:11.830773,3.856,can0  070  [20]  9F F8 4C 08 DC F5 61 03 F8 2A 00 00 3A 15 00 00 13 00 00 00
2026-03-07T13:58:11.930688,3.956,can0  041  [04]  D8 00 04 00
2026-03-07T13:58:11.930840,3.956,can0  206  [24]  A7 0C 8F 06 A3 0C A0 E2 16 07 BB 0C A3 0C 00 00 00 00 00 00 00 00 00 00
2026-03-07T13:58:12.132158,4.158,can0  206  [24]  9F 0C 8F 06 9F 0C C5 E1 1D 07 C3 0C AB 0C 00 00 00 00 00 00 00 00 00 00
2026-03-07T13:58:12.132208,4.158,can0  041  [04]  E4 00 02 00
2026-03-07T13:58:12.231516,4.257,can0  070  [20]  9F F8 4C 08 DC F5 61 03 F8 2A 00 00 3A 15 00 00 13 00 00 00
2026-03-07T13:58:12.231562,4.257,can0  100  [03]  96 59 04
2026-03-07T13:58:12.231796,4.257,can0  120  [04]  00 00 00 00
2026-03-07T13:58:12.235009,4.260,can0  060  [32]  00 00 00 00 00 00 00 00 00 00 00 00 00 00 00 00 00 00 00 00 00 00 00 00 00 00 00 00 00 00 00 00
2026-03-07T13:58:12.330428,4.356,can0  206  [24]  A7 0C 91 06 A7 0C C5 E1 1B 07 C7 0C 9B 0C 00 00 00 00 00 00 00 00 00 00
2026-03-07T13:58:12.530430,4.556,can0  041  [04]  E4 00 02 00
2026-03-07T13:58:12.530569,4.556,can0  206  [24]  A7 0C 93 06 9B 0C C5 E1 1D 07 CB 0C A3 0C 00 00 00 00 00 00 00 00 00 00
2026-03-07T13:58:12.630469,4.656,can0  206  [24]  AB 0C 93 06 9F 0C C5 E1 1B 07 C7 0C 9F 0C 00 00 00 00 00 00 00 00 00 00
2026-03-07T13:58:12.630844,4.656,can0  110  [02]  F1 1E
2026-03-07T13:58:12.630946,4.656,can0  070  [20]  9F F8 4C 08 DE F5 61 03 E0 2E 00 00 3A 15 00 00 27 00 00 00
2026-03-07T13:58:12.730449,4.756,can0  070  [20]  9F F8 4C 08 DE F5 61 03 E0 2E 00 00 3A 15 00 00 27 00 00 00
2026-03-07T13:58:12.730578,4.756,can0  041  [04]  B5 00 02 00
2026-03-07T13:58:12.730712,4.756,can0  206  [24]  AB 0C 8F 06 A3 0C B1 E0 1F 07 BB 0C 9B 0C 00 00 00 00 00 00 00 00 00 00
2026-03-07T13:58:12.831250,4.857,can0  060  [32]  00 00 00 00 9F F8 4C 08 33 4B B7 10 00 00 10 0E FF 01 00 00 00 00 00 00 01 00 00 00 00 00 00 00
2026-03-07T13:58:12.833190,4.859,can0  070  [20]  9F F8 4C 08 DE F5 61 03 E0 2E 00 00 3A 15 00 00 27 00 00 00
2026-03-07T13:58:12.913284,4.939,can0  206  [24]  9F 0C 93 06 A3 0C 57 E3 16 07 C3 0C A7 0C 00 00 00 00 00 00 00 00 00 00
2026-03-07T13:58:12.913409,4.939,can0  041  [04]  B5 00 02 00
2026-03-07T13:58:13.130593,5.156,can0  206  [24]  B3 0C 8F 06 A3 0C DA DC 21 07 C3 0C 93 0C 00 00 00 00 00 00 00 00 00 00
2026-03-07T13:58:13.230665,5.256,can0  041  [04]  D1 00 04 00
2026-03-07T13:58:13.230847,5.256,can0  070  [20]  9F F8 4C 08 DE F5 61 03 E0 2E 00 00 3A 15 00 00 27 00 00 00
2026-03-07T13:58:13.231082,5.256,can0  206  [24]  A7 0C 93 06 9F 0C A0 E2 1F 07 BB 0C A3 0C 00 00 00 00 00 00 00 00 00 00
2026-03-07T13:58:13.231172,5.257,can0  060  [32]  00 00 00 00 00 00 00 00 00 00 00 00 00 00 00 00 00 00 00 00 00 00 00 00 00 00 00 00 00 00 00 00
2026-03-07T13:58:13.430603,5.456,can0  206  [24]  AB 0C 9A 06 87 0C C5 E1 1B 07 DB 0C 9F 0C 00 00 00 00 00 00 00 00 00 00
2026-03-07T13:58:13.530971,5.556,can0  100  [03]  94 59 04
2026-03-07T13:58:13.531226,5.557,can0  120  [04]  00 00 00 00
2026-03-07T13:58:13.531342,5.557,can0  041  [04]  D8 00 04 00
2026-03-07T13:58:13.531488,5.557,can0  206  [24]  B7 0C 8F 06 A3 0C 57 E3 1B 07 BB 0C 93 0C 00 00 00 00 00 00 00 00 00 00
2026-03-07T13:58:13.630511,5.656,can0  070  [20]  A1 F8 4C 08 E1 F5 61 03 C8 32 00 00 3A 15 00 00 21 00 00 00
2026-03-07T13:58:13.731206,5.757,can0  206  [24]  9F 0C 84 06 B3 0C B1 E0 1D 07 B3 0C A7 0C 00 00 00 00 00 00 00 00 00 00
2026-03-07T13:58:13.731294,5.757,can0  070  [20]  A1 F8 4C 08 E1 F5 61 03 C8 32 00 00 3A 15 00 00 21 00 00 00
2026-03-07T13:58:13.731403,5.757,can0  041  [04]  D8 00 04 00
2026-03-07T13:58:13.731498,5.757,can0  070  [20]  A1 F8 4C 08 E1 F5 61 03 C8 32 00 00 3A 15 00 00 21 00 00 00
2026-03-07T13:58:13.731605,5.757,can0  060  [32]  00 00 00 00 00 00 00 00 00 00 00 00 00 00 00 00 00 00 00 00 00 00 00 00 00 00 00 00 00 00 00 00
2026-03-07T13:58:13.830844,5.856,can0  060  [32]  00 00 00 00 A1 F8 4C 08 36 4B B7 10 00 00 10 0E FF 01 00 00 00 00 00 00 01 00 00 00 00 00 00 00
2026-03-07T13:58:13.930488,5.956,can0  206  [24]  A3 0C 8F 06 9F 0C B1 E0 1D 07 BB 0C A7 0C 00 00 00 00 00 00 00 00 00 00
2026-03-07T13:58:14.030376,6.056,can0  041  [04]  E4 00 04 00
2026-03-07T13:58:14.030536,6.056,can0  206  [24]  9F 0C 93 06 9B 0C C5 E1 1F 07 C3 0C AB 0C 00 00 00 00 00 00 00 00 00 00
2026-03-07T13:58:14.330871,6.356,can0  070  [20]  A1 F8 4C 08 E1 F5 61 03 C8 32 00 00 3A 15 00 00 21 00 00 00
2026-03-07T13:58:14.331007,6.356,can0  206  [24]  A3 0C 91 06 9F 0C 3A DF 1D 07 C3 0C A7 0C 00 00 00 00 00 00 00 00 00 00
2026-03-07T13:58:14.331320,6.357,can0  110  [02]  EE 1E
2026-03-07T13:58:14.331406,6.357,can0  132  [00]
2026-03-07T13:58:14.331484,6.357,can0  041  [04]  F0 00 04 00
2026-03-07T13:58:14.331566,6.357,can0  060  [32]  00 00 00 00 00 00 00 00 00 00 00 00 00 00 00 00 00 00 00 00 00 00 00 00 00 00 00 00 00 00 00 00
2026-03-07T13:58:14.331671,6.357,can0  206  [24]  A7 0C 93 06 9F 0C B1 E0 1D 07 BF 0C A3 0C 00 00 00 00 00 00 00 00 00 00
2026-03-07T13:58:14.631241,6.657,can0  206  [24]  C3 0C 8F 06 8B 0C B1 E0 1B 07 B7 0C 9B 0C 00 00 00 00 00 00 00 00 00 00
2026-03-07T13:58:14.631324,6.657,can0  041  [04]  F0 00 04 00
2026-03-07T13:58:14.631646,6.657,can0  100  [03]  94 59 04
2026-03-07T13:58:14.631851,6.657,can0  120  [04]  00 00 00 00
2026-03-07T13:58:14.730427,6.756,can0  133  [00]
2026-03-07T13:58:14.730526,6.756,can0  070  [20]  A1 F8 4C 08 E3 F5 61 03 B0 36 00 00 3A 15 00 00 2E 00 00 00
2026-03-07T13:58:14.730659,6.756,can0  206  [24]  A7 0C 8F 06 9F 0C DA DC 1D 07 BB 0C A7 0C 00 00 00 00 00 00 00 00 00 00
2026-03-07T13:58:14.730744,6.756,can0  070  [20]  A1 F8 4C 08 E3 F5 61 03 B0 36 00 00 3A 15 00 00 2F 00 00 00
2026-03-07T13:58:14.830595,6.856,can0  060  [32]  00 00 00 00 A1 F8 4C 08 38 4B B7 10 00 00 10 0E FF 01 00 00 00 00 00 00 01 00 00 00 00 00 00 00
2026-03-07T13:58:14.830976,6.856,can0  070  [20]  A1 F8 4C 08 E3 F5 61 03 B0 36 00 00 3A 15 00 00 2F 00 00 00
2026-03-07T13:58:14.831010,6.856,can0  041  [04]  F0 00 04 00
2026-03-07T13:58:14.831160,6.857,can0  206  [24]  A7 0C 93 06 9B 0C A0 E2 1F 07 BF 0C A3 0C 00 00 00 00 00 00 00 00 00 00
2026-03-07T13:58:15.031034,7.056,can0  206  [24]  A7 0C 8F 06 9B 0C 99 C6 1D 07 C3 0C A3 0C 00 00 00 00 00 00 00 00 00 00
2026-03-07T13:58:15.131233,7.157,can0  041  [04]  F0 00 04 00
2026-03-07T13:58:15.230719,7.256,can0  206  [24]  BB 0C 8F 06 8F 0C B1 E0 1D 07 C7 0C 9F 0C 00 00 00 00 00 00 00 00 00 00
2026-03-07T13:58:15.230884,7.256,can0  070  [20]  A1 F8 4C 08 E3 F5 61 03 B0 36 00 00 3A 15 00 00 2F 00 00 00
2026-03-07T13:58:15.330452,7.356,can0  206  [24]  A3 0C 91 06 9F 0C B1 E0 1B 07 B7 0C A7 0C 00 00 00 00 00 00 00 00 00 00
2026-03-07T13:58:15.330564,7.356,can0  041  [04]  F0 00 04 00
2026-03-07T13:58:15.531161,7.557,can0  206  [24]  B3 0C 8D 06 9F 0C B1 E0 18 07 BB 0C 9B 0C 00 00 00 00 00 00 00 00 00 00
2026-03-07T13:58:15.731275,7.757,can0  041  [04]  F8 00 02 00
2026-03-07T13:58:15.731441,7.757,can0  206  [24]  AB 0C 8F 06 9F 0C 99 C6 1B 07 C3 0C 9F 0C 00 00 00 00 00 00 00 00 00 00
2026-03-07T13:58:15.731549,7.757,can0  070  [20]  A1 F8 4C 08 E6 F5 61 03 98 3A 00 00 3A 15 00 00 3D 00 00 00
2026-03-07T13:58:15.831345,7.857,can0  070  [20]  A1 F8 4C 08 E6 F5 61 03 98 3A 00 00 3A 15 00 00 3C 00 00 00
2026-03-07T13:58:15.831389,7.857,can0  070  [20]  A1 F8 4C 08 E6 F5 61 03 98 3A 00 00 3A 15 00 00 3C 00 00 00
2026-03-07T13:58:15.831519,7.857,can0  206  [24]  AB 0C 95 06 A3 0C A0 E2 1B 07 C3 0C 9B 0C 00 00 00 00 00 00 00 00 00 00
2026-03-07T13:58:15.831642,7.857,can0  060  [32]  E8 E5 B0 0D CA 0A 4E 08 07 F7 61 03 01 00 46 0B 42 00 80 00 00 00 00 00 02 00 00 00 00 00 00 00
2026-03-07T13:58:15.831714,7.857,can0  060  [32]  00 00 00 00 A1 F8 4C 08 3B 4B B7 10 00 00 10 0E FF 01 00 00 00 00 00 01 02 00 00 00 00 00 00 00
2026-03-07T13:58:15.832241,7.858,can0  100  [03]  93 59 04
2026-03-07T13:58:15.832490,7.858,can0  110  [02]  EF 1E
2026-03-07T13:58:15.832723,7.858,can0  120  [04]  00 00 00 00
2026-03-07T13:58:15.930953,7.956,can0  041  [04]  E4 00 02 00
2026-03-07T13:58:16.031228,8.057,can0  206  [24]  9F 0C 8F 06 A7 0C B1 E0 18 07 BB 0C A7 0C 00 00 00 00 00 00 00 00 00 00
2026-03-07T13:58:16.130584,8.156,can0  206  [24]  9F 0C 93 06 AB 0C A0 E2 1B 07 B3 0C AB 0C 00 00 00 00 00 00 00 00 00 00
2026-03-07T13:58:16.130694,8.156,can0  041  [04]  E4 00 00 00
2026-03-07T13:58:16.230734,8.256,can0  070  [20]  A1 F8 4C 08 E6 F5 61 03 98 3A 00 00 3A 15 00 00 3C 00 00 00
2026-03-07T13:58:16.330489,8.356,can0  206  [24]  B3 0C 91 06 A3 0C B1 E0 1D 07 BB 0C 97 0C 00 00 00 00 00 00 00 00 00 00
2026-03-07T13:58:16.330584,8.356,can0  060  [32]  00 00 00 00 00 00 00 00 00 00 00 00 00 00 00 00 00 00 00 00 00 00 00 00 00 00 00 00 00 00 00 00
2026-03-07T13:58:16.430605,8.456,can0  041  [04]  10 01 02 00
2026-03-07T13:58:16.430718,8.456,can0  206  [24]  3A 0C 93 06 A7 0C B1 E0 1D 07 C3 0C 08 0D 00 00 00 00 00 00 00 00 00 00
2026-03-07T13:58:16.630400,8.656,can0  206  [24]  AF 0C 86 06 9F 0C 57 E3 1D 07 C3 0C 97 0C 00 00 00 00 00 00 00 00 00 00
2026-03-07T13:58:16.630483,8.656,can0  070  [20]  A1 F8 4C 08 E8 F5 61 03 80 3E 00 00 3A 15 00 00 46 00 00 00
2026-03-07T13:58:16.730725,8.756,can0  041  [04]  2B 01 02 00
2026-03-07T13:58:16.733091,8.758,can0  070  [20]  A1 F8 4C 08 E8 F5 61 03 80 3E 00 00 3A 15 00 00 46 00 00 00
2026-03-07T13:58:16.830590,8.856,can0  070  [20]  A1 F8 4C 08 E8 F5 61 03 80 3E 00 00 3A 15 00 00 46 00 00 00
2026-03-07T13:58:16.830737,8.856,can0  206  [24]  AB 0C 8F 06 9B 0C A0 E2 1B 07 C7 0C 9B 0C 00 00 00 00 00 00 00 00 00 00
2026-03-07T13:58:16.830881,8.856,can0  060  [32]  00 00 00 00 A1 F8 4C 08 3D 4B B7 10 00 00 10 0E FF 01 00 00 00 00 00 00 01 00 00 00 00 00 00 00
2026-03-07T13:58:16.930425,8.956,can0  206  [24]  AF 0C 8D 06 9F 0C B1 E0 1D 07 C7 0C 9B 0C 00 00 00 00 00 00 00 00 00 00
2026-03-07T13:58:16.930540,8.956,can0  041  [04]  2B 01 02 00
2026-03-07T13:58:17.030972,9.056,can0  100  [03]  94 59 04
2026-03-07T13:58:17.031231,9.057,can0  120  [04]  00 00 00 00
2026-03-07T13:58:17.130656,9.156,can0  206  [24]  AF 0C 95 06 9F 0C B1 E0 1D 07 BF 0C 9B 0C 00 00 00 00 00 00 00 00 00 00
2026-03-07T13:58:17.230333,9.256,can0  070  [20]  A1 F8 4C 08 E8 F5 61 03 80 3E 00 00 3A 15 00 00 46 00 00 00
2026-03-07T13:58:17.230440,9.256,can0  041  [04]  2B 01 02 00
2026-03-07T13:58:17.230591,9.256,can0  206  [24]  A3 0C 8F 06 A3 0C 3A DF 1B 07 C3 0C A3 0C 00 00 00 00 00 00 00 00 00 00
2026-03-07T13:58:17.331137,9.356,can0  060  [32]  00 00 00 00 00 00 00 00 00 00 00 00 00 00 00 00 00 00 00 00 00 00 00 00 00 00 00 00 00 00 00 00
2026-03-07T13:58:17.431384,9.457,can0  110  [02]  EC 1E
2026-03-07T13:58:17.431538,9.457,can0  206  [24]  AB 0C 8D 06 A7 0C 99 C6 1D 07 B7 0C A7 0C 00 00 00 00 00 00 00 00 00 00
2026-03-07T13:58:17.530425,9.556,can0  041  [04]  3F 01 00 00
2026-03-07T13:58:17.630656,9.656,can0  206  [24]  A3 0C 91 06 9F 0C A0 E2 1B 07 CB 0C 9F 0C 00 00 00 00 00 00 00 00 00 00
2026-03-07T13:58:17.630759,9.656,can0  070  [20]  A1 F8 4C 08 EA F5 61 03 68 42 00 00 3A 15 00 00 39 00 00 00
2026-03-07T13:58:17.730567,9.756,can0  070  [20]  A1 F8 4C 08 EA F5 61 03 68 42 00 00 3A 15 00 00 39 00 00 00
2026-03-07T13:58:17.730668,9.756,can0  041  [04]  52 01 02 00
2026-03-07T13:58:17.730773,9.756,can0  206  [24]  A3 0C 91 06 A3 0C C5 E1 1D 07 C7 0C A3 0C 00 00 00 00 00 00 00 00 00 00
2026-03-07T13:58:17.730846,9.756,can0  070  [20]  A1 F8 4C 08 EA F5 61 03 68 42 00 00 3A 15 00 00 39 00 00 00
2026-03-07T13:58:17.830678,9.856,can0  060  [32]  00 00 00 00 00 00 00 00 00 00 00 00 00 00 00 00 00 00 00 00 00 00 00 00 00 00 00 00 00 00 00 00
2026-03-07T13:58:17.830750,9.856,can0  060  [32]  00 00 00 00 A1 F8 4C 08 3E 4B B7 10 00 00 10 0E FF 01 00 00 00 00 00 00 01 00 00 00 00 00 00 00
2026-03-07T13:58:17.930869,9.956,can0  206  [24]  A3 0C 8F 06 AB 0C B1 E0 1B 07 BB 0C 9F 0C 00 00 00 00 00 00 00 00 00 00
2026-03-07T13:58:18.033564,10.059,can0  041  [04]  5A 01 02 00
2026-03-07T13:58:18.131327,10.157,can0  206  [24]  A3 0C 91 06 A7 0C 3A DF 16 07 B7 0C A7 0C 00 00 00 00 00 00 00 00 00 00
2026-03-07T13:58:18.230721,10.256,can0  100  [03]  99 59 04
2026-03-07T13:58:18.231219,10.257,can0  120  [04]  00 00 00 00
2026-03-07T13:58:18.231262,10.257,can0  206  [24]  AB 0C 91 06 A3 0C B1 E0 25 07 BF 0C 9F 0C 00 00 00 00 00 00 00 00 00 00
2026-03-07T13:58:18.231331,10.257,can0  070  [20]  A1 F8 4C 08 EA F5 61 03 68 42 00 00 3A 15 00 00 39 00 00 00
2026-03-07T13:58:18.330634,10.356,can0  041  [04]  4A 01 04 00
2026-03-07T13:58:18.330722,10.356,can0  060  [32]  00 00 00 00 00 00 00 00 00 00 00 00 00 00 00 00 00 00 00 00 00 00 00 00 00 00 00 00 00 00 00 00
2026-03-07T13:58:18.430657,10.456,can0  206  [24]  AF 0C 91 06 9F 0C B1 E0 1F 07 D3 0C 9B 0C 00 00 00 00 00 00 00 00 00 00
2026-03-07T13:58:18.630707,10.656,can0  206  [24]  9B 0C 91 06 A7 0C 3A DF 1B 07 BF 0C AB 0C 00 00 00 00 00 00 00 00 00 00
2026-03-07T13:58:18.638309,10.664,can0  041  [04]  4A 01 04 00
2026-03-07T13:58:18.730913,10.756,can0  070  [20]  A3 F8 4C 08 EB F5 61 03 50 46 00 00 3A 15 00 00 2C 00 00 00
2026-03-07T13:58:18.731096,10.756,can0  206  [24]  A7 0C 95 06 A3 0C A0 E2 1F 07 C3 0C 9F 0C 00 00 00 00 00 00 00 00 00 00
2026-03-07T13:58:18.731200,10.757,can0  070  [20]  A3 F8 4C 08 EB F5 61 03 50 46 00 00 3A 15 00 00 2D 00 00 00
2026-03-07T13:58:18.831334,10.857,can0  070  [20]  A3 F8 4C 08 EB F5 61 03 50 46 00 00 3A 15 00 00 2D 00 00 00
2026-03-07T13:58:18.831380,10.857,can0  041  [04]  4A 01 04 00
2026-03-07T13:58:18.831408,10.857,can0  060  [32]  00 00 00 00 A3 F8 4C 08 40 4B B7 10 00 00 10 0E FF 01 00 00 00 00 00 00 01 00 00 00 00 00 00 00
2026-03-07T13:58:18.831636,10.857,can0  206  [24]  AF 0C 95 06 A3 0C 57 E3 18 07 BB 0C 9B 0C 00 00 00 00 00 00 00 00 00 00
2026-03-07T13:58:19.131247,11.157,can0  206  [24]  AB 0C 93 06 9F 0C C5 E1 1B 07 C3 0C 9F 0C 00 00 00 00 00 00 00 00 00 00
2026-03-07T13:58:19.131572,11.157,can0  110  [02]  EA 1E
2026-03-07T13:58:19.131668,11.157,can0  041  [04]  4A 01 04 00
2026-03-07T13:58:19.230431,11.256,can0  206  [24]  A7 0C 91 06 A3 0C C5 E1 1D 07 C7 0C 9B 0C 00 00 00 00 00 00 00 00 00 00
2026-03-07T13:58:19.230517,11.256,can0  070  [20]  A3 F8 4C 08 EB F5 61 03 50 46 00 00 3A 15 00 00 2D 00 00 00
2026-03-07T13:58:19.430511,11.456,can0  206  [24]  AF 0C 93 06 A3 0C C5 E1 1B 07 BF 0C 9B 0C 00 00 00 00 00 00 00 00 00 00
2026-03-07T13:58:19.430585,11.456,can0  041  [04]  52 01 02 00
2026-03-07T13:58:19.430684,11.456,can0  060  [32]  00 00 00 00 00 00 00 00 00 00 00 00 00 00 00 00 00 00 00 00 00 00 00 00 00 00 00 00 00 00 00 00
2026-03-07T13:58:19.431043,11.456,can0  100  [03]  9B 59 04
2026-03-07T13:58:19.431255,11.457,can0  120  [04]  00 00 00 00
2026-03-07T13:58:19.530709,11.556,can0  206  [24]  A3 0C 8D 06 9B 0C B1 E0 1D 07 C7 0C A7 0C 00 00 00 00 00 00 00 00 00 00
2026-03-07T13:58:19.630890,11.656,can0  041  [04]  02 00 00 00
2026-03-07T13:58:19.631117,11.656,can0  206  [24]  A3 0C 91 06 A7 0C C5 E1 18 07 BF 0C A3 0C 00 00 00 00 00 00 00 00 00 00
2026-03-07T13:58:19.731227,11.757,can0  070  [20]  A3 F8 4C 08 ED F5 61 03 38 4A 00 00 3A 15 00 00 11 00 00 00
2026-03-07T13:58:19.731296,11.757,can0  070  [20]  A3 F8 4C 08 ED F5 61 03 38 4A 00 00 3A 15 00 00 12 00 00 00
2026-03-07T13:58:19.830992,11.856,can0  070  [20]  A3 F8 4C 08 ED F5 61 03 38 4A 00 00 3A 15 00 00 12 00 00 00
2026-03-07T13:58:19.831222,11.857,can0  206  [24]  AB 0C 91 06 9F 0C B1 E0 1D 07 BF 0C A3 0C 00 00 00 00 00 00 00 00 00 00
2026-03-07T13:58:19.831313,11.857,can0  060  [32]  00 00 00 00 00 00 00 00 00 00 00 00 00 00 00 00 00 00 00 00 00 00 00 00 00 00 00 00 00 00 00 00
2026-03-07T13:58:19.930976,11.956,can0  060  [32]  00 00 00 00 A3 F8 4C 08 42 4B B7 10 00 00 10 0E FF 01 00 00 00 00 00 00 01 00 00 00 00 00 00 00
2026-03-07T13:58:19.931303,11.957,can0  041  [04]  5D 00 00 00
2026-03-07T13:58:20.130934,12.156,can0  206  [24]  B3 0C 91 06 A3 0C B1 E0 1F 07 BF 0C 97 0C 00 00 00 00 00 00 00 00 00 00
2026-03-07T13:58:20.131129,12.156,can0  041  [04]  2F 00 02 00
2026-03-07T13:58:20.131230,12.157,can0  206  [24]  AF 0C 9C 06 9B 0C A0 E2 1D 07 B7 0C 9F 0C 00 00 00 00 00 00 00 00 00 00
2026-03-07T13:58:20.231220,12.257,can0  070  [20]  A3 F8 4C 08 ED F5 61 03 38 4A 00 00 3A 15 00 00 12 00 00 00
2026-03-07T13:58:20.331304,12.357,can0  206  [24]  A3 0C 91 06 AB 0C 3A DF 1B 07 B7 0C 9B 0C 00 00 00 00 00 00 00 00 00 00
2026-03-07T13:58:20.431280,12.457,can0  060  [32]  00 00 00 00 00 00 00 00 00 00 00 00 00 00 00 00 00 00 00 00 00 00 00 00 00 00 00 00 00 00 00 00
2026-03-07T13:58:20.431375,12.457,can0  041  [04]  2F 00 00 00
2026-03-07T13:58:20.431485,12.457,can0  206  [24]  AF 0C 91 06 9F 0C 57 E3 1B 07 C7 0C 9B 0C 00 00 00 00 00 00 00 00 00 00
2026-03-07T13:58:20.730977,12.756,can0  206  [24]  BB 0C 91 06 8B 0C 3A DF 12 07 BF 0C A7 0C 00 00 00 00 00 00 00 00 00 00
2026-03-07T13:58:20.731384,12.757,can0  100  [03]  9E 59 04
2026-03-07T13:58:20.731641,12.757,can0  110  [02]  E9 1E
2026-03-07T13:58:20.731880,12.757,can0  120  [04]  00 00 00 00
2026-03-07T13:58:20.731992,12.757,can0  041  [04]  3F 01 00 00
2026-03-07T13:58:20.732094,12.757,can0  070  [20]  A4 F8 4C 08 EF F5 61 03 20 4E 00 00 3A 15 00 00 13 00 00 00
2026-03-07T13:58:20.732226,12.758,can0  070  [20]  A4 F8 4C 08 EF F5 61 03 20 4E 00 00 3A 15 00 00 12 00 00 00
2026-03-07T13:58:20.830763,12.856,can0  070  [20]  A4 F8 4C 08 EF F5 61 03 20 4E 00 00 3A 15 00 00 12 00 00 00
2026-03-07T13:58:20.830982,12.856,can0  206  [24]  AB 0C 8F 06 A7 0C 57 E3 1D 07 BF 0C 9B 0C 00 00 00 00 00 00 00 00 00 00
2026-03-07T13:58:20.831086,12.856,can0  060  [32]  00 00 00 00 A4 F8 4C 08 43 4B B7 10 00 00 10 0E FF 01 00 00 00 00 00 00 01 00 00 00 00 00 00 00
2026-03-07T13:58:20.931274,12.957,can0  041  [04]  10 01 00 00
2026-03-07T13:58:20.931446,12.957,can0  206  [24]  A7 0C A6 06 AB 0C A0 E2 1B 07 BB 0C 9B 0C 00 00 00 00 00 00 00 00 00 00
2026-03-07T13:58:21.130744,13.156,can0  206  [24]  AB 0C 95 06 A7 0C A0 E2 1D 07 BF 0C 9F 0C 00 00 00 00 00 00 00 00 00 00
2026-03-07T13:58:21.231138,13.256,can0  041  [04]  10 01 02 00
2026-03-07T13:58:21.231215,13.257,can0  070  [20]  A4 F8 4C 08 EF F5 61 03 20 4E 00 00 3A 15 00 00 12 00 00 00
2026-03-07T13:58:21.331266,13.357,can0  206  [24]  A3 0C 91 06 A7 0C B1 E0 18 07 C3 0C 9F 0C 00 00 00 00 00 00 00 00 00 00
2026-03-07T13:58:21.331354,13.357,can0  060  [32]  00 00 00 00 00 00 00 00 00 00 00 00 00 00 00 00 00 00 00 00 00 00 00 00 00 00 00 00 00 00 00 00
2026-03-07T13:58:21.430426,13.456,can0  206  [24]  AB 0C 8D 06 9F 0C A0 E2 18 07 C3 0C A3 0C 00 00 00 00 00 00 00 00 00 00
2026-03-07T13:58:21.430532,13.456,can0  041  [04]  3F 01 02 00
2026-03-07T13:58:21.630985,13.656,can0  206  [24]  9F 0C 8F 06 A7 0C C5 E1 1B 07 C7 0C A3 0C 00 00 00 00 00 00 00 00 00 00
2026-03-07T13:58:21.631071,13.656,can0  070  [20]  A4 F8 4C 08 F0 F5 61 03 08 52 00 00 3A 15 00 00 23 00 00 00
2026-03-07T13:58:21.731089,13.756,can0  070  [20]  A4 F8 4C 08 F0 F5 61 03 08 52 00 00 3A 15 00 00 23 00 00 00
2026-03-07T13:58:21.731183,13.757,can0  041  [04]  8B 00 00 00
2026-03-07T13:58:21.731292,13.757,can0  206  [24]  9F 0C 93 06 A7 0C B1 E0 1D 07 C7 0C A3 0C 00 00 00 00 00 00 00 00 00 00
2026-03-07T13:58:21.733141,13.758,can0  070  [20]  A4 F8 4C 08 F0 F5 61 03 08 52 00 00 3A 15 00 00 23 00 00 00
2026-03-07T13:58:21.831312,13.857,can0  100  [03]  9E 59 04
2026-03-07T13:58:21.831537,13.857,can0  120  [04]  00 00 00 00
2026-03-07T13:58:21.831633,13.857,can0  060  [32]  00 00 00 00 00 00 00 00 00 00 00 00 00 00 00 00 00 00 00 00 00 00 00 00 00 00 00 00 00 00 00 00
2026-03-07T13:58:21.931057,13.956,can0  060  [32]  00 00 00 00 A4 F8 4C 08 45 4B B7 10 00 00 10 0E FF 01 00 00 00 00 00 00 01 00 00 00 00 00 00 00
2026-03-07T13:58:21.931376,13.957,can0  206  [24]  A7 0C 91 06 A7 0C 3A DF 18 07 B7 0C 9F 0C 00 00 00 00 00 00 00 00 00 00
2026-03-07T13:58:22.031210,14.057,can0  041  [04]  8B 00 00 00
2026-03-07T13:58:22.131271,14.157,can0  206  [24]  B7 0C 95 06 A3 0C B1 E0 1B 07 BB 0C 97 0C 00 00 00 00 00 00 00 00 00 00
2026-03-07T13:58:22.231526,14.257,can0  110  [02]  E9 1E
2026-03-07T13:58:22.231653,14.257,can0  070  [20]  A4 F8 4C 08 F0 F5 61 03 08 52 00 00 3A 15 00 00 23 00 00 00
2026-03-07T13:58:22.231841,14.257,can0  206  [24]  A7 0C 8F 06 A3 0C C5 E1 1D 07 BF 0C A3 0C 00 00 00 00 00 00 00 00 00 00
2026-03-07T13:58:22.231958,14.257,can0  041  [04]  5E 00 00 00
2026-03-07T13:58:22.430756,14.456,can0  060  [32]  00 00 00 00 00 00 00 00 00 00 00 00 00 00 00 00 00 00 00 00 00 00 00 00 00 00 00 00 00 00 00 00
2026-03-07T13:58:22.432950,14.458,can0  206  [24]  9B 0C 8F 06 B3 0C C5 E1 1B 07 C7 0C 9F 0C 00 00 00 00 00 00 00 00 00 00
2026-03-07T13:58:22.530852,14.556,can0  041  [04]  5E 00 02 00
2026-03-07T13:58:22.531087,14.556,can0  206  [24]  AB 0C 93 06 97 0C B1 E0 1D 07 C3 0C A7 0C 00 00 00 00 00 00 00 00 00 00
2026-03-07T13:58:22.631236,14.657,can0  070  [20]  A4 F8 4C 08 F2 F5 61 03 F0 55 00 00 3A 15 00 00 34 00 00 00
2026-03-07T13:58:22.631326,14.657,can0  070  [20]  A4 F8 4C 08 F2 F5 61 03 F0 55 00 00 3A 15 00 00 34 00 00 00
2026-03-07T13:58:22.730619,14.756,can0  206  [24]  9F 0C 91 06 A7 0C B1 E0 1B 07 BF 0C A7 0C 00 00 00 00 00 00 00 00 00 00
2026-03-07T13:58:22.730741,14.756,can0  070  [20]  A4 F8 4C 08 F2 F5 61 03 F0 55 00 00 3A 15 00 00 34 00 00 00
2026-03-07T13:58:22.833955,14.859,can0  041  [04]  5E 00 00 00
2026-03-07T13:58:22.931355,14.957,can0  206  [24]  9F 0C 8F 06 A7 0C B1 E0 18 07 BF 0C A7 0C 00 00 00 00 00 00 00 00 00 00
2026-03-07T13:58:22.931489,14.957,can0  060  [32]  00 00 00 00 A4 F8 4C 08 47 4B B7 10 00 00 10 0E FF 01 00 00 00 00 00 00 01 00 00 00 00 00 00 00
2026-03-07T13:58:23.130560,15.156,can0  100  [03]  9F 59 04
2026-03-07T13:58:23.130815,15.156,can0  120  [04]  00 00 00 00
2026-03-07T13:58:23.130966,15.156,can0  206  [24]  A7 0C 93 06 9F 0C 3A DF 1D 07 CB 0C A3 0C 00 00 00 00 00 00 00 00 00 00
2026-03-07T13:58:23.131053,15.156,can0  041  [04]  8B 00 02 00
2026-03-07T13:58:23.230647,15.256,can0  206  [24]  A3 0C 91 06 A3 0C C5 E1 1D 07 BF 0C A3 0C 00 00 00 00 00 00 00 00 00 00
2026-03-07T13:58:23.230743,15.256,can0  070  [20]  A4 F8 4C 08 F2 F5 61 03 F0 55 00 00 3A 15 00 00 34 00 00 00
2026-03-07T13:58:23.330661,15.356,can0  041  [04]  9F 00 02 00
2026-03-07T13:58:23.330826,15.356,can0  206  [24]  AF 0C 8F 06 A7 0C B1 E0 1D 07 B3 0C 9B 0C 00 00 00 00 00 00 00 00 00 00
2026-03-07T13:58:23.431013,15.456,can0  060  [32]  00 00 00 00 00 00 00 00 00 00 00 00 00 00 00 00 00 00 00 00 00 00 00 00 00 00 00 00 00 00 00 00
2026-03-07T13:58:23.630758,15.656,can0  206  [24]  AB 0C 91 06 A7 0C 99 C6 1B 07 BF 0C 9B 0C 00 00 00 00 00 00 00 00 00 00
2026-03-07T13:58:23.638172,15.664,can0  041  [04]  7A 00 02 00
2026-03-07T13:58:23.638279,15.664,can0  070  [20]  A4 F8 4C 08 F4 F5 61 03 D8 59 00 00 3A 15 00 00 1E 00 00 00
2026-03-07T13:58:23.638412,15.664,can0  206  [24]  B7 0C 91 06 9B 0C C5 E1 25 07 C3 0C 93 0C 00 00 00 00 00 00 00 00 00 00
2026-03-07T13:58:23.730917,15.756,can0  070  [20]  A4 F8 4C 08 F4 F5 61 03 D8 59 00 00 3A 15 00 00 1D 00 00 00
2026-03-07T13:58:23.831034,15.856,can0  070  [20]  A4 F8 4C 08 F4 F5 61 03 D8 59 00 00 3A 15 00 00 1D 00 00 00
2026-03-07T13:58:23.831214,15.857,can0  206  [24]  B7 0C 93 06 A3 0C 57 E3 16 07 BB 0C 93 0C 00 00 00 00 00 00 00 00 00 00
2026-03-07T13:58:23.831552,15.857,can0  110  [02]  E8 1E
2026-03-07T13:58:23.833657,15.859,can0  041  [04]  5E 00 00 00
2026-03-07T13:58:23.964385,15.990,can0  060  [32]  00 00 00 00 00 00 00 00 00 00 00 00 00 00 00 00 00 00 00 00 00 00 00 00 00 00 00 00 00 00 00 00
2026-03-07T13:58:23.964545,15.990,can0  060  [32]  00 00 00 00 A4 F8 4C 08 48 4B B7 10 00 00 10 0E FF 01 00 00 00 00 00 00 01 00 00 00 00 00 00 00
2026-03-07T13:58:24.030664,16.056,can0  206  [24]  A7 0C 93 06 A3 0C B1 E0 1B 07 BF 0C A3 0C 00 00 00 00 00 00 00 00 00 00
2026-03-07T13:58:24.230869,16.256,can0  041  [04]  B5 00 00 00
2026-03-07T13:58:24.231076,16.256,can0  206  [24]  AB 0C 91 06 9F 0C DA DC 1D 07 C3 0C 9F 0C 00 00 00 00 00 00 00 00 00 00
2026-03-07T13:58:24.231174,16.257,can0  132  [00]
2026-03-07T13:58:24.231502,16.257,can0  100  [03]  9F 59 04
2026-03-07T13:58:24.231734,16.257,can0  120  [04]  00 00 00 00
2026-03-07T13:58:24.231847,16.257,can0  070  [20]  A4 F8 4C 08 F4 F5 61 03 D8 59 00 00 3A 15 00 00 1D 00 00 00
2026-03-07T13:58:24.331169,16.357,can0  206  [24]  AB 0C 8F 06 97 0C C5 E1 1B 07 C7 0C 9B 0C 00 00 00 00 00 00 00 00 00 00
2026-03-07T13:58:24.431078,16.456,can0  041  [04]  8B 00 00 00
2026-03-07T13:58:24.431177,16.457,can0  060  [32]  00 00 00 00 00 00 00 00 00 00 00 00 00 00 00 00 00 00 00 00 00 00 00 00 00 00 00 00 00 00 00 00
2026-03-07T13:58:24.530798,16.556,can0  206  [24]  A7 0C 9C 06 A3 0C A0 E2 1D 07 BB 0C A3 0C 00 00 00 00 00 00 00 00 00 00
2026-03-07T13:58:24.730429,16.756,can0  133  [00]
2026-03-07T13:58:24.730649,16.756,can0  206  [24]  9F 0C 8F 06 A3 0C B1 E0 1D 07 BF 0C A7 0C 00 00 00 00 00 00 00 00 00 00
2026-03-07T13:58:24.830557,16.856,can0  041  [04]  5E 00 00 00
2026-03-07T13:58:24.830639,16.856,can0  070  [20]  A4 F8 4C 08 F5 F5 61 03 C0 5D 00 00 3A 15 00 00 1C 00 00 00
2026-03-07T13:58:24.830714,16.856,can0  070  [20]  A4 F8 4C 08 F5 F5 61 03 C0 5D 00 00 3A 15 00 00 1D 00 00 00
2026-03-07T13:58:24.830781,16.856,can0  070  [20]  A4 F8 4C 08 F5 F5 61 03 C0 5D 00 00 3A 15 00 00 1D 00 00 00
2026-03-07T13:58:24.830935,16.856,can0  206  [24]  9B 0C 8F 06 AF 0C 99 C6 1B 07 BB 0C A3 0C 00 00 00 00 00 00 00 00 00 00
2026-03-07T13:58:24.930979,16.956,can0  060  [32]  00 00 00 00 A4 F8 4C 08 4A 4B B7 10 00 00 10 0E FF 01 00 00 00 00 00 00 01 00 00 00 00 00 00 00
2026-03-07T13:58:24.931359,16.957,can0  041  [04]  5E 00 02 00
2026-03-07T13:58:24.931392,16.957,can0  206  [24]  AB 0C 91 06 A3 0C B1 E0 1B 07 BB 0C 9B 0C 00 00 00 00 00 00 00 00 00 00
2026-03-07T13:58:25.230845,17.256,can0  206  [24]  AF 0C A6 06 9F 0C C5 E1 10 07 C3 0C 9B 0C 00 00 00 00 00 00 00 00 00 00
2026-03-07T13:58:25.231000,17.256,can0  041  [04]  5E 00 00 00
2026-03-07T13:58:25.331447,17.357,can0  206  [24]  AB 0C 8F 06 9F 0C DA DC 1B 07 C3 0C 9B 0C 00 00 00 00 00 00 00 00 00 00
2026-03-07T13:58:25.331492,17.357,can0  070  [20]  A4 F8 4C 08 F5 F5 61 03 C0 5D 00 00 3A 15 00 00 1D 00 00 00
2026-03-07T13:58:25.430621,17.456,can0  060  [32]  00 00 00 00 00 00 00 00 00 00 00 00 00 00 00 00 00 00 00 00 00 00 00 00 00 00 00 00 00 00 00 00
2026-03-07T13:58:25.431132,17.456,can0  100  [03]  A0 59 04
2026-03-07T13:58:25.431411,17.457,can0  110  [02]  E5 1E
2026-03-07T13:58:25.431647,17.457,can0  120  [04]  00 00 00 00
2026-03-07T13:58:25.431810,17.457,can0  206  [24]  AF 0C 8F 06 9B 0C 85 E6 1F 07 C7 0C 9B 0C 00 00 00 00 00 00 00 00 00 00
2026-03-07T13:58:25.431910,17.457,can0  041  [04]  5E 00 00 00
2026-03-07T13:58:25.631363,17.657,can0  206  [24]  9B 0C 93 06 A3 0C C5 E1 1D 07 C7 0C A7 0C 00 00 00 00 00 00 00 00 00 00
2026-03-07T13:58:25.631406,17.657,can0  070  [20]  A4 F8 4C 08 F7 F5 61 03 A8 61 00 00 3A 15 00 00 4C 00 00 00
2026-03-07T13:58:25.730391,17.756,can0  070  [20]  A4 F8 4C 08 F7 F5 61 03 A8 61 00 00 3A 15 00 00 4B 00 00 00
2026-03-07T13:58:25.730516,17.756,can0  041  [04]  8B 00 00 00
2026-03-07T13:58:25.730685,17.756,can0  206  [24]  A7 0C 95 06 8F 0C B1 E0 1B 07 CF 0C A3 0C 00 00 00 00 00 00 00 00 00 00
2026-03-07T13:58:25.830626,17.856,can0  070  [20]  A4 F8 4C 08 F7 F5 61 03 A8 61 00 00 3A 15 00 00 4B 00 00 00
2026-03-07T13:58:25.930707,17.956,can0  060  [32]  00 00 00 00 00 00 00 00 00 00 00 00 00 00 00 00 00 00 00 00 00 00 00 00 00 00 00 00 00 00 00 00
2026-03-07T13:58:25.930905,17.956,can0  206  [24]  AB 0C 91 06 9F 0C C5 E1 1D 07 BB 0C 9F 0C 00 00 00 00 00 00 00 00 00 00
2026-03-07T13:58:25.931005,17.956,can0  060  [32]  00 00 00 00 A4 F8 4C 08 4C 4B B7 10 00 00 10 0E FF 01 00 00 00 00 00 00 01 00 00 00 00 00 00 00
2026-03-07T13:58:26.030962,18.056,can0  041  [04]  8B 00 02 00
2026-03-07T13:58:26.130952,18.156,can0  206  [24]  A7 0C 93 06 A3 0C C5 E1 18 07 BB 0C A3 0C 00 00 00 00 00 00 00 00 00 00
2026-03-07T13:58:26.331226,18.357,can0  206  [24]  9F 0C 91 06 A7 0C C5 E1 1B 07 C3 0C A3 0C 00 00 00 00 00 00 00 00 00 00
2026-03-07T13:58:26.331275,18.357,can0  070  [20]  A4 F8 4C 08 F7 F5 61 03 A8 61 00 00 3A 15 00 00 4B 00 00 00
2026-03-07T13:58:26.331350,18.357,can0  041  [04]  8B 00 00 00
2026-03-07T13:58:26.431085,18.456,can0  206  [24]  AB 0C 95 06 A7 0C 57 E3 1F 07 BF 0C 9B 0C 00 00 00 00 00 00 00 00 00 00
2026-03-07T13:58:26.431190,18.457,can0  060  [32]  00 00 00 00 00 00 00 00 00 00 00 00 00 00 00 00 00 00 00 00 00 00 00 00 00 00 00 00 00 00 00 00
2026-03-07T13:58:26.531040,18.556,can0  041  [04]  B5 00 00 00
2026-03-07T13:58:26.531200,18.557,can0  206  [24]  AB 0C 91 06 A3 0C B1 E0 18 07 BB 0C 9F 0C 00 00 00 00 00 00 00 00 00 00
2026-03-07T13:58:26.630551,18.656,can0  100  [03]  A0 59 04
2026-03-07T13:58:26.630858,18.656,can0  120  [04]  00 00 00 00
2026-03-07T13:58:26.630996,18.656,can0  070  [20]  A4 F8 4C 08 F7 F5 61 03 90 65 00 00 3A 15 00 00 3F 00 00 00
2026-03-07T13:58:26.730302,18.756,can0  070  [20]  A4 F8 4C 08 F7 F5 61 03 90 65 00 00 3A 15 00 00 40 00 00 00
2026-03-07T13:58:26.730466,18.756,can0  206  [24]  A7 0C 8D 06 A3 0C C5 E1 1D 07 B7 0C A3 0C 00 00 00 00 00 00 00 00 00 00
2026-03-07T13:58:26.730570,18.756,can0  070  [20]  A4 F8 4C 08 F7 F5 61 03 90 65 00 00 3A 15 00 00 40 00 00 00
2026-03-07T13:58:26.830473,18.856,can0  041  [04]  B5 00 02 00
2026-03-07T13:58:26.930530,18.956,can0  206  [24]  9F 0C 97 06 9F 0C C5 E1 1B 07 C7 0C AB 0C 00 00 00 00 00 00 00 00 00 00
2026-03-07T13:58:26.930644,18.956,can0  060  [32]  00 00 00 00 A4 F8 4C 08 4C 4B B7 10 00 00 10 0E FF 01 00 00 00 00 00 00 01 00 00 00 00 00 00 00
2026-03-07T13:58:27.030887,19.056,can0  110  [02]  E5 1E
2026-03-07T13:58:27.031031,19.056,can0  041  [04]  B5 00 02 00
2026-03-07T13:58:27.031180,19.057,can0  206  [24]  AF 0C 9A 06 9F 0C A0 E2 1F 07 BF 0C 9B 0C 00 00 00 00 00 00 00 00 00 00
2026-03-07T13:58:27.230957,19.256,can0  206  [24]  9F 0C 91 06 A3 0C B1 E0 1B 07 C3 0C A3 0C 00 00 00 00 00 00 00 00 00 00
2026-03-07T13:58:27.231109,19.256,can0  070  [20]  A4 F8 4C 08 F7 F5 61 03 90 65 00 00 3A 15 00 00 40 00 00 00
2026-03-07T13:58:27.331114,19.356,can0  041  [04]  B5 00 02 00
2026-03-07T13:58:27.431176,19.457,can0  206  [24]  97 0C 8F 06 AF 0C B1 E0 1D 07 BB 0C A3 0C 00 00 00 00 00 00 00 00 00 00
2026-03-07T13:58:27.433265,19.459,can0  060  [32]  00 00 00 00 00 00 00 00 00 00 00 00 00 00 00 00 00 00 00 00 00 00 00 00 00 00 00 00 00 00 00 00
2026-03-07T13:58:27.558707,19.584,can0  206  [24]  A3 0C 8A 06 A3 0C A0 E2 18 07 C7 0C A3 0C 00 00 00 00 00 00 00 00 00 00
2026-03-07T13:58:27.626924,19.652,can0  041  [04]  D1 00 02 00
2026-03-07T13:58:27.627072,19.652,can0  070  [20]  A4 F8 4C 08 F7 F5 61 03 78 69 00 00 3A 15 00 00 23 00 00 00
2026-03-07T13:58:27.727521,19.753,can0  070  [20]  A4 F8 4C 08 F7 F5 61 03 78 69 00 00 3A 15 00 00 23 00 00 00
2026-03-07T13:58:27.727738,19.753,can0  206  [24]  A7 0C 88 06 9F 0C C5 E1 1F 07 BF 0C 9F 0C 00 00 00 00 00 00 00 00 00 00
2026-03-07T13:58:27.727878,19.753,can0  070  [20]  A4 F8 4C 08 F7 F5 61 03 78 69 00 00 3A 15 00 00 23 00 00 00
2026-03-07T13:58:27.829639,19.855,can0  100  [03]  A1 59 04
2026-03-07T13:58:27.830156,19.856,can0  120  [04]  00 00 00 00
2026-03-07T13:58:27.830322,19.856,can0  041  [04]  D1 00 02 00
2026-03-07T13:58:27.830560,19.856,can0  206  [24]  AB 0C 93 06 A7 0C 3A DF 1D 07 BF 0C 97 0C 00 00 00 00 00 00 00 00 00 00
2026-03-07T13:58:27.936119,19.961,can0  060  [32]  00 00 00 00 00 00 00 00 00 00 00 00 00 00 00 00 00 00 00 00 00 00 00 00 00 00 00 00 00 00 00 00
2026-03-07T13:58:27.936234,19.962,can0  060  [32]  00 00 00 00 A4 F8 4C 08 4C 4B B7 10 00 00 10 0E FF 01 00 00 00 00 00 00 01 00 00 00 00 00 00 00
2026-03-07T13:58:28.038183,20.064,can0  206  [24]  AB 0C 8D 06 A3 0C B1 E0 1B 07 C3 0C 9B 0C 00 00 00 00 00 00 00 00 00 00
2026-03-07T13:58:28.130969,20.156,can0  041  [04]  B5 00 02 00
2026-03-07T13:58:28.230990,20.256,can0  206  [24]  A3 0C 8F 06 A3 0C B1 E0 1B 07 C3 0C A3 0C 00 00 00 00 00 00 00 00 00 00
2026-03-07T13:58:28.231137,20.256,can0  070  [20]  A4 F8 4C 08 F7 F5 61 03 78 69 00 00 3A 15 00 00 23 00 00 00
2026-03-07T13:58:28.331181,20.357,can0  206  [24]  AF 0C 91 06 97 0C C5 E1 1D 07 BF 0C A3 0C 00 00 00 00 00 00 00 00 00 00
2026-03-07T13:58:28.331309,20.357,can0  041  [04]  B5 00 05 00
2026-03-07T13:58:28.431206,20.457,can0  060  [32]  00 00 00 00 00 00 00 00 00 00 00 00 00 00 00 00 00 00 00 00 00 00 00 00 00 00 00 00 00 00 00 00
2026-03-07T13:58:28.530575,20.556,can0  206  [24]  A3 0C 91 06 A7 0C C5 E1 21 07 BF 0C A3 0C 00 00 00 00 00 00 00 00 00 00
2026-03-07T13:58:28.630997,20.656,can0  110  [02]  E4 1E
2026-03-07T13:58:28.636521,20.662,can0  041  [04]  AA 00 06 00
2026-03-07T13:58:28.636575,20.662,can0  070  [20]  A4 F8 4C 08 F9 F5 61 03 60 6D 00 00 3A 15 00 00 3B 00 00 00
2026-03-07T13:58:28.636598,20.662,can0  206  [24]  A3 0C 8F 06 9F 0C B1 E0 1D 07 BF 0C A7 0C 00 00 00 00 00 00 00 00 00 00
2026-03-07T13:58:28.730867,20.756,can0  070  [20]  A4 F8 4C 08 F9 F5 61 03 60 6D 00 00 3A 15 00 00 3A 00 00 00
2026-03-07T13:58:28.732877,20.758,can0  070  [20]  A4 F8 4C 08 F9 F5 61 03 60 6D 00 00 3A 15 00 00 3A 00 00 00
2026-03-07T13:58:28.830911,20.856,can0  206  [24]  A3 0C 91 06 9F 0C A0 E2 1B 07 BB 0C A7 0C 00 00 00 00 00 00 00 00 00 00
2026-03-07T13:58:28.936384,20.962,can0  041  [04]  AD 00 06 00
2026-03-07T13:58:28.936452,20.962,can0  060  [32]  00 00 00 00 A4 F8 4C 08 4D 4B B7 10 00 00 10 0E FF 01 00 00 00 00 00 00 01 00 00 00 00 00 00 00
2026-03-07T13:58:28.936493,20.962,can0  206  [24]  AB 0C 93 06 97 0C B1 E0 1B 07 BF 0C A7 0C 00 00 00 00 00 00 00 00 00 00
2026-03-07T13:58:29.031353,21.057,can0  100  [03]  A2 59 04
2026-03-07T13:58:29.031694,21.057,can0  120  [04]  00 00 00 00
2026-03-07T13:58:29.131325,21.157,can0  206  [24]  AB 0C 93 06 9F 0C 99 C6 1B 07 BF 0C 9F 0C 00 00 00 00 00 00 00 00 00 00
2026-03-07T13:58:29.131503,21.157,can0  041  [04]  AD 00 06 00
2026-03-07T13:58:29.231139,21.256,can0  070  [20]  A4 F8 4C 08 F9 F5 61 03 60 6D 00 00 3A 15 00 00 3A 00 00 00
2026-03-07T13:58:29.331024,21.356,can0  206  [24]  A7 0C 8F 06 9B 0C 3A DF 1B 07 C7 0C A3 0C 00 00 00 00 00 00 00 00 00 00
2026-03-07T13:58:29.531577,21.557,can0  041  [04]  9F 00 05 00
2026-03-07T13:58:29.531637,21.557,can0  206  [24]  A7 0C 91 06 9F 0C B1 E0 1D 07 BF 0C A3 0C 00 00 00 00 00 00 00 00 00 00
2026-03-07T13:58:29.535535,21.561,can0  060  [32]  00 00 00 00 00 00 00 00 00 00 00 00 00 00 00 00 00 00 00 00 00 00 00 00 00 00 00 00 00 00 00 00
2026-03-07T13:58:29.630991,21.656,can0  206  [24]  93 0C 91 06 AB 0C 3A DF 1B 07 C3 0C A7 0C 00 00 00 00 00 00 00 00 00 00
2026-03-07T13:58:29.631164,21.657,can0  070  [20]  A6 F8 4C 08 F9 F5 61 03 48 71 00 00 3A 15 00 00 1C 00 00 00
2026-03-07T13:58:29.730874,21.756,can0  070  [20]  A6 F8 4C 08 F9 F5 61 03 48 71 00 00 3A 15 00 00 1C 00 00 00
2026-03-07T13:58:29.733776,21.759,can0  041  [04]  9F 00 06 00
2026-03-07T13:58:29.835687,21.861,can0  206  [24]  9F 0C 8F 06 87 0C C5 E1 14 07 E3 0C A3 0C 00 00 00 00 00 00 00 00 00 00
2026-03-07T13:58:29.835825,21.861,can0  070  [20]  A6 F8 4C 08 F9 F5 61 03 48 71 00 00 3A 15 00 00 1C 00 00 00
2026-03-07T13:58:30.030719,22.056,can0  206  [24]  93 0C 91 06 AF 0C B1 E0 1D 07 C7 0C A7 0C 00 00 00 00 00 00 00 00 00 00
2026-03-07T13:58:30.030936,22.056,can0  060  [32]  00 00 00 00 00 00 00 00 00 00 00 00 00 00 00 00 00 00 00 00 00 00 00 00 00 00 00 00 00 00 00 00
2026-03-07T13:58:30.031092,22.056,can0  041  [04]  9F 00 05 00
2026-03-07T13:58:30.031196,22.057,can0  060  [32]  00 00 00 00 A6 F8 4C 08 4D 4B B7 10 00 00 10 0E FF 01 00 00 00 00 00 00 01 00 00 00 00 00 00 00
2026-03-07T13:58:30.131096,22.156,can0  206  [24]  A7 0C 91 06 87 0C B1 E0 1D 07 D3 0C A3 0C 00 00 00 00 00 00 00 00 00 00
2026-03-07T13:58:30.331367,22.357,can0  100  [03]  A1 59 04
2026-03-07T13:58:30.331727,22.357,can0  110  [02]  E2 1E
2026-03-07T13:58:30.332053,22.357,can0  120  [04]  00 00 00 00
2026-03-07T13:58:30.332246,22.358,can0  041  [04]  9F 00 05 00
2026-03-07T13:58:30.332410,22.358,can0  070  [20]  A6 F8 4C 08 F9 F5 61 03 48 71 00 00 3A 15 00 00 1C 00 00 00
2026-03-07T13:58:30.332632,22.358,can0  206  [24]  A7 0C 9A 06 A3 0C 3A DF 1D 07 BF 0C A3 0C 00 00 00 00 00 00 00 00 00 00
2026-03-07T13:58:30.431214,22.457,can0  206  [24]  A3 0C 8F 06 A3 0C C5 E1 1D 07 BB 0C A3 0C 00 00 00 00 00 00 00 00 00 00
2026-03-07T13:58:30.530760,22.556,can0  060  [32]  00 00 00 00 00 00 00 00 00 00 00 00 00 00 00 00 00 00 00 00 00 00 00 00 00 00 00 00 00 00 00 00
2026-03-07T13:58:30.530927,22.556,can0  041  [04]  9F 00 05 00
2026-03-07T13:58:30.631281,22.657,can0  206  [24]  AF 0C 91 06 9F 0C A0 E2 1B 07 C3 0C 9B 0C 00 00 00 00 00 00 00 00 00 00
2026-03-07T13:58:30.631452,22.657,can0  070  [20]  A6 F8 4C 08 FA F5 61 03 30 75 00 00 3A 15 00 00 1E 00 00 00
2026-03-07T13:58:30.631612,22.657,can0  070  [20]  A6 F8 4C 08 FA F5 61 03 30 75 00 00 3A 15 00 00 1E 00 00 00
2026-03-07T13:58:30.736519,22.762,can0  070  [20]  A6 F8 4C 08 FA F5 61 03 30 75 00 00 3A 15 00 00 1E 00 00 00
2026-03-07T13:58:30.736761,22.762,can0  206  [24]  A7 0C 9C 06 A3 0C F4 E3 1F 07 C3 0C 9F 0C 00 00 00 00 00 00 00 00 00 00
2026-03-07T13:58:30.736905,22.762,can0  041  [04]  9A 00 07 00
2026-03-07T13:58:30.930792,22.956,can0  206  [24]  B3 0C 8F 06 AB 0C C5 E1 1B 07 DB 0C 93 0C 00 00 00 00 00 00 00 00 00 00
2026-03-07T13:58:31.030442,23.056,can0  060  [32]  00 00 00 00 A6 F8 4C 08 4F 4B B7 10 00 00 10 0E FF 01 00 00 00 00 00 00 01 00 00 00 00 00 00 00
2026-03-07T13:58:31.030996,23.056,can0  041  [04]  9F 00 05 00
2026-03-07T13:58:31.031258,23.057,can0  206  [24]  A7 0C 91 06 9F 0C A0 E2 1F 07 C3 0C A3 0C 00 00 00 00 00 00 00 00 00 00
2026-03-07T13:58:31.234393,23.260,can0  206  [24]  97 0C 91 06 AB 0C C5 E1 18 07 C3 0C A7 0C 00 00 00 00 00 00 00 00 00 00
2026-03-07T13:58:31.234547,23.260,can0  070  [20]  A6 F8 4C 08 FA F5 61 03 30 75 00 00 3A 15 00 00 1E 00 00 00
2026-03-07T13:58:31.330800,23.356,can0  041  [04]  97 00 05 00
2026-03-07T13:58:31.430958,23.456,can0  206  [24]  A7 0C 91 06 9F 0C F4 E3 1D 07 C3 0C A3 0C 00 00 00 00 00 00 00 00 00 00
2026-03-07T13:58:31.431387,23.457,can0  100  [03]  A6 59 04
2026-03-07T13:58:31.431707,23.457,can0  120  [04]  00 00 00 00
2026-03-07T13:58:31.531025,23.556,can0  060  [32]  00 00 00 00 00 00 00 00 00 00 00 00 00 00 00 00 00 00 00 00 00 00 00 00 00 00 00 00 00 00 00 00
2026-03-07T13:58:31.531264,23.557,can0  206  [24]  C3 0C 8D 06 8F 0C C5 E1 14 07 B3 0C 9B 0C 00 00 00 00 00 00 00 00 00 00
2026-03-07T13:58:31.531421,23.557,can0  041  [04]  97 00 05 00
2026-03-07T13:58:31.630419,23.656,can0  070  [20]  A6 F8 4C 08 FA F5 61 03 18 79 00 00 3A 15 00 00 50 00 00 00
2026-03-07T13:58:31.742584,23.768,can0  070  [20]  A6 F8 4C 08 FA F5 61 03 18 79 00 00 3A 15 00 00 4F 00 00 00
2026-03-07T13:58:31.743125,23.768,can0  206  [24]  9F 0C 93 06 AF 0C C5 E1 18 07 C3 0C 9B 0C 00 00 00 00 00 00 00 00 00 00
2026-03-07T13:58:31.743208,23.769,can0  070  [20]  A6 F8 4C 08 FA F5 61 03 18 79 00 00 3A 15 00 00 4F 00 00 00
2026-03-07T13:58:31.831274,23.857,can0  110  [02]  E0 1E
2026-03-07T13:58:31.831477,23.857,can0  041  [04]  8B 00 02 00
2026-03-07T13:58:31.831706,23.857,can0  206  [24]  A7 0C 8D 06 9B 0C A0 E2 1B 07 CB 0C A3 0C 00 00 00 00 00 00 00 00 00 00
2026-03-07T13:58:32.031182,24.057,can0  060  [32]  00 00 00 00 00 00 00 00 00 00 00 00 00 00 00 00 00 00 00 00 00 00 00 00 00 00 00 00 00 00 00 00
2026-03-07T13:58:32.031295,24.057,can0  060  [32]  00 00 00 00 A6 F8 4C 08 4F 4B B7 10 00 00 10 0E FF 01 00 00 00 00 00 00 01 00 00 00 00 00 00 00
2026-03-07T13:58:32.031654,24.057,can0  206  [24]  AF 0C 91 06 9B 0C B1 E0 1D 07 C7 0C 97 0C 00 00 00 00 00 00 00 00 00 00
2026-03-07T13:58:32.131230,24.157,can0  041  [04]  97 00 05 00
2026-03-07T13:58:32.235676,24.261,can0  206  [24]  A7 0C 93 06 A3 0C C5 E1 1B 07 BB 0C A3 0C 00 00 00 00 00 00 00 00 00 00
2026-03-07T13:58:32.235833,24.261,can0  070  [20]  A6 F8 4C 08 FA F5 61 03 18 79 00 00 3A 15 00 00 4F 00 00 00
2026-03-07T13:58:32.430537,24.456,can0  206  [24]  AB 0C 93 06 A7 0C B1 E0 14 07 BB 0C 97 0C 00 00 00 00 00 00 00 00 00 00
2026-03-07T13:58:32.430735,24.456,can0  041  [04]  97 00 05 00
2026-03-07T13:58:32.630747,24.656,can0  060  [32]  00 00 00 00 00 00 00 00 00 00 00 00 00 00 00 00 00 00 00 00 00 00 00 00 00 00 00 00 00 00 00 00
2026-03-07T13:58:32.631561,24.657,can0  206  [24]  A7 0C 9E 06 A3 0C 3A DF 18 07 C7 0C A3 0C 00 00 00 00 00 00 00 00 00 00
2026-03-07T13:58:32.631615,24.657,can0  100  [03]  AC 59 04
2026-03-07T13:58:32.632415,24.658,can0  120  [04]  00 00 00 00
2026-03-07T13:58:32.632496,24.658,can0  041  [04]  9F 00 02 00
2026-03-07T13:58:32.632556,24.658,can0  070  [20]  A6 F8 4C 08 FA F5 61 03 00 7D 00 00 3A 15 00 00 45 00 00 00
2026-03-07T13:58:32.632640,24.658,can0  070  [20]  A6 F8 4C 08 FA F5 61 03 00 7D 00 00 3A 15 00 00 44 00 00 00
2026-03-07T13:58:32.632929,24.658,can0  206  [24]  AB 0C 91 06 97 0C 57 E3 1B 07 CB 0C 9F 0C 00 00 00 00 00 00 00 00 00 00
2026-03-07T13:58:32.731059,24.756,can0  070  [20]  A6 F8 4C 08 FA F5 61 03 00 7D 00 00 3A 15 00 00 44 00 00 00
2026-03-07T13:58:32.834854,24.860,can0  206  [24]  A3 0C 97 06 6F 0C C5 E1 1D 07 F8 0C A3 0C 00 00 00 00 00 00 00 00 00 00
2026-03-07T13:58:32.931192,24.957,can0  041  [04]  B5 00 02 00
2026-03-07T13:58:33.031222,25.057,can0  206  [24]  AF 0C 8F 06 9F 0C B1 E0 1D 07 B7 0C 9B 0C 00 00 00 00 00 00 00 00 00 00
2026-03-07T13:58:33.031370,25.057,can0  060  [32]  00 00 00 00 A6 F8 4C 08 4F 4B B7 10 00 00 10 0E FF 01 00 00 00 00 00 00 01 00 00 00 00 00 00 00
2026-03-07T13:58:33.230980,25.256,can0  206  [24]  A7 0C 91 06 9B 0C B1 E0 1D 07 BF 0C A7 0C 00 00 00 00 00 00 00 00 00 00
2026-03-07T13:58:33.231174,25.257,can0  041  [04]  B5 00 02 00
2026-03-07T13:58:33.231346,25.257,can0  070  [20]  A6 F8 4C 08 FA F5 61 03 00 7D 00 00 3A 15 00 00 44 00 00 00
2026-03-07T13:58:33.336476,25.362,can0  206  [24]  A3 0C 93 06 9F 0C B1 E0 1D 07 CB 0C 9F 0C 00 00 00 00 00 00 00 00 00 00
2026-03-07T13:58:33.531502,25.557,can0  110  [02]  E0 1E
2026-03-07T13:58:33.531691,25.557,can0  041  [04]  B5 00 02 00
2026-03-07T13:58:33.531947,25.557,can0  206  [24]  BF 0C 91 06 9F 0C B1 E0 18 07 BB 0C 8B 0C 00 00 00 00 00 00 00 00 00 00
2026-03-07T13:58:33.532153,25.557,can0  060  [32]  00 00 00 00 00 00 00 00 00 00 00 00 00 00 00 00 00 00 00 00 00 00 00 00 00 00 00 00 00 00 00 00
2026-03-07T13:58:33.631095,25.656,can0  206  [24]  A3 0C 93 06 97 0C DA DC 1B 07 CB 0C A3 0C 00 00 00 00 00 00 00 00 00 00
2026-03-07T13:58:33.631220,25.657,can0  070  [20]  A6 F8 4C 08 FA F5 61 03 E8 80 00 00 3A 15 00 00 68 00 00 00
2026-03-07T13:58:33.730627,25.756,can0  070  [20]  A6 F8 4C 08 FA F5 61 03 E8 80 00 00 3A 15 00 00 68 00 00 00
2026-03-07T13:58:33.738155,25.764,can0  041  [04]  C9 00 02 00
2026-03-07T13:58:33.738238,25.764,can0  070  [20]  A6 F8 4C 08 FA F5 61 03 E8 80 00 00 3A 15 00 00 68 00 00 00
2026-03-07T13:58:33.830669,25.856,can0  206  [24]  AB 0C 8F 06 9B 0C 3A DF 1B 07 C7 0C A3 0C 00 00 00 00 00 00 00 00 00 00
2026-03-07T13:58:33.831110,25.856,can0  100  [03]  AC 59 04
2026-03-07T13:58:33.831418,25.857,can0  120  [04]  00 00 00 00
2026-03-07T13:58:34.030759,26.056,can0  206  [24]  AF 0C 91 06 A7 0C 69 E5 1D 07 BB 0C 9B 0C 00 00 00 00 00 00 00 00 00 00
2026-03-07T13:58:34.030992,26.056,can0  041  [04]  C9 00 02 00
2026-03-07T13:58:34.031175,26.057,can0  060  [32]  00 00 00 00 00 00 00 00 00 00 00 00 00 00 00 00 00 00 00 00 00 00 00 00 00 00 00 00 00 00 00 00
2026-03-07T13:58:34.031305,26.057,can0  060  [32]  00 00 00 00 A6 F8 4C 08 4F 4B B7 10 00 00 10 0E FF 01 00 00 00 00 00 00 01 00 00 00 00 00 00 00
2026-03-07T13:58:34.035343,26.061,can0  132  [00]
2026-03-07T13:58:34.130588,26.156,can0  206  [24]  AB 0C 91 06 A3 0C 3A DF 23 07 D3 0C 9B 0C 00 00 00 00 00 00 00 00 00 00
2026-03-07T13:58:34.231147,26.256,can0  041  [04]  B5 00 05 00
2026-03-07T13:58:34.231269,26.257,can0  070  [20]  A6 F8 4C 08 FA F5 61 03 E8 80 00 00 3A 15 00 00 68 00 00 00
2026-03-07T13:58:34.330376,26.356,can0  206  [24]  9B 0C 8F 06 A7 0C 57 E3 23 07 B7 0C A7 0C 00 00 00 00 00 00 00 00 00 00
2026-03-07T13:58:34.530613,26.556,can0  206  [24]  A3 0C 91 06 9B 0C 3A DF 1D 07 C7 0C A7 0C 00 00 00 00 00 00 00 00 00 00
2026-03-07T13:58:34.530722,26.556,can0  041  [04]  B5 00 05 00
2026-03-07T13:58:34.530835,26.556,can0  060  [32]  00 00 00 00 00 00 00 00 00 00 00 00 00 00 00 00 00 00 00 00 00 00 00 00 00 00 00 00 00 00 00 00
2026-03-07T13:58:34.530924,26.556,can0  133  [00]
2026-03-07T13:58:34.630464,26.656,can0  206  [24]  5B 0C 8F 06 9F 0C A0 E2 1D 07 C3 0C EC 0C 00 00 00 00 00 00 00 00 00 00
2026-03-07T13:58:34.731005,26.756,can0  070  [20]  A6 F8 4C 08 FC F5 61 03 D0 84 00 00 3A 15 00 00 21 00 00 00
2026-03-07T13:58:34.731142,26.756,can0  070  [20]  A6 F8 4C 08 FC F5 61 03 D0 84 00 00 3A 15 00 00 21 00 00 00
2026-03-07T13:58:34.731282,26.757,can0  041  [04]  B5 00 02 00
2026-03-07T13:58:34.731445,26.757,can0  206  [24]  9F 0C 93 06 A7 0C B1 E0 1F 07 BF 0C A7 0C 00 00 00 00 00 00 00 00 00 00
2026-03-07T13:58:34.831427,26.857,can0  070  [20]  A6 F8 4C 08 FC F5 61 03 D0 84 00 00 3A 15 00 00 21 00 00 00
2026-03-07T13:58:35.031628,27.057,can0  206  [24]  A3 0C 8F 06 A7 0C 57 E3 1B 07 B7 0C A3 0C 00 00 00 00 00 00 00 00 00 00
2026-03-07T13:58:35.031689,27.057,can0  100  [03]  AD 59 04
2026-03-07T13:58:35.032656,27.058,can0  110  [02]  DF 1E
2026-03-07T13:58:35.032708,27.058,can0  120  [04]  00 00 00 00
2026-03-07T13:58:35.032747,27.058,can0  060  [32]  00 00 00 00 A6 F8 4C 08 51 4B B7 10 00 00 10 0E FF 01 00 00 00 00 00 00 01 00 00 00 00 00 00 00
2026-03-07T13:58:35.032829,27.058,can0  041  [04]  D8 00 04 00
2026-03-07T13:58:35.130777,27.156,can0  206  [24]  A3 0C 91 06 AB 0C A0 E2 1B 07 BF 0C 97 0C 00 00 00 00 00 00 00 00 00 00
2026-03-07T13:58:35.331571,27.357,can0  206  [24]  A7 0C 91 06 A3 0C 3A DF 1D 07 C3 0C 9F 0C 00 00 00 00 00 00 00 00 00 00
2026-03-07T13:58:35.331793,27.357,can0  041  [04]  D1 00 04 00
2026-03-07T13:58:35.332034,27.357,can0  070  [20]  A6 F8 4C 08 FC F5 61 03 D0 84 00 00 3A 15 00 00 21 00 00 00
2026-03-07T13:58:35.431147,27.456,can0  206  [24]  BF 0C 93 06 93 0C 57 E3 18 07 C3 0C 9B 0C 00 00 00 00 00 00 00 00 00 00
2026-03-07T13:58:35.530408,27.556,can0  060  [32]  00 00 00 00 00 00 00 00 00 00 00 00 00 00 00 00 00 00 00 00 00 00 00 00 00 00 00 00 00 00 00 00
2026-03-07T13:58:35.530587,27.556,can0  041  [04]  D8 00 04 00
2026-03-07T13:58:35.530780,27.556,can0  206  [24]  A7 0C 86 06 A3 0C 2E E6 1D 07 BB 0C A3 0C 00 00 00 00 00 00 00 00 00 00
2026-03-07T13:58:35.631132,27.656,can0  070  [20]  A6 F8 4C 08 FC F5 61 03 B8 88 00 00 3A 15 00 00 36 00 00 00
2026-03-07T13:58:35.631266,27.657,can0  070  [20]  A6 F8 4C 08 FC F5 61 03 B8 88 00 00 3A 15 00 00 35 00 00 00
2026-03-07T13:58:35.730745,27.756,can0  206  [24]  AF 0C 95 06 9F 0C FA E4 1B 07 BB 0C 9B 0C 00 00 00 00 00 00 00 00 00 00
2026-03-07T13:58:35.730823,27.756,can0  070  [20]  A6 F8 4C 08 FC F5 61 03 B8 88 00 00 3A 15 00 00 35 00 00 00
2026-03-07T13:58:35.831261,27.857,can0  041  [04]  E4 00 02 00
2026-03-07T13:58:35.930484,27.956,can0  206  [24]  A3 0C A2 06 A7 0C C5 E1 18 07 B7 0C A3 0C 00 00 00 00 00 00 00 00 00 00
2026-03-07T13:58:36.030452,28.056,can0  060  [32]  00 00 00 00 00 00 00 00 00 00 00 00 00 00 00 00 00 00 00 00 00 00 00 00 00 00 00 00 00 00 00 00
2026-03-07T13:58:36.030899,28.056,can0  206  [24]  AB 0C 93 06 9F 0C C5 E1 16 07 C3 0C 9F 0C 00 00 00 00 00 00 00 00 00 00
2026-03-07T13:58:36.031124,28.056,can0  060  [32]  00 00 00 00 A6 F8 4C 08 51 4B B7 10 00 00 10 0E FF 01 00 00 00 00 00 00 01 00 00 00 00 00 00 00
2026-03-07T13:58:36.130525,28.156,can0  041  [04]  D1 00 02 00
2026-03-07T13:58:36.230729,28.256,can0  206  [24]  A7 0C 8A 06 AF 0C A0 E2 18 07 AF 0C 9F 0C 00 00 00 00 00 00 00 00 00 00
2026-03-07T13:58:36.231230,28.257,can0  100  [03]  AF 59 04
2026-03-07T13:58:36.231549,28.257,can0  120  [04]  00 00 00 00
2026-03-07T13:58:36.231716,28.257,can0  070  [20]  A6 F8 4C 08 FC F5 61 03 B8 88 00 00 3A 15 00 00 35 00 00 00
2026-03-07T13:58:36.431068,28.456,can0  041  [04]  B5 00 02 00
2026-03-07T13:58:36.431279,28.457,can0  206  [24]  B7 0C 91 06 9F 0C C5 E1 1B 07 C7 0C 93 0C 00 00 00 00 00 00 00 00 00 00
2026-03-07T13:58:36.531541,28.557,can0  206  [24]  AB 0C 8A 06 A7 0C DA DC 1D 07 B3 0C 9F 0C 00 00 00 00 00 00 00 00 00 00
2026-03-07T13:58:36.531820,28.557,can0  060  [32]  00 00 00 00 00 00 00 00 00 00 00 00 00 00 00 00 00 00 00 00 00 00 00 00 00 00 00 00 00 00 00 00
2026-03-07T13:58:36.634325,28.660,can0  041  [04]  B5 00 02 00
2026-03-07T13:58:36.634376,28.660,can0  110  [02]  DF 1E
2026-03-07T13:58:36.634398,28.660,can0  070  [20]  A6 F8 4C 08 FC F5 61 03 A0 8C 00 00 3A 15 00 00 41 00 00 00
2026-03-07T13:58:36.634428,28.660,can0  070  [20]  A6 F8 4C 08 FC F5 61 03 A0 8C 00 00 3A 15 00 00 41 00 00 00
2026-03-07T13:58:36.730743,28.756,can0  206  [24]  9F 0C 8F 06 A3 0C 7E E4 1F 07 B7 0C AB 0C 00 00 00 00 00 00 00 00 00 00
2026-03-07T13:58:36.730850,28.756,can0  070  [20]  A6 F8 4C 08 FC F5 61 03 A0 8C 00 00 3A 15 00 00 41 00 00 00
2026-03-07T13:58:36.831348,28.857,can0  206  [24]  BF 0C 9A 06 9B 0C 3A DF 1F 07 BB 0C 8F 0C 00 00 00 00 00 00 00 00 00 00
2026-03-07T13:58:36.930900,28.956,can0  041  [04]  B5 00 02 00
2026-03-07T13:58:37.131311,29.157,can0  206  [24]  A3 0C 93 06 93 0C A0 E2 21 07 CB 0C A7 0C 00 00 00 00 00 00 00 00 00 00
2026-03-07T13:58:37.131421,29.157,can0  060  [32]  00 00 00 00 A6 F8 4C 08 51 4B B7 10 00 00 10 0E FF 01 00 00 00 00 00 00 01 00 00 00 00 00 00 00
2026-03-07T13:58:37.134936,29.160,can0  041  [04]  B5 00 00 00
2026-03-07T13:58:37.230506,29.256,can0  206  [24]  9F 0C 8F 06 A3 0C B1 E0 1B 07 C7 0C A7 0C 00 00 00 00 00 00 00 00 00 00
2026-03-07T13:58:37.230654,29.256,can0  070  [20]  A6 F8 4C 08 FC F5 61 03 A0 8C 00 00 3A 15 00 00 41 00 00 00
2026-03-07T13:58:37.330561,29.356,can0  206  [24]  AB 0C 93 06 9B 0C B1 E0 1D 07 C3 0C 9F 0C 00 00 00 00 00 00 00 00 00 00
2026-03-07T13:58:37.430713,29.456,can0  041  [04]  10 01 02 00
2026-03-07T13:58:37.431208,29.457,can0  100  [03]  B5 59 04
2026-03-07T13:58:37.431534,29.457,can0  120  [04]  00 00 00 00
2026-03-07T13:58:37.531027,29.556,can0  206  [24]  A7 0C 93 06 9F 0C 7E E4 1D 07 C7 0C A3 0C 00 00 00 00 00 00 00 00 00 00
2026-03-07T13:58:37.531209,29.557,can0  060  [32]  00 00 00 00 00 00 00 00 00 00 00 00 00 00 00 00 00 00 00 00 00 00 00 00 00 00 00 00 00 00 00 00
2026-03-07T13:58:37.630737,29.656,can0  070  [20]  A6 F8 4C 08 FC F5 61 03 88 90 00 00 3A 15 00 00 30 00 00 00
2026-03-07T13:58:37.630984,29.656,can0  070  [20]  A6 F8 4C 08 FC F5 61 03 88 90 00 00 3A 15 00 00 2F 00 00 00
2026-03-07T13:58:37.631224,29.657,can0  206  [24]  AB 0C 8F 06 9F 0C C5 E1 18 07 BB 0C 9F 0C 00 00 00 00 00 00 00 00 00 00
2026-03-07T13:58:37.730994,29.756,can0  041  [04]  10 01 02 00
2026-03-07T13:58:37.731543,29.757,can0  070  [20]  A6 F8 4C 08 FC F5 61 03 88 90 00 00 3A 15 00 00 2F 00 00 00
2026-03-07T13:58:37.831123,29.856,can0  206  [24]  AF 0C 91 06 A3 0C C5 E1 1D 07 BB 0C 97 0C 00 00 00 00 00 00 00 00 00 00
2026-03-07T13:58:38.031117,30.056,can0  041  [04]  E4 00 00 00
2026-03-07T13:58:38.036339,30.062,can0  206  [24]  9B 0C 8F 06 AB 0C A0 E2 1D 07 BF 0C A7 0C 00 00 00 00 00 00 00 00 00 00
2026-03-07T13:58:38.036411,30.062,can0  060  [32]  00 00 00 00 00 00 00 00 00 00 00 00 00 00 00 00 00 00 00 00 00 00 00 00 00 00 00 00 00 00 00 00
2026-03-07T13:58:38.130483,30.156,can0  060  [32]  00 00 00 00 A6 F8 4C 08 51 4B B7 10 00 00 10 0E FF 01 00 00 00 00 00 00 01 00 00 00 00 00 00 00
2026-03-07T13:58:38.131112,30.156,can0  206  [24]  A7 0C 91 06 9B 0C B1 E0 18 07 CB 0C A3 0C 00 00 00 00 00 00 00 00 00 00
2026-03-07T13:58:38.231345,30.257,can0  041  [04]  B5 00 00 00
2026-03-07T13:58:38.231847,30.257,can0  110  [02]  DD 1E
2026-03-07T13:58:38.232006,30.257,can0  070  [20]  A6 F8 4C 08 FC F5 61 03 88 90 00 00 3A 15 00 00 2F 00 00 00
2026-03-07T13:58:38.331371,30.357,can0  206  [24]  A7 0C 91 06 9F 0C 3A DF 1B 07 C7 0C A3 0C 00 00 00 00 00 00 00 00 00 00
2026-03-07T13:58:38.530657,30.556,can0  206  [24]  AB 0C 91 06 9F 0C C5 E1 1B 07 C7 0C 9F 0C 00 00 00 00 00 00 00 00 00 00
2026-03-07T13:58:38.530793,30.556,can0  041  [04]  8B 00 02 00
2026-03-07T13:58:38.530956,30.556,can0  060  [32]  00 00 00 00 00 00 00 00 00 00 00 00 00 00 00 00 00 00 00 00 00 00 00 00 00 00 00 00 00 00 00 00
2026-03-07T13:58:38.630918,30.656,can0  070  [20]  A6 F8 4C 08 FC F5 61 03 70 94 00 00 3A 15 00 00 23 00 00 00
2026-03-07T13:58:38.631476,30.657,can0  100  [03]  B4 59 04
2026-03-07T13:58:38.631916,30.657,can0  120  [04]  00 00 00 00
2026-03-07T13:58:38.632157,30.658,can0  206  [24]  A3 0C 93 06 9B 0C 3A DF 1D 07 CF 0C A7 0C 00 00 00 00 00 00 00 00 00 00
2026-03-07T13:58:38.632307,30.658,can0  070  [20]  A6 F8 4C 08 FC F5 61 03 70 94 00 00 3A 15 00 00 23 00 00 00
2026-03-07T13:58:38.730834,30.756,can0  041  [04]  B5 00 02 00
2026-03-07T13:58:38.738282,30.764,can0  070  [20]  A6 F8 4C 08 FC F5 61 03 70 94 00 00 3A 15 00 00 23 00 00 00
2026-03-07T13:58:38.830720,30.856,can0  206  [24]  AB 0C 93 06 9B 0C C5 E1 1D 07 BF 0C 9F 0C 00 00 00 00 00 00 00 00 00 00
2026-03-07T13:58:39.031307,31.057,can0  206  [24]  A3 0C 8F 06 A3 0C C5 E1 1B 07 C3 0C A7 0C 00 00 00 00 00 00 00 00 00 00
2026-03-07T13:58:39.031432,31.057,can0  041  [04]  B5 00 02 00
2026-03-07T13:58:39.031560,31.057,can0  060  [32]  00 00 00 00 00 00 00 00 00 00 00 00 00 00 00 00 00 00 00 00 00 00 00 00 00 00 00 00 00 00 00 00
2026-03-07T13:58:39.130560,31.156,can0  060  [32]  00 00 00 00 A6 F8 4C 08 51 4B B7 10 00 00 10 0E FF 01 00 00 00 00 00 00 01 00 00 00 00 00 00 00
2026-03-07T13:58:39.135648,31.161,can0  206  [24]  9F 0C 93 06 9B 0C 3A DF 21 07 BF 0C AB 0C 00 00 00 00 00 00 00 00 00 00
2026-03-07T13:58:39.230840,31.256,can0  070  [20]  A6 F8 4C 08 FC F5 61 03 70 94 00 00 3A 15 00 00 23 00 00 00
2026-03-07T13:58:39.235423,31.261,can0  206  [24]  A3 0C 93 06 9F 0C FA E4 1B 07 CB 0C A3 0C 00 00 00 00 00 00 00 00 00 00
2026-03-07T13:58:39.330599,31.356,can0  041  [04]  E4 00 02 00
2026-03-07T13:58:39.631469,31.657,can0  206  [24]  AB 0C 93 06 AB 0C A0 E2 18 07 B7 0C 9B 0C 00 00 00 00 00 00 00 00 00 00
2026-03-07T13:58:39.631567,31.657,can0  041  [04]  B5 00 02 00
2026-03-07T13:58:39.631789,31.657,can0  206  [24]  AB 0C 91 06 A3 0C 3A DF 1B 07 C3 0C 9B 0C 00 00 00 00 00 00 00 00 00 00
2026-03-07T13:58:39.631992,31.657,can0  060  [32]  00 00 00 00 00 00 00 00 00 00 00 00 00 00 00 00 00 00 00 00 00 00 00 00 00 00 00 00 00 00 00 00
2026-03-07T13:58:39.632166,31.658,can0  070  [20]  A6 F8 4C 08 FC F5 61 03 58 98 00 00 3A 15 00 00 41 00 00 00
2026-03-07T13:58:39.737896,31.763,can0  070  [20]  A6 F8 4C 08 FC F5 61 03 58 98 00 00 3A 15 00 00 40 00 00 00
2026-03-07T13:58:39.738016,31.763,can0  206  [24]  AF 0C 79 06 9F 0C B1 E0 1B 07 C3 0C 9B 0C 00 00 00 00 00 00 00 00 00 00
2026-03-07T13:58:39.831044,31.856,can0  070  [20]  A6 F8 4C 08 FC F5 61 03 58 98 00 00 3A 15 00 00 40 00 00 00
2026-03-07T13:58:39.831210,31.857,can0  041  [04]  AD 00 06 00
2026-03-07T13:58:39.831688,31.857,can0  100  [03]  B5 59 04
2026-03-07T13:58:39.832019,31.857,can0  110  [02]  DB 1E
2026-03-07T13:58:39.832329,31.858,can0  120  [04]  00 00 00 00
2026-03-07T13:58:39.981122,32.006,can0  206  [24]  AB 0C 8A 06 A3 0C A0 E2 1B 07 C7 0C 9B 0C 00 00 00 00 00 00 00 00 00 00
2026-03-07T13:58:40.180908,32.206,can0  041  [04]  A4 00 06 00
2026-03-07T13:58:40.181139,32.206,can0  206  [24]  B3 0C 8F 06 9F 0C C5 E1 1F 07 B7 0C 93 0C 00 00 00 00 00 00 00 00 00 00
2026-03-07T13:58:40.181280,32.207,can0  060  [32]  00 00 00 00 A6 F8 4C 08 51 4B B7 10 00 00 10 0E FF 01 00 00 00 00 00 00 01 00 00 00 00 00 00 00
2026-03-07T13:58:40.281086,32.306,can0  206  [24]  AB 0C 91 06 A7 0C 99 C6 1B 07 BF 0C 9B 0C 00 00 00 00 00 00 00 00 00 00
2026-03-07T13:58:40.281233,32.307,can0  070  [20]  A6 F8 4C 08 FC F5 61 03 58 98 00 00 3A 15 00 00 40 00 00 00
2026-03-07T13:58:40.381165,32.407,can0  041  [04]  A7 00 08 00
2026-03-07T13:58:40.481205,32.507,can0  206  [24]  AF 0C 95 06 A7 0C A0 E2 1B 07 BF 0C 93 0C 00 00 00 00 00 00 00 00 00 00
2026-03-07T13:58:40.680954,32.706,can0  206  [24]  AB 0C 91 06 AB 0C 7E E4 18 07 BF 0C 97 0C 00 00 00 00 00 00 00 00 00 00
2026-03-07T13:58:40.681095,32.706,can0  070  [20]  A6 F8 4C 08 FA F5 61 03 40 9C 00 00 3A 15 00 00 13 00 00 00
2026-03-07T13:58:40.681258,32.707,can0  060  [32]  00 00 00 00 00 00 00 00 00 00 00 00 00 00 00 00 00 00 00 00 00 00 00 00 00 00 00 00 00 00 00 00
2026-03-07T13:58:40.681394,32.707,can0  041  [04]  9F 00 07 00
2026-03-07T13:58:40.685696,32.711,can0  070  [20]  A6 F8 4C 08 FA F5 61 03 40 9C 00 00 3A 15 00 00 13 00 00 00
2026-03-07T13:58:40.780509,32.806,can0  206  [24]  AB 0C 8F 06 A7 0C B1 E0 1F 07 B7 0C 9B 0C 00 00 00 00 00 00 00 00 00 00
2026-03-07T13:58:40.780644,32.806,can0  070  [20]  A6 F8 4C 08 FA F5 61 03 40 9C 00 00 3A 15 00 00 13 00 00 00
2026-03-07T13:58:40.981192,33.007,can0  041  [04]  9F 00 08 00
2026-03-07T13:58:40.981422,33.007,can0  206  [24]  9F 0C 91 06 A7 0C B1 E0 1D 07 C3 0C A7 0C 00 00 00 00 00 00 00 00 00 00
2026-03-07T13:58:41.081222,33.107,can0  100  [03]  B7 59 04
2026-03-07T13:58:41.081771,33.107,can0  120  [04]  00 00 00 00
2026-03-07T13:58:41.082105,33.107,can0  206  [24]  AB 0C 91 06 A7 0C 99 C6 16 07 C3 0C 9B 0C 00 00 00 00 00 00 00 00 00 00
2026-03-07T13:58:41.135971,33.161,can0  060  [32]  00 00 00 00 A6 F8 4C 08 4F 4B B7 10 00 00 10 0E FF 01 00 00 00 00 00 00 01 00 00 00 00 00 00 00
2026-03-07T13:58:41.139620,33.165,can0  041  [04]  A7 00 08 00
2026-03-07T13:58:41.280548,33.306,can0  206  [24]  A3 0C 9A 06 A3 0C A0 E2 1B 07 BF 0C A3 0C 00 00 00 00 00 00 00 00 00 00
2026-03-07T13:58:41.280775,33.306,can0  070  [20]  A6 F8 4C 08 FA F5 61 03 40 9C 00 00 3A 15 00 00 13 00 00 00
2026-03-07T13:58:41.580431,33.606,can0  206  [24]  9F 0C 93 06 A7 0C 57 E3 18 07 C3 0C A3 0C 00 00 00 00 00 00 00 00 00 00
2026-03-07T13:58:41.580617,33.606,can0  041  [04]  A4 00 06 00
2026-03-07T13:58:41.581064,33.606,can0  110  [02]  DB 1E
2026-03-07T13:58:41.581296,33.607,can0  206  [24]  A3 0C 8F 06 A3 0C C5 E1 25 07 D7 0C A3 0C 00 00 00 00 00 00 00 00 00 00
2026-03-07T13:58:41.680613,33.706,can0  060  [32]  00 00 00 00 00 00 00 00 00 00 00 00 00 00 00 00 00 00 00 00 00 00 00 00 00 00 00 00 00 00 00 00
2026-03-07T13:58:41.680798,33.706,can0  070  [20]  A8 F8 4C 08 FA F5 61 03 28 A0 00 00 3A 15 00 00 2C 00 00 00
2026-03-07T13:58:41.680887,33.706,can0  070  [20]  A8 F8 4C 08 FA F5 61 03 28 A0 00 00 3A 15 00 00 2C 00 00 00
2026-03-07T13:58:41.684339,33.710,can0  041  [04]  9A 00 07 00
2026-03-07T13:58:41.780698,33.806,can0  206  [24]  A7 0C 91 06 97 0C F4 E3 1B 07 CF 0C 9F 0C 00 00 00 00 00 00 00 00 00 00
2026-03-07T13:58:41.780817,33.806,can0  070  [20]  A8 F8 4C 08 FA F5 61 03 28 A0 00 00 3A 15 00 00 2C 00 00 00
2026-03-07T13:58:41.980997,34.006,can0  206  [24]  A7 0C 93 06 A3 0C B1 E0 18 07 C3 0C A3 0C 00 00 00 00 00 00 00 00 00 00
2026-03-07T13:58:41.981126,34.006,can0  041  [04]  A4 00 06 00
2026-03-07T13:58:42.081109,34.106,can0  206  [24]  AB 0C 91 06 9B 0C A0 E2 23 07 C3 0C A3 0C 00 00 00 00 00 00 00 00 00 00
2026-03-07T13:58:42.181253,34.207,can0  060  [32]  00 00 00 00 00 00 00 00 00 00 00 00 00 00 00 00 00 00 00 00 00 00 00 00 00 00 00 00 00 00 00 00
2026-03-07T13:58:42.181412,34.207,can0  060  [32]  00 00 00 00 A8 F8 4C 08 4F 4B B7 10 00 00 10 0E FF 01 00 00 00 00 00 00 01 00 00 00 00 00 00 00
2026-03-07T13:58:42.181876,34.207,can0  206  [24]  AB 0C 93 06 A3 0C C5 E1 1F 07 BF 0C 9B 0C 00 00 00 00 00 00 00 00 00 00
2026-03-07T13:58:42.281248,34.307,can0  041  [04]  9F 00 05 00
2026-03-07T13:58:42.281788,34.307,can0  100  [03]  B6 59 04
2026-03-07T13:58:42.282140,34.307,can0  120  [04]  00 00 00 00
2026-03-07T13:58:42.282276,34.308,can0  070  [20]  A8 F8 4C 08 FA F5 61 03 28 A0 00 00 3A 15 00 00 2C 00 00 00
2026-03-07T13:58:42.380455,34.406,can0  206  [24]  AB 0C 9E 06 A3 0C B1 E0 1B 07 C3 0C 9B 0C 00 00 00 00 00 00 00 00 00 00
2026-03-07T13:58:42.681351,34.707,can0  041  [04]  9F 00 05 00
2026-03-07T13:58:42.681641,34.707,can0  206  [24]  AB 0C 91 06 9F 0C A0 E2 1B 07 C3 0C 9F 0C 00 00 00 00 00 00 00 00 00 00
2026-03-07T13:58:42.681805,34.707,can0  070  [20]  A8 F8 4C 08 FA F5 61 03 10 A4 00 00 3A 15 00 00 21 00 00 00
2026-03-07T13:58:42.681999,34.707,can0  060  [32]  00 00 00 00 00 00 00 00 00 00 00 00 00 00 00 00 00 00 00 00 00 00 00 00 00 00 00 00 00 00 00 00
2026-03-07T13:58:42.682158,34.707,can0  070  [20]  A8 F8 4C 08 FA F5 61 03 10 A4 00 00 3A 15 00 00 21 00 00 00
2026-03-07T13:58:42.682380,34.708,can0  206  [24]  A7 0C 8F 06 9F 0C A0 E2 18 07 C3 0C A7 0C 00 00 00 00 00 00 00 00 00 00
2026-03-07T13:58:42.780384,34.806,can0  041  [04]  97 00 05 00
2026-03-07T13:58:42.780565,34.806,can0  070  [20]  A8 F8 4C 08 FA F5 61 03 10 A4 00 00 3A 15 00 00 21 00 00 00
2026-03-07T13:58:42.881027,34.906,can0  206  [24]  AF 0C 8F 06 9F 0C 3A DF 18 07 C3 0C 9B 0C 00 00 00 00 00 00 00 00 00 00
2026-03-07T13:58:43.080746,35.106,can0  206  [24]  9F 0C 91 06 9F 0C A0 E2 1B 07 C3 0C AB 0C 00 00 00 00 00 00 00 00 00 00
2026-03-07T13:58:43.080889,35.106,can0  041  [04]  A7 00 02 00
2026-03-07T13:58:43.081680,35.107,can0  110  [02]  DA 1E
2026-03-07T13:58:43.180915,35.206,can0  060  [32]  00 00 00 00 00 00 00 00 00 00 00 00 00 00 00 00 00 00 00 00 00 00 00 00 00 00 00 00 00 00 00 00
2026-03-07T13:58:43.181037,35.206,can0  060  [32]  00 00 00 00 A8 F8 4C 08 4F 4B B7 10 00 00 10 0E FF 01 00 00 00 00 00 00 01 00 00 00 00 00 00 00
2026-03-07T13:58:43.181482,35.207,can0  206  [24]  A7 0C 91 06 9B 0C B1 E0 1B 07 C7 0C A3 0C 00 00 00 00 00 00 00 00 00 00
2026-03-07T13:58:43.280891,35.306,can0  070  [20]  A8 F8 4C 08 FA F5 61 03 10 A4 00 00 3A 15 00 00 21 00 00 00
2026-03-07T13:58:43.380899,35.406,can0  041  [04]  97 00 05 00
2026-03-07T13:58:43.381082,35.406,can0  206  [24]  B3 0C 8D 06 A7 0C B1 E0 1B 07 C3 0C 93 0C 00 00 00 00 00 00 00 00 00 00
2026-03-07T13:58:43.580712,35.606,can0  100  [03]  B6 59 04
2026-03-07T13:58:43.581078,35.606,can0  120  [04]  00 00 00 00
2026-03-07T13:58:43.581294,35.607,can0  206  [24]  B7 0C 97 06 9F 0C 99 C6 23 07 C3 0C 97 0C 00 00 00 00 00 00 00 00 00 00
2026-03-07T13:58:43.581422,35.607,can0  041  [04]  AA 00 05 00
2026-03-07T13:58:43.680700,35.706,can0  206  [24]  A3 0C 91 06 A7 0C C5 E1 1D 07 C3 0C A3 0C 00 00 00 00 00 00 00 00 00 00
2026-03-07T13:58:43.680842,35.706,can0  070  [20]  A8 F8 4C 08 F9 F5 61 03 F8 A7 00 00 3A 15 00 00 43 00 00 00
2026-03-07T13:58:43.681024,35.706,can0  070  [20]  A8 F8 4C 08 F9 F5 61 03 F8 A7 00 00 3A 15 00 00 43 00 00 00
2026-03-07T13:58:43.681227,35.707,can0  060  [32]  00 00 00 00 00 00 00 00 00 00 00 00 00 00 00 00 00 00 00 00 00 00 00 00 00 00 00 00 00 00 00 00
2026-03-07T13:58:43.780488,35.806,can0  070  [20]  A8 F8 4C 08 F9 F5 61 03 F8 A7 00 00 3A 15 00 00 43 00 00 00
2026-03-07T13:58:43.881305,35.907,can0  206  [24]  A7 0C 8D 06 A3 0C F4 E3 18 07 C7 0C A3 0C 00 00 00 00 00 00 00 00 00 00
2026-03-07T13:58:43.886241,35.912,can0  041  [04]  AA 00 05 00
2026-03-07T13:58:44.080670,36.106,can0  132  [00]
2026-03-07T13:58:44.080890,36.106,can0  206  [24]  9F 0C 8F 06 A3 0C B1 E0 18 07 C3 0C A7 0C 00 00 00 00 00 00 00 00 00 00
2026-03-07T13:58:44.081045,36.106,can0  041  [04]  9F 00 05 00
2026-03-07T13:58:44.180735,36.206,can0  206  [24]  A3 0C 91 06 9F 0C C5 E1 1F 07 BF 0C A7 0C 00 00 00 00 00 00 00 00 00 00
2026-03-07T13:58:44.180844,36.206,can0  060  [32]  00 00 00 00 A8 F8 4C 08 4D 4B B7 10 00 00 10 0E FF 01 00 00 00 00 00 00 01 00 00 00 00 00 00 00
2026-03-07T13:58:44.380656,36.406,can0  206  [24]  A7 0C 93 06 9F 0C 57 E3 18 07 CB 0C A3 0C 00 00 00 00 00 00 00 00 00 00
2026-03-07T13:58:44.380857,36.406,can0  070  [20]  A8 F8 4C 08 F9 F5 61 03 F8 A7 00 00 3A 15 00 00 43 00 00 00
2026-03-07T13:58:44.380986,36.406,can0  041  [04]  9F 00 02 00
2026-03-07T13:58:44.529029,36.554,can0  206  [24]  AB 0C 8F 06 9F 0C 3A DF 1B 07 CB 0C 9F 0C 00 00 00 00 00 00 00 00 00 00
2026-03-07T13:58:44.529113,36.554,can0  133  [00]
2026-03-07T13:58:44.680528,36.706,can0  206  [24]  AF 0C 91 06 9B 0C B1 E0 1D 07 CB 0C 9B 0C 00 00 00 00 00 00 00 00 00 00
2026-03-07T13:58:44.680677,36.706,can0  041  [04]  8B 00 02 00
2026-03-07T13:58:44.681209,36.707,can0  100  [03]  B5 59 04
2026-03-07T13:58:44.681670,36.707,can0  110  [02]  DA 1E
2026-03-07T13:58:44.682178,36.708,can0  120  [04]  00 00 00 00
2026-03-07T13:58:44.682227,36.708,can0  060  [32]  00 00 00 00 00 00 00 00 00 00 00 00 00 00 00 00 00 00 00 00 00 00 00 00 00 00 00 00 00 00 00 00
2026-03-07T13:58:44.682340,36.708,can0  070  [20]  A8 F8 4C 08 F9 F5 61 03 E0 AB 00 00 3A 15 00 00 23 00 00 00
2026-03-07T13:58:44.780907,36.806,can0  070  [20]  A8 F8 4C 08 F9 F5 61 03 E0 AB 00 00 3A 15 00 00 24 00 00 00
2026-03-07T13:58:44.781177,36.807,can0  206  [24]  AB 0C 93 06 A3 0C C5 E1 1D 07 E3 0C 9F 0C 00 00 00 00 00 00 00 00 00 00
2026-03-07T13:58:44.880397,36.906,can0  070  [20]  A8 F8 4C 08 F9 F5 61 03 E0 AB 00 00 3A 15 00 00 24 00 00 00
2026-03-07T13:58:44.880576,36.906,can0  041  [04]  8B 00 05 00
2026-03-07T13:58:44.980553,37.006,can0  206  [24]  B7 0C 93 06 B3 0C C5 E1 1D 07 9F 0C 93 0C 00 00 00 00 00 00 00 00 00 00
2026-03-07T13:58:45.080524,37.106,can0  206  [24]  AB 0C 8F 06 A3 0C C5 E1 1D 07 BB 0C 9B 0C 00 00 00 00 00 00 00 00 00 00
2026-03-07T13:58:45.180646,37.206,can0  041  [04]  97 00 05 00
2026-03-07T13:58:45.181029,37.206,can0  060  [32]  00 00 00 00 00 00 00 00 00 00 00 00 00 00 00 00 00 00 00 00 00 00 00 00 00 00 00 00 00 00 00 00
2026-03-07T13:58:45.181076,37.206,can0  060  [32]  00 00 00 00 A8 F8 4C 08 4D 4B B7 10 00 00 10 0E FF 01 00 00 00 00 00 00 01 00 00 00 00 00 00 00
2026-03-07T13:58:45.281180,37.307,can0  206  [24]  A7 0C 91 06 A3 0C C5 E1 1B 07 BF 0C 9F 0C 00 00 00 00 00 00 00 00 00 00
2026-03-07T13:58:45.281333,37.307,can0  070  [20]  A8 F8 4C 08 F9 F5 61 03 E0 AB 00 00 3A 15 00 00 24 00 00 00
2026-03-07T13:58:45.380921,37.406,can0  070  [20]  A8 F8 4C 08 F9 F5 61 03 E0 AB 00 00 3A 15 00 00 24 00 00 00
2026-03-07T13:58:45.480704,37.506,can0  041  [04]  9A 00 07 00
2026-03-07T13:58:45.481114,37.506,can0  206  [24]  A3 0C 93 06 A3 0C C5 E1 1B 07 C7 0C A7 0C 00 00 00 00 00 00 00 00 00 00
2026-03-07T13:58:45.681223,37.707,can0  206  [24]  A3 0C 93 06 A7 0C C5 E1 1D 07 B3 0C A7 0C 00 00 00 00 00 00 00 00 00 00
2026-03-07T13:58:45.681356,37.707,can0  070  [20]  A8 F8 4C 08 F7 F5 61 03 C8 AF 00 00 3A 15 00 00 16 00 00 00
2026-03-07T13:58:45.681520,37.707,can0  070  [20]  A8 F8 4C 08 F7 F5 61 03 C8 AF 00 00 3A 15 00 00 17 00 00 00
2026-03-07T13:58:45.681657,37.707,can0  041  [04]  9F 00 05 00
2026-03-07T13:58:45.681791,37.707,can0  060  [32]  00 00 00 00 00 00 00 00 00 00 00 00 00 00 00 00 00 00 00 00 00 00 00 00 00 00 00 00 00 00 00 00
2026-03-07T13:58:45.780413,37.806,can0  070  [20]  A8 F8 4C 08 F7 F5 61 03 C8 AF 00 00 3A 15 00 00 17 00 00 00
2026-03-07T13:58:45.780652,37.806,can0  206  [24]  A7 0C 93 06 A3 0C 57 E3 1D 07 BF 0C A3 0C 00 00 00 00 00 00 00 00 00 00
2026-03-07T13:58:45.881019,37.906,can0  100  [03]  B2 59 04
2026-03-07T13:58:45.881363,37.907,can0  120  [04]  00 00 00 00
2026-03-07T13:58:45.980643,38.006,can0  206  [24]  A3 0C 91 06 A7 0C B1 E0 1D 07 BB 0C A3 0C 00 00 00 00 00 00 00 00 00 00
2026-03-07T13:58:45.980785,38.006,can0  041  [04]  97 00 05 00
2026-03-07T13:58:46.180565,38.206,can0  206  [24]  AF 0C 91 06 A7 0C C5 E1 1F 07 B7 0C 93 0C 00 00 00 00 00 00 00 00 00 00
2026-03-07T13:58:46.180703,38.206,can0  060  [32]  00 00 00 00 A8 F8 4C 08 4C 4B B7 10 00 00 10 0E FF 01 00 00 00 00 00 00 01 00 00 00 00 00 00 00
2026-03-07T13:58:46.280554,38.306,can0  041  [04]  9F 00 05 00
2026-03-07T13:58:46.280987,38.306,can0  110  [02]  D7 1E
2026-03-07T13:58:46.281226,38.307,can0  206  [24]  AB 0C 8F 06 9B 0C C5 E1 1B 07 CB 0C 9B 0C 00 00 00 00 00 00 00 00 00 00
2026-03-07T13:58:46.281389,38.307,can0  070  [20]  A8 F8 4C 08 F7 F5 61 03 C8 AF 00 00 3A 15 00 00 17 00 00 00
2026-03-07T13:58:46.281615,38.307,can0  070  [20]  A8 F8 4C 08 F7 F5 61 03 C8 AF 00 00 3A 15 00 00 17 00 00 00
2026-03-07T13:58:46.585998,38.611,can0  206  [24]  A3 0C 8F 06 A7 0C B1 E0 1D 07 B7 0C A3 0C 00 00 00 00 00 00 00 00 00 00
2026-03-07T13:58:46.586151,38.611,can0  041  [04]  AA 00 05 00
2026-03-07T13:58:46.680634,38.706,can0  206  [24]  A7 0C 95 06 A7 0C C5 E1 1F 07 B7 0C 9F 0C 00 00 00 00 00 00 00 00 00 00
2026-03-07T13:58:46.680829,38.706,can0  070  [20]  A9 F8 4C 08 F7 F5 61 03 B0 B3 00 00 3A 15 00 00 30 00 00 00
2026-03-07T13:58:46.686241,38.712,can0  070  [20]  A9 F8 4C 08 F7 F5 61 03 B0 B3 00 00 3A 15 00 00 30 00 00 00
2026-03-07T13:58:46.686310,38.712,can0  060  [32]  00 00 00 00 00 00 00 00 00 00 00 00 00 00 00 00 00 00 00 00 00 00 00 00 00 00 00 00 00 00 00 00
2026-03-07T13:58:46.780395,38.806,can0  206  [24]  AB 0C 8A 06 9F 0C B1 E0 1B 07 C3 0C 9F 0C 00 00 00 00 00 00 00 00 00 00
2026-03-07T13:58:46.780693,38.806,can0  041  [04]  B5 00 02 00
2026-03-07T13:58:46.780732,38.806,can0  070  [20]  A9 F8 4C 08 F7 F5 61 03 B0 B3 00 00 3A 15 00 00 30 00 00 00
2026-03-07T13:58:47.080729,39.106,can0  206  [24]  A7 0C 91 06 9F 0C A0 E2 1F 07 C3 0C 9F 0C 00 00 00 00 00 00 00 00 00 00
2026-03-07T13:58:47.080856,39.106,can0  041  [04]  B5 00 02 00
2026-03-07T13:58:47.081245,39.107,can0  100  [03]  B3 59 04
2026-03-07T13:58:47.081818,39.107,can0  120  [04]  00 00 00 00
2026-03-07T13:58:47.082018,39.107,can0  206  [24]  AB 0C 95 06 9B 0C B1 E0 1B 07 C3 0C 9F 0C 00 00 00 00 00 00 00 00 00 00
2026-03-07T13:58:47.181357,39.207,can0  060  [32]  00 00 00 00 00 00 00 00 00 00 00 00 00 00 00 00 00 00 00 00 00 00 00 00 00 00 00 00 00 00 00 00
2026-03-07T13:58:47.280559,39.306,can0  060  [32]  00 00 00 00 A9 F8 4C 08 4C 4B B7 10 00 00 10 0E FF 01 00 00 00 00 00 00 01 00 00 00 00 00 00 00
2026-03-07T13:58:47.281055,39.306,can0  206  [24]  B3 0C 93 06 97 0C A0 E2 1B 07 C7 0C 9B 0C 00 00 00 00 00 00 00 00 00 00
2026-03-07T13:58:47.281220,39.307,can0  070  [20]  A9 F8 4C 08 F7 F5 61 03 B0 B3 00 00 3A 15 00 00 30 00 00 00
2026-03-07T13:58:47.281350,39.307,can0  041  [04]  A7 00 02 00
2026-03-07T13:58:47.480965,39.506,can0  206  [24]  B3 0C 8F 06 9F 0C A0 E2 23 07 BF 0C 93 0C 00 00 00 00 00 00 00 00 00 00
2026-03-07T13:58:47.680762,39.706,can0  206  [24]  A7 0C 93 06 9F 0C C5 E1 1D 07 BB 0C A3 0C 00 00 00 00 00 00 00 00 00 00
2026-03-07T13:58:47.680906,39.706,can0  041  [04]  8B 00 05 00
2026-03-07T13:58:47.685700,39.711,can0  070  [20]  A9 F8 4C 08 F7 F5 61 03 98 B7 00 00 3A 15 00 00 3F 00 00 00
2026-03-07T13:58:47.685781,39.711,can0  070  [20]  A9 F8 4C 08 F7 F5 61 03 98 B7 00 00 3A 15 00 00 3E 00 00 00
2026-03-07T13:58:47.781500,39.807,can0  206  [24]  A3 0C 8F 06 A7 0C B1 E0 1B 07 C3 0C 9F 0C 00 00 00 00 00 00 00 00 00 00
2026-03-07T13:58:47.781559,39.807,can0  060  [32]  00 00 00 00 00 00 00 00 00 00 00 00 00 00 00 00 00 00 00 00 00 00 00 00 00 00 00 00 00 00 00 00
2026-03-07T13:58:47.781647,39.807,can0  070  [20]  A9 F8 4C 08 F7 F5 61 03 98 B7 00 00 3A 15 00 00 3E 00 00 00
2026-03-07T13:58:47.880671,39.906,can0  041  [04]  97 00 05 00
2026-03-07T13:58:47.881189,39.907,can0  110  [02]  D5 1E
2026-03-07T13:58:47.881457,39.907,can0  206  [24]  AF 0C 88 06 9B 0C DA DC 18 07 C3 0C 9B 0C 00 00 00 00 00 00 00 00 00 00
2026-03-07T13:58:48.180727,40.206,can0  206  [24]  AB 0C 8F 06 A7 0C A0 E2 1D 07 B3 0C 9B 0C 00 00 00 00 00 00 00 00 00 00
2026-03-07T13:58:48.180864,40.206,can0  041  [04]  A7 00 02 00
2026-03-07T13:58:48.281199,40.307,can0  206  [24]  A7 0C 8F 06 9F 0C B1 E0 1F 07 BB 0C A3 0C 00 00 00 00 00 00 00 00 00 00
2026-03-07T13:58:48.281258,40.307,can0  060  [32]  00 00 00 00 A9 F8 4C 08 4C 4B B7 10 00 00 10 0E FF 01 00 00 00 00 00 00 01 00 00 00 00 00 00 00
2026-03-07T13:58:48.281565,40.307,can0  070  [20]  A9 F8 4C 08 F7 F5 61 03 98 B7 00 00 3A 15 00 00 3E 00 00 00
2026-03-07T13:58:48.282056,40.307,can0  100  [03]  AE 59 04
2026-03-07T13:58:48.282415,40.308,can0  120  [04]  00 00 00 00
2026-03-07T13:58:48.282560,40.308,can0  070  [20]  A9 F8 4C 08 F7 F5 61 03 98 B7 00 00 3A 15 00 00 3E 00 00 00
2026-03-07T13:58:48.380658,40.406,can0  041  [04]  B5 00 02 00
2026-03-07T13:58:48.380819,40.406,can0  206  [24]  AB 0C 93 06 A3 0C C5 E1 1F 07 BF 0C 9B 0C 00 00 00 00 00 00 00 00 00 00
2026-03-07T13:58:48.580551,40.606,can0  206  [24]  AB 0C 8D 06 97 0C B1 E0 1B 07 C3 0C A3 0C 00 00 00 00 00 00 00 00 00 00
2026-03-07T13:58:48.681155,40.707,can0  041  [04]  8B 00 02 00
2026-03-07T13:58:48.681278,40.707,can0  070  [20]  A9 F8 4C 08 F5 F5 61 03 80 BB 00 00 3A 15 00 00 5E 00 00 00
2026-03-07T13:58:48.681450,40.707,can0  070  [20]  A9 F8 4C 08 F5 F5 61 03 80 BB 00 00 3A 15 00 00 5F 00 00 00
2026-03-07T13:58:48.681699,40.707,can0  206  [24]  9F 0C 8F 06 A3 0C C5 E1 21 07 CB 0C A3 0C 00 00 00 00 00 00 00 00 00 00
2026-03-07T13:58:48.785760,40.811,can0  060  [32]  00 00 00 00 00 00 00 00 00 00 00 00 00 00 00 00 00 00 00 00 00 00 00 00 00 00 00 00 00 00 00 00
2026-03-07T13:58:48.881235,40.907,can0  070  [20]  A9 F8 4C 08 F5 F5 61 03 80 BB 00 00 3A 15 00 00 5F 00 00 00
2026-03-07T13:58:48.881509,40.907,can0  206  [24]  AF 0C 91 06 A3 0C C5 E1 1B 07 BB 0C 9B 0C 00 00 00 00 00 00 00 00 00 00
2026-03-07T13:58:48.881660,40.907,can0  041  [04]  9F 00 02 00
2026-03-07T13:58:49.080785,41.106,can0  206  [24]  AB 0C 91 06 9F 0C B1 E0 1F 07 BF 0C 9B 0C 00 00 00 00 00 00 00 00 00 00
2026-03-07T13:58:49.181007,41.206,can0  041  [04]  A7 00 02 00
2026-03-07T13:58:49.280591,41.306,can0  206  [24]  AF 0C 86 06 97 0C 57 E3 1B 07 C7 0C 9F 0C 00 00 00 00 00 00 00 00 00 00
2026-03-07T13:58:49.280765,41.306,can0  060  [32]  00 00 00 00 00 00 00 00 00 00 00 00 00 00 00 00 00 00 00 00 00 00 00 00 00 00 00 00 00 00 00 00
2026-03-07T13:58:49.280887,41.306,can0  060  [32]  00 00 00 00 A9 F8 4C 08 4A 4B B7 10 00 00 10 0E FF 01 00 00 00 00 00 00 01 00 00 00 00 00 00 00
2026-03-07T13:58:49.281204,41.307,can0  070  [20]  A9 F8 4C 08 F5 F5 61 03 80 BB 00 00 3A 15 00 00 5F 00 00 00
2026-03-07T13:58:49.381294,41.407,can0  206  [24]  A3 0C 91 06 A7 0C 3A DF 1F 07 C3 0C 9F 0C 00 00 00 00 00 00 00 00 00 00
2026-03-07T13:58:49.480777,41.506,can0  041  [04]  B5 00 02 00
2026-03-07T13:58:49.481248,41.507,can0  100  [03]  AC 59 04
2026-03-07T13:58:49.481611,41.507,can0  110  [02]  D5 1E
2026-03-07T13:58:49.481930,41.507,can0  120  [04]  00 00 00 00
2026-03-07T13:58:49.580841,41.606,can0  206  [24]  A7 0C 95 06 9B 0C B1 E0 23 07 C3 0C 9F 0C 00 00 00 00 00 00 00 00 00 00
2026-03-07T13:58:49.680581,41.706,can0  070  [20]  A9 F8 4C 08 F5 F5 61 03 68 BF 00 00 3A 15 00 00 43 00 00 00
2026-03-07T13:58:49.680776,41.706,can0  041  [04]  B5 00 02 00
2026-03-07T13:58:49.685289,41.711,can0  206  [24]  A7 0C 93 06 A3 0C B1 E0 18 07 BF 0C 9F 0C 00 00 00 00 00 00 00 00 00 00
2026-03-07T13:58:49.685356,41.711,can0  070  [20]  A9 F8 4C 08 F5 F5 61 03 68 BF 00 00 3A 15 00 00 42 00 00 00
2026-03-07T13:58:49.781110,41.806,can0  060  [32]  00 00 00 00 00 00 00 00 00 00 00 00 00 00 00 00 00 00 00 00 00 00 00 00 00 00 00 00 00 00 00 00
2026-03-07T13:58:49.880439,41.906,can0  070  [20]  A9 F8 4C 08 F5 F5 61 03 68 BF 00 00 3A 15 00 00 42 00 00 00
2026-03-07T13:58:49.880703,41.906,can0  206  [24]  9B 0C 91 06 A7 0C A0 E2 1B 07 BF 0C A7 0C 00 00 00 00 00 00 00 00 00 00
2026-03-07T13:58:49.980539,42.006,can0  041  [04]  B5 00 02 00
2026-03-07T13:58:50.080424,42.106,can0  206  [24]  A3 0C 8F 06 9F 0C DA DC 21 07 C3 0C A7 0C 00 00 00 00 00 00 00 00 00 00
2026-03-07T13:58:50.180758,42.206,can0  206  [24]  A7 0C 91 06 9B 0C A0 E2 1D 07 BF 0C A7 0C 00 00 00 00 00 00 00 00 00 00
2026-03-07T13:58:50.281099,42.306,can0  041  [04]  B5 00 02 00
2026-03-07T13:58:50.281220,42.307,can0  060  [32]  00 00 00 00 A9 F8 4C 08 4A 4B B7 10 00 00 10 0E FF 01 00 00 00 00 00 00 01 00 00 00 00 00 00 00
2026-03-07T13:58:50.381000,42.406,can0  070  [20]  A9 F8 4C 08 F5 F5 61 03 68 BF 00 00 3A 15 00 00 42 00 00 00
2026-03-07T13:58:50.381280,42.407,can0  206  [24]  A3 0C 8D 06 A3 0C B1 E0 1B 07 C3 0C 9F 0C 00 00 00 00 00 00 00 00 00 00
2026-03-07T13:58:50.381461,42.407,can0  070  [20]  A9 F8 4C 08 F5 F5 61 03 68 BF 00 00 3A 15 00 00 42 00 00 00
2026-03-07T13:58:50.480954,42.506,can0  041  [04]  9F 00 02 00
2026-03-07T13:58:50.580714,42.606,can0  206  [24]  AF 0C 91 06 9F 0C C5 E1 1B 07 B3 0C 9B 0C 00 00 00 00 00 00 00 00 00 00
2026-03-07T13:58:50.781830,42.807,can0  206  [24]  A3 0C 8F 06 A7 0C A0 E2 18 07 B7 0C A3 0C 00 00 00 00 00 00 00 00 00 00
2026-03-07T13:58:50.781889,42.807,can0  100  [03]  AD 59 04
2026-03-07T13:58:50.782221,42.808,can0  120  [04]  00 00 00 00
2026-03-07T13:58:50.782385,42.808,can0  070  [20]  AB F8 4C 08 F5 F5 61 03 50 C3 00 00 3A 15 00 00 64 00 00 00
2026-03-07T13:58:50.782520,42.808,can0  070  [20]  AB F8 4C 08 F5 F5 61 03 50 C3 00 00 3A 15 00 00 64 00 00 00
2026-03-07T13:58:50.782659,42.808,can0  041  [04]  8B 00 02 00
2026-03-07T13:58:50.782893,42.808,can0  060  [32]  00 00 00 00 00 00 00 00 00 00 00 00 00 00 00 00 00 00 00 00 00 00 00 00 00 00 00 00 00 00 00 00
2026-03-07T13:58:50.783049,42.808,can0  070  [20]  AB F8 4C 08 F5 F5 61 03 50 C3 00 00 3A 15 00 00 64 00 00 00
2026-03-07T13:58:50.881530,42.907,can0  206  [24]  A7 0C 91 06 A7 0C B1 E0 1D 07 C3 0C 9F 0C 00 00 00 00 00 00 00 00 00 00
2026-03-07T13:58:51.080823,43.106,can0  206  [24]  9F 0C 91 06 9B 0C C5 E1 1D 07 C3 0C AB 0C 00 00 00 00 00 00 00 00 00 00
2026-03-07T13:58:51.080980,43.106,can0  041  [04]  7A 00 00 00
2026-03-07T13:58:51.081561,43.107,can0  110  [02]  D5 1E
2026-03-07T13:58:51.180768,43.206,can0  206  [24]  AB 0C 8D 06 9B 0C 99 C6 1D 07 BF 0C A3 0C 00 00 00 00 00 00 00 00 00 00
2026-03-07T13:58:51.280817,43.306,can0  060  [32]  00 00 00 00 00 00 00 00 00 00 00 00 00 00 00 00 00 00 00 00 00 00 00 00 00 00 00 00 00 00 00 00
2026-03-07T13:58:51.280945,43.306,can0  060  [32]  00 00 00 00 AB F8 4C 08 4A 4B B7 10 00 00 10 0E FF 01 00 00 00 00 00 00 01 00 00 00 00 00 00 00
2026-03-07T13:58:51.281278,43.307,can0  070  [20]  AB F8 4C 08 F5 F5 61 03 50 C3 00 00 3A 15 00 00 64 00 00 00
2026-03-07T13:58:51.281441,43.307,can0  041  [04]  8B 00 00 00
2026-03-07T13:58:51.281589,43.307,can0  070  [20]  AB F8 4C 08 F5 F5 61 03 50 C3 00 00 3A 15 00 00 64 00 00 00
2026-03-07T13:58:51.381151,43.406,can0  206  [24]  A7 0C 91 06 A3 0C DA DC 1F 07 AB 0C 9F 0C 00 00 00 00 00 00 00 00 00 00
2026-03-07T13:58:51.481208,43.507,can0  206  [24]  A7 0C 8F 06 A7 0C 99 C6 1D 07 C3 0C 9B 0C 00 00 00 00 00 00 00 00 00 00
2026-03-07T13:58:51.581353,43.607,can0  041  [04]  8B 00 00 00
2026-03-07T13:58:51.680885,43.706,can0  206  [24]  AB 0C 91 06 9F 0C A0 E2 1B 07 D7 0C 9F 0C 00 00 00 00 00 00 00 00 00 00
2026-03-07T13:58:51.681185,43.707,can0  070  [20]  AB F8 4C 08 F4 F5 61 03 38 C7 00 00 3A 15 00 00 46 00 00 00
2026-03-07T13:58:51.681363,43.707,can0  070  [20]  AB F8 4C 08 F4 F5 61 03 38 C7 00 00 3A 15 00 00 47 00 00 00
2026-03-07T13:58:51.780495,43.806,can0  070  [20]  AB F8 4C 08 F4 F5 61 03 38 C7 00 00 3A 15 00 00 47 00 00 00
2026-03-07T13:58:51.780721,43.806,can0  206  [24]  AB 0C 8F 06 A3 0C C5 E1 1B 07 C7 0C 9B 0C 00 00 00 00 00 00 00 00 00 00
2026-03-07T13:58:51.780882,43.806,can0  060  [32]  00 00 00 00 00 00 00 00 00 00 00 00 00 00 00 00 00 00 00 00 00 00 00 00 00 00 00 00 00 00 00 00
2026-03-07T13:58:51.880891,43.906,can0  041  [04]  2F 00 00 00
2026-03-07T13:58:51.881743,43.907,can0  100  [03]  AB 59 04
2026-03-07T13:58:51.884639,43.910,can0  120  [04]  00 00 00 00
2026-03-07T13:58:51.981111,44.006,can0  206  [24]  AB 0C 91 06 A7 0C C5 E1 1D 07 BF 0C 9B 0C 00 00 00 00 00 00 00 00 00 00
2026-03-07T13:58:52.180730,44.206,can0  041  [04]  5E 00 00 00
2026-03-07T13:58:52.180933,44.206,can0  206  [24]  AF 0C 91 06 AF 0C C5 E1 1F 07 B7 0C 93 0C 00 00 00 00 00 00 00 00 00 00
2026-03-07T13:58:52.281032,44.306,can0  070  [20]  AB F8 4C 08 F4 F5 61 03 38 C7 00 00 3A 15 00 00 47 00 00 00
2026-03-07T13:58:52.281249,44.307,can0  206  [24]  A7 0C 95 06 97 0C B1 E0 18 07 C7 0C A3 0C 00 00 00 00 00 00 00 00 00 00
2026-03-07T13:58:52.281389,44.307,can0  060  [32]  00 00 00 00 AB F8 4C 08 48 4B B7 10 00 00 10 0E FF 01 00 00 00 00 00 00 01 00 00 00 00 00 00 00
2026-03-07T13:58:52.281779,44.307,can0  070  [20]  AB F8 4C 08 F4 F5 61 03 38 C7 00 00 3A 15 00 00 47 00 00 00
2026-03-07T13:58:52.384579,44.410,can0  041  [04]  5E 00 00 00
2026-03-07T13:58:52.481344,44.507,can0  206  [24]  A7 0C 8F 06 9B 0C B1 E0 1B 07 C7 0C A3 0C 00 00 00 00 00 00 00 00 00 00
2026-03-07T13:58:52.681399,44.707,can0  206  [24]  9F 0C 93 06 A3 0C C5 E1 1D 07 BF 0C A7 0C 00 00 00 00 00 00 00 00 00 00
2026-03-07T13:58:52.681566,44.707,can0  041  [04]  7A 00 02 00
2026-03-07T13:58:52.681707,44.707,can0  070  [20]  AB F8 4C 08 F4 F5 61 03 20 CB 00 00 3A 15 00 00 4C 00 00 00
2026-03-07T13:58:52.682528,44.708,can0  110  [02]  D4 1E
2026-03-07T13:58:52.682822,44.708,can0  070  [20]  AB F8 4C 08 F4 F5 61 03 20 CB 00 00 3A 15 00 00 4D 00 00 00
2026-03-07T13:58:52.781286,44.807,can0  070  [20]  AB F8 4C 08 F4 F5 61 03 20 CB 00 00 3A 15 00 00 4D 00 00 00
2026-03-07T13:58:52.781528,44.807,can0  206  [24]  A3 0C 8F 06 9F 0C C5 E1 1B 07 C7 0C A7 0C 00 00 00 00 00 00 00 00 00 00
2026-03-07T13:58:52.781728,44.807,can0  060  [32]  00 00 00 00 00 00 00 00 00 00 00 00 00 00 00 00 00 00 00 00 00 00 00 00 00 00 00 00 00 00 00 00
2026-03-07T13:58:52.881130,44.906,can0  041  [04]  8B 00 00 00
2026-03-07T13:58:52.981143,45.006,can0  206  [24]  A3 0C 8F 06 A7 0C 3A DF 23 07 BB 0C A3 0C 00 00 00 00 00 00 00 00 00 00
2026-03-07T13:58:53.181688,45.207,can0  100  [03]  A9 59 04
2026-03-07T13:58:53.182089,45.207,can0  120  [04]  00 00 00 00
2026-03-07T13:58:53.182312,45.208,can0  206  [24]  A7 0C 88 06 9B 0C C5 E1 1B 07 C3 0C A3 0C 00 00 00 00 00 00 00 00 00 00
2026-03-07T13:58:53.182473,45.208,can0  041  [04]  9F 00 02 00
2026-03-07T13:58:53.281246,45.307,can0  206  [24]  AB 0C 93 06 9F 0C A0 E2 1B 07 BF 0C 9F 0C 00 00 00 00 00 00 00 00 00 00
2026-03-07T13:58:53.281576,45.307,can0  070  [20]  AB F8 4C 08 F4 F5 61 03 20 CB 00 00 3A 15 00 00 4D 00 00 00
2026-03-07T13:58:53.281629,45.307,can0  060  [32]  00 00 00 00 00 00 00 00 00 00 00 00 00 00 00 00 00 00 00 00 00 00 00 00 00 00 00 00 00 00 00 00
2026-03-07T13:58:53.281706,45.307,can0  060  [32]  00 00 00 00 AB F8 4C 08 48 4B B7 10 00 00 10 0E FF 01 00 00 00 00 00 00 01 00 00 00 00 00 00 00
2026-03-07T13:58:53.380565,45.406,can0  070  [20]  AB F8 4C 08 F4 F5 61 03 20 CB 00 00 3A 15 00 00 4D 00 00 00
2026-03-07T13:58:53.380740,45.406,can0  206  [24]  A7 0C 93 06 9B 0C 3A DF 1D 07 C7 0C A3 0C 00 00 00 00 00 00 00 00 00 00
2026-03-07T13:58:53.380848,45.406,can0  041  [04]  8B 00 02 00
2026-03-07T13:58:53.581321,45.607,can0  206  [24]  A3 0C 91 06 A3 0C B1 E0 1D 07 D3 0C A3 0C 00 00 00 00 00 00 00 00 00 00
2026-03-07T13:58:53.680465,45.706,can0  070  [20]  AB F8 4C 08 F4 F5 61 03 08 CF 00 00 3A 15 00 00 43 00 00 00
2026-03-07T13:58:53.680658,45.706,can0  070  [20]  AB F8 4C 08 F4 F5 61 03 08 CF 00 00 3A 15 00 00 42 00 00 00
2026-03-07T13:58:53.680871,45.706,can0  041  [04]  7A 00 00 00
2026-03-07T13:58:53.781101,45.806,can0  206  [24]  A7 0C 8F 06 9F 0C B1 E0 1B 07 C3 0C A3 0C 00 00 00 00 00 00 00 00 00 00
2026-03-07T13:58:53.781275,45.807,can0  070  [20]  AB F8 4C 08 F4 F5 61 03 08 CF 00 00 3A 15 00 00 42 00 00 00
2026-03-07T13:58:53.781412,45.807,can0  060  [32]  00 00 00 00 00 00 00 00 00 00 00 00 00 00 00 00 00 00 00 00 00 00 00 00 00 00 00 00 00 00 00 00
2026-03-07T13:58:53.804682,45.830,can0   002  [04]  0d 85 30 10 0
2026-03-07T13:58:53.880882,45.906,can0  132  [00]
2026-03-07T13:58:53.881235,45.907,can0  002  [04]  D8 53 01 00
2026-03-07T13:58:53.881278,45.907,can0  206  [24]  9F 0C 91 06 A7 0C B1 E0 1D 07 BF 0C A3 0C 00 00 00 00 00 00 00 00 00 00
2026-03-07T13:58:53.980673,46.006,can0  041  [04]  8B 00 00 00
2026-03-07T13:58:54.014324,46.040,can0   002  [04]  02 04 80 10 0
2026-03-07T13:58:54.081384,46.107,can0  206  [24]  8B 0C 91 06 A3 0C A0 E2 1B 07 C7 0C BB 0C 00 00 00 00 00 00 00 00 00 00
2026-03-07T13:58:54.081541,46.107,can0  002  [04]  20 48 01 00
2026-03-07T13:58:54.149160,46.175,can0   002  [04]  06 83 c0 10 0
2026-03-07T13:58:54.181283,46.207,can0  041  [04]  8B 00 00 00
2026-03-07T13:58:54.181387,46.207,can0  002  [04]  68 3C 01 00
2026-03-07T13:58:54.281387,46.307,can0  206  [24]  A3 0C 91 06 A3 0C C5 E1 1B 07 CB 0C A7 0C 00 00 00 00 00 00 00 00 00 00
2026-03-07T13:58:54.281626,46.307,can0  070  [20]  AB F8 4C 08 F4 F5 61 03 08 CF 00 00 3A 15 00 00 42 00 00 00
2026-03-07T13:58:54.282083,46.307,can0  100  [03]  A9 59 04
2026-03-07T13:58:54.282560,46.308,can0  110  [02]  D2 1E
2026-03-07T13:58:54.282877,46.308,can0  120  [04]  00 00 00 00
2026-03-07T13:58:54.283110,46.308,can0  070  [20]  AB F8 4C 08 F4 F5 61 03 08 CF 00 00 3A 15 00 00 42 00 00 00
2026-03-07T13:58:54.283222,46.309,can0  060  [32]  00 00 00 00 AB F8 4C 08 48 4B B7 10 00 00 10 0E FF 01 00 00 00 00 00 00 01 00 00 00 00 00 00 00
2026-03-07T13:58:54.293199,46.319,can0   002  [04]  0b 03 00 10 0
2026-03-07T13:58:54.380387,46.406,can0  002  [04]  B0 30 01 00
2026-03-07T13:58:54.380652,46.406,can0  206  [24]  9F 0C 91 06 AB 0C B1 E0 1D 07 B3 0C A3 0C 00 00 00 00 00 00 00 00 00 00
2026-03-07T13:58:54.455044,46.480,can0   002  [04]  0f 82 40 10 0
2026-03-07T13:58:54.480890,46.506,can0  133  [00]
2026-03-07T13:58:54.481077,46.506,can0  041  [04]  7A 00 02 00
2026-03-07T13:58:54.581214,46.607,can0  002  [04]  F8 24 01 00
2026-03-07T13:58:54.585917,46.611,can0  206  [24]  B3 0C 93 06 9F 0C DA DC 1B 07 BB 0C 97 0C 00 00 00 00 00 00 00 00 00 00
2026-03-07T13:58:54.661805,46.687,can0   002  [04]  04 01 90 10 0
2026-03-07T13:58:54.680971,46.706,can0  070  [20]  AD F8 4C 08 F4 F5 61 03 F0 D2 00 00 3A 15 00 00 82 00 00 00
2026-03-07T13:58:54.681144,46.706,can0  070  [20]  AD F8 4C 08 F4 F5 61 03 F0 D2 00 00 3A 15 00 00 81 00 00 00
2026-03-07T13:58:54.681367,46.707,can0  206  [24]  AB 0C 91 06 A7 0C C5 E1 1D 07 B3 0C A3 0C 00 00 00 00 00 00 00 00 00 00
2026-03-07T13:58:54.780532,46.806,can0  002  [04]  40 19 01 00
2026-03-07T13:58:54.780715,46.806,can0  041  [04]  8B 00 00 00
2026-03-07T13:58:54.780866,46.806,can0  070  [20]  AD F8 4C 08 F4 F5 61 03 F0 D2 00 00 3A 15 00 00 81 00 00 00
2026-03-07T13:58:54.781032,46.806,can0  060  [32]  00 00 00 00 00 00 00 00 00 00 00 00 00 00 00 00 00 00 00 00 00 00 00 00 00 00 00 00 00 00 00 00
2026-03-07T13:58:54.793717,46.819,can0   002  [04]  08 80 d0 10 0
2026-03-07T13:58:54.880487,46.906,can0  002  [04]  88 0D 01 00
2026-03-07T13:58:54.880932,46.906,can0  206  [24]  AB 0C 91 06 9B 0C C5 E1 1B 07 C3 0C 9F 0C 00 00 00 00 00 00 00 00 00 00
2026-03-07T13:58:54.980981,47.006,can0  041  [04]  9F 00 02 00
2026-03-07T13:58:55.080735,47.106,can0  206  [24]  AB 0C 91 06 9F 0C A0 E2 1D 07 C3 0C 9F 0C 00 00 00 00 00 00 00 00 00 00
2026-03-07T13:58:55.201336,47.227,can0   002  [04]  0d 00 10 10 0
2026-03-07T13:58:55.281186,47.307,can0  206  [24]  A3 0C 93 06 93 0C 3A DF 1D 07 D3 0C A7 0C 00 00 00 00 00 00 00 00 00 00
2026-03-07T13:58:55.281337,47.307,can0  002  [04]  D0 01 01 00
2026-03-07T13:58:55.281513,47.307,can0  041  [04]  9F 00 02 00
2026-03-07T13:58:55.281693,47.307,can0  070  [20]  AD F8 4C 08 F4 F5 61 03 F0 D2 00 00 3A 15 00 00 81 00 00 00
2026-03-07T13:58:55.281829,47.307,can0  060  [32]  00 00 00 00 00 00 00 00 00 00 00 00 00 00 00 00 00 00 00 00 00 00 00 00 00 00 00 00 00 00 00 00
2026-03-07T13:58:55.382487,47.408,can0  060  [32]  00 00 00 00 AD F8 4C 08 48 4B B7 10 00 00 10 0E FF 01 00 00 00 00 00 00 01 00 00 00 00 00 00 00
2026-03-07T13:58:55.382892,47.408,can0  070  [20]  AD F8 4C 08 F4 F5 61 03 F0 D2 00 00 3A 15 00 00 81 00 00 00
2026-03-07T13:58:55.383133,47.408,can0  206  [24]  AF 0C 8F 06 A3 0C C5 E1 1B 07 BB 0C 97 0C 00 00 00 00 00 00 00 00 00 00
2026-03-07T13:58:55.443746,47.469,can0   002  [04]  01 8f 60 00 0
2026-03-07T13:58:55.480844,47.506,can0  100  [03]  A8 59 04
2026-03-07T13:58:55.481244,47.507,can0  120  [04]  00 00 00 00
2026-03-07T13:58:55.481351,47.507,can0  002  [04]  18 F6 00 00
2026-03-07T13:58:55.481656,47.507,can0  206  [24]  A7 0C 93 06 AB 0C 3A DF 1F 07 B7 0C 9F 0C 00 00 00 00 00 00 00 00 00 00
2026-03-07T13:58:55.572556,47.598,can0   002  [04]  06 0e a0 00 0
2026-03-07T13:58:55.580817,47.606,can0  041  [04]  9F 00 02 00
2026-03-07T13:58:55.680859,47.706,can0  002  [04]  60 EA 00 00
2026-03-07T13:58:55.681036,47.706,can0  070  [20]  AD F8 4C 08 F2 F5 61 03 D8 D6 00 00 3A 15 00 00 34 00 00 00
2026-03-07T13:58:55.681275,47.707,can0  206  [24]  AB 0C 8F 06 9F 0C C5 E1 1F 07 B7 0C A3 0C 00 00 00 00 00 00 00 00 00 00
2026-03-07T13:58:55.684988,47.710,can0  070  [20]  AD F8 4C 08 F2 F5 61 03 D8 D6 00 00 3A 15 00 00 34 00 00 00
2026-03-07T13:58:55.711558,47.737,can0   002  [04]  0a 8d e0 00 0
2026-03-07T13:58:55.780647,47.806,can0  070  [20]  AD F8 4C 08 F2 F5 61 03 D8 D6 00 00 3A 15 00 00 34 00 00 00
2026-03-07T13:58:55.780767,47.806,can0  002  [04]  A8 DE 00 00
2026-03-07T13:58:55.859885,47.885,can0   002  [04]  0f 0d 20 00 0
2026-03-07T13:58:55.880429,47.906,can0  041  [04]  B5 00 00 00
2026-03-07T13:58:55.880603,47.906,can0  060  [32]  00 00 00 00 00 00 00 00 00 00 00 00 00 00 00 00 00 00 00 00 00 00 00 00 00 00 00 00 00 00 00 00
2026-03-07T13:58:55.880804,47.906,can0  206  [24]  AB 0C 95 06 AF 0C A0 E2 1B 07 AF 0C 9B 0C 00 00 00 00 00 00 00 00 00 00
2026-03-07T13:58:55.881233,47.907,can0  110  [02]  D2 1E
2026-03-07T13:58:55.980913,48.006,can0  002  [04]  F0 D2 00 00
2026-03-07T13:58:55.981224,48.007,can0  206  [24]  A3 0C 91 06 A3 0C DA DC 1B 07 C3 0C A7 0C 00 00 00 00 00 00 00 00 00 00
2026-03-07T13:58:56.050320,48.076,can0   002  [04]  03 8c 70 00 0
2026-03-07T13:58:56.080724,48.106,can0  041  [04]  8B 00 02 00
2026-03-07T13:58:56.080851,48.106,can0  002  [04]  38 C7 00 00
2026-03-07T13:58:56.180915,48.206,can0  206  [24]  A7 0C 93 06 A3 0C C5 E1 1B 07 C7 0C A3 0C 00 00 00 00 00 00 00 00 00 00
2026-03-07T13:58:56.281172,48.307,can0  070  [20]  AD F8 4C 08 F2 F5 61 03 D8 D6 00 00 3A 15 00 00 34 00 00 00
2026-03-07T13:58:56.281312,48.307,can0  070  [20]  AD F8 4C 08 F2 F5 61 03 D8 D6 00 00 3A 15 00 00 34 00 00 00
2026-03-07T13:58:56.281587,48.307,can0  206  [24]  8B 0C 91 06 BB 0C B1 E0 21 07 BF 0C A7 0C 00 00 00 00 00 00 00 00 00 00
2026-03-07T13:58:56.380918,48.406,can0  060  [32]  00 00 00 00 AD F8 4C 08 47 4B B7 10 00 00 10 0E FF 01 00 00 00 00 00 00 01 00 00 00 00 00 00 00
2026-03-07T13:58:56.384618,48.410,can0  041  [04]  7A 00 02 00
2026-03-07T13:58:56.450786,48.476,can0   002  [04]  0f 0d 20 00 0
2026-03-07T13:58:56.481141,48.506,can0  206  [24]  B7 0C 93 06 93 0C C5 E1 18 07 C3 0C 9F 0C 00 00 00 00 00 00 00 00 00 00
2026-03-07T13:58:56.481257,48.507,can0  002  [04]  F0 D2 00 00
2026-03-07T13:58:56.580455,48.606,can0  041  [04]  8B 00 02 00
2026-03-07T13:58:56.608204,48.634,can0   002  [04]  0a 8d e0 00 0
2026-03-07T13:58:56.680835,48.706,can0  206  [24]  9B 0C 8D 06 A3 0C C5 E1 18 07 C7 0C AB 0C 00 00 00 00 00 00 00 00 00 00
2026-03-07T13:58:56.680993,48.706,can0  070  [20]  AD F8 4C 08 F2 F5 61 03 C0 DA 00 00 3A 15 00 00 09 00 00 00
2026-03-07T13:58:56.681547,48.707,can0  100  [03]  A9 59 04
2026-03-07T13:58:56.681922,48.707,can0  120  [04]  00 00 00 00
2026-03-07T13:58:56.682033,48.707,can0  002  [04]  A8 DE 00 00
2026-03-07T13:58:56.682180,48.708,can0  070  [20]  AD F8 4C 08 F2 F5 61 03 C0 DA 00 00 3A 15 00 00 08 00 00 00
2026-03-07T13:58:56.757766,48.783,can0   002  [04]  06 0e a0 00 0
2026-03-07T13:58:56.780604,48.806,can0  070  [20]  AD F8 4C 08 F2 F5 61 03 C0 DA 00 00 3A 15 00 00 08 00 00 00
2026-03-07T13:58:56.780821,48.806,can0  206  [24]  A3 0C 91 06 9B 0C C5 E1 1D 07 C3 0C A7 0C 00 00 00 00 00 00 00 00 00 00
2026-03-07T13:58:56.880516,48.906,can0  002  [04]  60 EA 00 00
2026-03-07T13:58:56.880862,48.906,can0  060  [32]  00 00 00 00 00 00 00 00 00 00 00 00 00 00 00 00 00 00 00 00 00 00 00 00 00 00 00 00 00 00 00 00
2026-03-07T13:58:56.880907,48.906,can0  041  [04]  B5 00 02 00
2026-03-07T13:58:56.908743,48.934,can0   002  [04]  01 8f 60 00 0
2026-03-07T13:58:56.980534,49.006,can0  002  [04]  18 F6 00 00
2026-03-07T13:58:56.980788,49.006,can0  206  [24]  AB 0C 8F 06 A3 0C DA DC 1D 07 BF 0C 9B 0C 00 00 00 00 00 00 00 00 00 00
2026-03-07T13:58:57.106916,49.132,can0   002  [04]  0d 00 10 10 0
2026-03-07T13:58:57.181136,49.206,can0  041  [04]  B5 00 02 00
2026-03-07T13:58:57.181387,49.207,can0  206  [24]  A3 0C 93 06 A3 0C B1 E0 1F 07 CB 0C 9B 0C 00 00 00 00 00 00 00 00 00 00
2026-03-07T13:58:57.181521,49.207,can0  002  [04]  D0 01 01 00
2026-03-07T13:58:57.255393,49.281,can0   002  [04]  08 80 d0 10 0
2026-03-07T13:58:57.280542,49.306,can0  070  [20]  AD F8 4C 08 F2 F5 61 03 C0 DA 00 00 3A 15 00 00 08 00 00 00
2026-03-07T13:58:57.280900,49.306,can0  070  [20]  AD F8 4C 08 F2 F5 61 03 C0 DA 00 00 3A 15 00 00 08 00 00 00
2026-03-07T13:58:57.280953,49.306,can0  206  [24]  AF 0C 91 06 A3 0C B1 E0 1D 07 C3 0C 97 0C 00 00 00 00 00 00 00 00 00 00
2026-03-07T13:58:57.381234,49.407,can0  002  [04]  88 0D 01 00
2026-03-07T13:58:57.381389,49.407,can0  060  [32]  00 00 00 00 00 00 00 00 00 00 00 00 00 00 00 00 00 00 00 00 00 00 00 00 00 00 00 00 00 00 00 00
2026-03-07T13:58:57.381502,49.407,can0  060  [32]  00 00 00 00 AD F8 4C 08 47 4B B7 10 00 00 10 0E FF 01 00 00 00 00 00 00 01 00 00 00 00 00 00 00
2026-03-07T13:58:57.381821,49.407,can0  041  [04]  B5 00 02 00
2026-03-07T13:58:57.410808,49.436,can0   002  [04]  04 01 90 10 0
2026-03-07T13:58:57.481668,49.507,can0  110  [02]  D0 1E
2026-03-07T13:58:57.481847,49.507,can0  002  [04]  40 19 01 00
2026-03-07T13:58:57.482102,49.507,can0  206  [24]  A7 0C 77 06 A3 0C B1 E0 1D 07 BF 0C A3 0C 00 00 00 00 00 00 00 00 00 00
2026-03-07T13:58:57.562146,49.587,can0   002  [04]  0f 82 40 10 0
2026-03-07T13:58:57.681268,49.707,can0  002  [04]  F8 24 01 00
2026-03-07T13:58:57.681583,49.707,can0  206  [24]  9F 0C 91 06 9F 0C C5 E1 18 07 C3 0C AB 0C 00 00 00 00 00 00 00 00 00 00
2026-03-07T13:58:57.681750,49.707,can0  070  [20]  AD F8 4C 08 F0 F5 61 03 A8 DE 00 00 3A 15 00 00 6F 00 00 00
2026-03-07T13:58:57.681903,49.707,can0  070  [20]  AD F8 4C 08 F0 F5 61 03 A8 DE 00 00 3A 15 00 00 6F 00 00 00
2026-03-07T13:58:57.682062,49.707,can0  041  [04]  B5 00 02 00
2026-03-07T13:58:57.715869,49.741,can0   002  [04]  0b 03 00 10 0
2026-03-07T13:58:57.780776,49.806,can0  070  [20]  AD F8 4C 08 F0 F5 61 03 A8 DE 00 00 3A 15 00 00 6F 00 00 00
2026-03-07T13:58:57.780911,49.806,can0  002  [04]  B0 30 01 00
2026-03-07T13:58:57.781153,49.806,can0  206  [24]  97 0C 93 06 A3 0C C5 E1 1D 07 CB 0C AB 0C 00 00 00 00 00 00 00 00 00 00
2026-03-07T13:58:57.853713,49.879,can0   002  [04]  06 83 c0 10 0
2026-03-07T13:58:57.880353,49.906,can0  060  [32]  00 00 00 00 00 00 00 00 00 00 00 00 00 00 00 00 00 00 00 00 00 00 00 00 00 00 00 00 00 00 00 00
2026-03-07T13:58:57.880818,49.906,can0  100  [03]  A9 59 04
2026-03-07T13:58:57.881181,49.907,can0  120  [04]  00 00 00 00
2026-03-07T13:58:57.881316,49.907,can0  002  [04]  68 3C 01 00
2026-03-07T13:58:57.980772,50.006,can0  041  [04]  B5 00 00 00
2026-03-07T13:58:57.981006,50.006,can0  206  [24]  AB 0C 8F 06 A3 0C B1 E0 1D 07 B7 0C 9B 0C 00 00 00 00 00 00 00 00 00 00
2026-03-07T13:58:57.999091,50.024,can0   002  [04]  02 04 80 10 0
2026-03-07T13:58:58.080708,50.106,can0  002  [04]  20 48 01 00
2026-03-07T13:58:58.080959,50.106,can0  206  [24]  AB 0C 8D 06 A3 0C B1 E0 1F 07 B7 0C 9B 0C 00 00 00 00 00 00 00 00 00 00
2026-03-07T13:58:58.156804,50.182,can0   002  [04]  0d 85 30 10 0
