Timestamp,Elapsed_Time_s,CAN_Message
2026-07-11T17:32:44.189867,4.865,can0  204  [16]  28 58 1C D2 24 99 E9 71 28 23 30 75 30 75 00 00
2026-07-11T17:32:44.190111,4.866,can0  040  [04]  2A 01 0A 00
2026-07-11T17:32:44.190595,4.866,can0  204  [16]  28 58 1C D2 24 99 E9 71 28 23 30 75 30 75 00 00
2026-07-11T17:32:44.190644,4.866,can0  040  [04]  2A 01 0A 00
2026-07-11T17:32:44.289963,4.965,can0  204  [16]  28 58 1C D2 24 99 E9 71 28 23 30 75 30 75 00 00
2026-07-11T17:32:44.291031,4.967,can0  206  [24]  C0 0C 6D 09 CA 0C 99 C6 89 0A C6 0C D0 0C 00 00 00 00 00 00 00 00 00 00
2026-07-11T17:32:44.296875,4.972,can0  204  [16]  28 58 1C D2 24 99 E9 71 28 23 30 75 30 75 00 00
2026-07-11T17:32:44.391779,5.067,can0  070  [20]  B1 2C 4D 08 8D B1 62 03 C8 AF 00 00 20 00 00 00 20 00 00 00
2026-07-11T17:32:44.391857,5.067,can0  204  [16]  28 58 1C D2 24 99 E9 71 28 23 30 75 30 75 00 00
2026-07-11T17:32:44.391901,5.067,can0  041  [04]  C1 00 0E 00
2026-07-11T17:32:44.391943,5.067,can0  204  [16]  28 58 1C D2 24 99 E9 71 28 23 30 75 30 75 00 00
2026-07-11T17:32:44.391987,5.067,can0  040  [04]  22 01 0A 00
2026-07-11T17:32:44.466755,5.142,can0  100  [03]  90 7F 04
2026-07-11T17:32:44.467069,5.143,can0  070  [20]  B1 2C 4D 08 8D B1 62 03 C8 AF 00 00 20 00 00 00 20 00 00 00
2026-07-11T17:32:44.467353,5.143,can0  110  [02]  38 1B
2026-07-11T17:32:44.467634,5.143,can0  120  [04]  00 00 00 00
2026-07-11T17:32:44.468304,5.144,can0  204  [16]  28 58 1C D2 24 99 E9 71 28 23 30 75 30 75 00 00
2026-07-11T17:32:44.476798,5.152,can0  206  [24]  C6 0C 6F 09 CF 0C 99 C6 89 0A C1 0C CA 0C 00 00 00 00 00 00 00 00 00 00
2026-07-11T17:32:44.476865,5.152,can0  040  [04]  22 01 0A 00
2026-07-11T17:32:44.476908,5.152,can0  204  [16]  28 58 1C D2 24 99 E9 71 28 23 30 75 30 75 00 00
2026-07-11T17:32:44.597500,5.273,can0  204  [16]  28 58 1C D2 24 99 E9 71 28 23 30 75 30 75 00 00
2026-07-11T17:32:44.597810,5.273,can0  204  [16]  28 58 1C D2 24 99 E9 71 28 23 30 75 30 75 00 00
2026-07-11T17:32:44.598485,5.274,can0  206  [24]  C0 0C 6F 09 CF 0C 99 C6 88 0A C1 0C D0 0C 00 00 00 00 00 00 00 00 00 00
2026-07-11T17:32:44.693838,5.369,can0  060  [32]  00 00 00 00 B1 2C 4D 08 E1 06 B8 10 00 00 10 0E FF 01 00 00 00 00 00 00 01 00 00 00 00 00 00 00
2026-07-11T17:32:44.694434,5.370,can0  041  [04]  BF 00 0D 00
2026-07-11T17:32:44.694718,5.370,can0  204  [16]  28 58 1C D2 24 99 E9 71 28 23 30 75 30 75 00 00
2026-07-11T17:32:44.695023,5.370,can0  040  [04]  20 01 0A 00
2026-07-11T17:32:44.700547,5.376,can0  204  [16]  28 58 1C D2 24 99 E9 71 28 23 30 75 30 75 00 00
2026-07-11T17:32:44.789228,5.465,can0  070  [20]  B0 2C 4D 08 8B B1 62 03 B0 B3 00 00 20 00 00 00 25 00 00 00
2026-07-11T17:32:44.789578,5.465,can0  204  [16]  28 58 1C D2 24 99 E9 71 28 23 30 75 30 75 00 00
2026-07-11T17:32:44.792385,5.468,can0  070  [20]  B0 2C 4D 08 8B B1 62 03 B0 B3 00 00 20 00 00 00 25 00 00 00
2026-07-11T17:32:44.792439,5.468,can0  040  [04]  20 01 0A 00
2026-07-11T17:32:44.792482,5.468,can0  206  [24]  CA 0C 6F 09 CB 0C 99 C6 87 0A C1 0C CA 0C 00 00 00 00 00 00 00 00 00 00
2026-07-11T17:32:44.797020,5.472,can0  204  [16]  28 58 1C D2 24 99 E9 71 28 23 30 75 30 75 00 00
2026-07-11T17:32:44.896422,5.572,can0  070  [20]  B0 2C 4D 08 8B B1 62 03 B0 B3 00 00 20 00 00 00 25 00 00 00
2026-07-11T17:32:44.896496,5.572,can0  204  [16]  28 58 1C D2 24 99 E9 71 28 23 30 75 30 75 00 00
2026-07-11T17:32:44.896540,5.572,can0  204  [16]  28 58 1C D2 24 99 E9 71 28 23 30 75 30 75 00 00
2026-07-11T17:32:44.896600,5.572,can0  041  [04]  BE 00 0D 00
2026-07-11T17:32:44.989322,5.665,can0  040  [04]  19 01 05 00
2026-07-11T17:32:44.992315,5.668,can0  206  [24]  C5 0C 6F 09 CB 0C 99 C6 88 0A C1 0C D0 0C 00 00 00 00 00 00 00 00 00 00
2026-07-11T17:32:44.992718,5.668,can0  204  [16]  28 58 1C D2 24 99 E9 71 28 23 30 75 30 75 00 00
2026-07-11T17:32:44.993038,5.669,can0  204  [16]  28 58 1C D2 24 99 E9 71 28 23 30 75 30 75 00 00
2026-07-11T17:32:44.993318,5.669,can0  040  [04]  19 01 05 00
2026-07-11T17:32:45.089912,5.765,can0  204  [16]  28 58 1C D2 24 99 E9 71 28 23 30 75 30 75 00 00
2026-07-11T17:32:45.090207,5.766,can0  204  [16]  28 58 1C D2 24 99 E9 71 28 23 30 75 30 75 00 00
2026-07-11T17:32:45.092757,5.768,can0  206  [24]  CA 0C 6F 09 C6 0C 99 C6 8A 0A C1 0C D0 0C 00 00 00 00 00 00 00 00 00 00
2026-07-11T17:32:45.189870,5.865,can0  060  [32]  00 00 00 00 00 00 00 00 00 00 00 00 00 00 00 00 00 00 00 00 00 00 00 00 00 00 00 00 00 00 00 00
2026-07-11T17:32:45.190195,5.866,can0  204  [16]  28 58 1C D2 24 99 E9 71 28 23 30 75 30 75 00 00
2026-07-11T17:32:45.190489,5.866,can0  041  [04]  BC 00 0D 00
2026-07-11T17:32:45.190740,5.866,can0  204  [16]  28 58 1C D2 24 99 E9 71 28 23 30 75 30 75 00 00
2026-07-11T17:32:45.289330,5.965,can0  040  [04]  16 01 06 00
2026-07-11T17:32:45.289652,5.965,can0  204  [16]  28 58 1C D2 24 99 E9 71 28 23 30 75 30 75 00 00
2026-07-11T17:32:45.289896,5.965,can0  040  [04]  16 01 06 00
2026-07-11T17:32:45.292358,5.968,can0  206  [24]  CA 0C 6D 09 C6 0C 99 C6 8B 0A C1 0C D0 0C 00 00 00 00 00 00 00 00 00 00
2026-07-11T17:32:45.292662,5.968,can0  204  [16]  28 58 1C D2 24 99 E9 71 28 23 30 75 30 75 00 00
2026-07-11T17:32:45.389411,6.065,can0  070  [20]  B0 2C 4D 08 8B B1 62 03 B0 B3 00 00 20 00 00 00 25 00 00 00
2026-07-11T17:32:45.389778,6.065,can0  204  [16]  28 58 1C D2 24 99 E9 71 28 23 30 75 30 75 00 00
2026-07-11T17:32:45.390073,6.066,can0  204  [16]  28 58 1C D2 24 99 E9 71 28 23 30 75 30 75 00 00
2026-07-11T17:32:45.491652,6.167,can0  206  [24]  CA 0C 6D 09 C6 0C 99 C6 8B 0A C1 0C D0 0C 00 00 00 00 00 00 00 00 00 00
2026-07-11T17:32:45.491948,6.167,can0  041  [04]  CD 00 0B 00
2026-07-11T17:32:45.492241,6.168,can0  204  [16]  28 58 1C D2 24 99 E9 71 28 23 30 75 30 75 00 00
2026-07-11T17:32:45.492517,6.168,can0  070  [20]  B0 2C 4D 08 8B B1 62 03 B0 B3 00 00 20 00 00 00 25 00 00 00
2026-07-11T17:32:45.492735,6.168,can0  040  [04]  14 01 08 00
2026-07-11T17:32:45.493025,6.168,can0  204  [16]  28 58 1C D2 24 99 E9 71 28 23 30 75 30 75 00 00
2026-07-11T17:32:45.589589,6.265,can0  040  [04]  14 01 08 00
2026-07-11T17:32:45.592306,6.268,can0  204  [16]  28 58 1C D2 24 99 E9 71 28 23 30 75 30 75 00 00
2026-07-11T17:32:45.592366,6.268,can0  206  [24]  C5 0C 6D 09 CB 0C 99 C6 8C 0A C1 0C D0 0C 00 00 00 00 00 00 00 00 00 00
2026-07-11T17:32:45.592621,6.268,can0  204  [16]  28 58 1C D2 24 99 E9 71 28 23 30 75 30 75 00 00
2026-07-11T17:32:45.689838,6.365,can0  060  [32]  00 00 00 00 B0 2C 4D 08 E0 06 B8 10 00 00 10 0E FF 01 00 00 00 00 00 00 01 00 00 00 00 00 00 00
2026-07-11T17:32:45.690345,6.366,can0  100  [03]  89 7F 04
2026-07-11T17:32:45.690867,6.366,can0  120  [04]  00 00 00 00
2026-07-11T17:32:45.690935,6.366,can0  204  [16]  28 58 1C D2 24 99 E9 71 28 23 30 75 30 75 00 00
2026-07-11T17:32:45.690993,6.366,can0  070  [20]  B0 2C 4D 08 8B B1 62 03 98 B7 00 00 20 00 00 00 1E 00 00 00
2026-07-11T17:32:45.691146,6.367,can0  041  [04]  E8 00 0B 00
2026-07-11T17:32:45.691455,6.367,can0  204  [16]  28 58 1C D2 24 99 E9 71 28 23 30 75 30 75 00 00
2026-07-11T17:32:45.789682,6.465,can0  070  [20]  B0 2C 4D 08 8B B1 62 03 98 B7 00 00 20 00 00 00 1D 00 00 00
2026-07-11T17:32:45.790016,6.465,can0  040  [04]  12 01 0C 00
2026-07-11T17:32:45.790283,6.466,can0  204  [16]  28 58 1C D2 24 99 E9 71 28 23 30 75 30 75 00 00
2026-07-11T17:32:45.792777,6.468,can0  206  [24]  CA 0C 6D 09 C6 0C 99 C6 8A 0A C6 0C CA 0C 00 00 00 00 00 00 00 00 00 00
2026-07-11T17:32:45.793017,6.468,can0  040  [04]  12 01 0C 00
2026-07-11T17:32:45.793297,6.469,can0  204  [16]  28 58 1C D2 24 99 E9 71 28 23 30 75 30 75 00 00
2026-07-11T17:32:45.889799,6.565,can0  070  [20]  B0 2C 4D 08 8B B1 62 03 98 B7 00 00 20 00 00 00 1D 00 00 00
2026-07-11T17:32:45.890092,6.566,can0  204  [16]  28 58 1C D2 24 99 E9 71 28 23 30 75 30 75 00 00
2026-07-11T17:32:45.890366,6.566,can0  204  [16]  28 58 1C D2 24 99 E9 71 28 23 30 75 30 75 00 00
2026-07-11T17:32:45.991541,6.667,can0  206  [24]  CA 0C 6B 09 C6 0C 99 C6 89 0A C6 0C CA 0C 00 00 00 00 00 00 00 00 00 00
2026-07-11T17:32:45.991849,6.667,can0  204  [16]  28 58 1C D2 24 99 E9 71 28 23 30 75 30 75 00 00
2026-07-11T17:32:45.992109,6.668,can0  041  [04]  EF 00 0F 00
2026-07-11T17:32:45.992450,6.668,can0  040  [04]  0C 01 08 00
2026-07-11T17:32:45.992837,6.668,can0  204  [16]  28 58 1C D2 24 99 E9 71 28 23 30 75 30 75 00 00
2026-07-11T17:32:46.089017,6.764,can0  110  [02]  38 1B
2026-07-11T17:32:46.089304,6.765,can0  040  [04]  0C 01 08 00
2026-07-11T17:32:46.089712,6.765,can0  204  [16]  28 58 1C D2 24 99 E9 71 28 23 30 75 30 75 00 00
2026-07-11T17:32:46.092327,6.768,can0  206  [24]  C0 0C 6C 09 C6 0C 99 C6 86 0A CA 0C D0 0C 00 00 00 00 00 00 00 00 00 00
2026-07-11T17:32:46.092672,6.768,can0  204  [16]  28 58 1C D2 24 99 E9 71 28 23 30 75 30 75 00 00
2026-07-11T17:32:46.189637,6.865,can0  060  [32]  00 00 00 00 00 00 00 00 00 00 00 00 00 00 00 00 00 00 00 00 00 00 00 00 00 00 00 00 00 00 00 00
2026-07-11T17:32:46.189926,6.865,can0  204  [16]  28 58 1C D2 24 99 E9 71 28 23 30 75 30 75 00 00
2026-07-11T17:32:46.190244,6.866,can0  204  [16]  28 58 1C D2 24 99 E9 71 28 23 30 75 30 75 00 00
2026-07-11T17:32:46.289341,6.965,can0  041  [04]  E8 00 0E 00
2026-07-11T17:32:46.289626,6.965,can0  060  [32]  81 F4 D5 02 06 A0 4D 08 82 5E 64 03 84 00 F5 08 E1 00 80 00 00 00 00 00 01 00 00 00 00 00 00 00
2026-07-11T17:32:46.290182,6.966,can0  204  [16]  28 58 1C D2 24 99 E9 71 28 23 30 75 30 75 00 00
2026-07-11T17:32:46.290535,6.966,can0  040  [04]  0C 01 08 00
2026-07-11T17:32:46.292988,6.968,can0  206  [24]  C5 0C 6B 09 C1 0C 99 C6 88 0A C6 0C D0 0C 00 00 00 00 00 00 00 00 00 00
2026-07-11T17:32:46.293379,6.969,can0  204  [16]  28 58 1C D2 24 99 E9 71 28 23 30 75 30 75 00 00
2026-07-11T17:32:46.389481,7.065,can0  070  [20]  B0 2C 4D 08 8B B1 62 03 98 B7 00 00 20 00 00 00 1D 00 00 00
2026-07-11T17:32:46.389742,7.065,can0  040  [04]  0C 01 08 00
2026-07-11T17:32:46.390071,7.066,can0  204  [16]  28 58 1C D2 24 99 E9 71 28 23 30 75 30 75 00 00
2026-07-11T17:32:46.390317,7.066,can0  131  [00]
2026-07-11T17:32:46.489795,7.165,can0  204  [16]  28 58 1C D2 24 99 E9 71 28 23 30 75 30 75 00 00
2026-07-11T17:32:46.492299,7.168,can0  206  [24]  C5 0C 6B 09 BC 0C 99 C6 87 0A CB 0C D0 0C 00 00 00 00 00 00 00 00 00 00
2026-07-11T17:32:46.492615,7.168,can0  070  [20]  B0 2C 4D 08 8B B1 62 03 98 B7 00 00 20 00 00 00 1D 00 00 00
2026-07-11T17:32:46.492879,7.168,can0  204  [16]  28 58 1C D2 24 99 E9 71 28 23 30 75 30 75 00 00
2026-07-11T17:32:46.493205,7.169,can0  041  [04]  E4 00 0E 00
2026-07-11T17:32:46.589270,7.265,can0  204  [16]  28 58 1C D2 24 99 E9 71 28 23 30 75 30 75 00 00
2026-07-11T17:32:46.589582,7.265,can0  040  [04]  15 01 08 00
2026-07-11T17:32:46.589825,7.265,can0  204  [16]  28 58 1C D2 24 99 E9 71 28 23 30 75 30 75 00 00
2026-07-11T17:32:46.590085,7.266,can0  040  [04]  15 01 08 00
2026-07-11T17:32:46.592625,7.268,can0  206  [24]  C5 0C 6C 09 C1 0C 99 C6 88 0A C6 0C D0 0C 00 00 00 00 00 00 00 00 00 00
2026-07-11T17:32:46.691534,7.367,can0  204  [16]  28 58 1C D2 24 99 E9 71 28 23 30 75 30 75 00 00
2026-07-11T17:32:46.691855,7.367,can0  204  [16]  28 58 1C D2 24 99 E9 71 28 23 30 75 30 75 00 00
2026-07-11T17:32:46.692134,7.368,can0  070  [20]  AE 2C 4D 08 89 B1 62 03 80 BB 00 00 20 00 00 00 16 00 00 00
2026-07-11T17:32:46.692439,7.368,can0  070  [20]  AE 2C 4D 08 89 B1 62 03 80 BB 00 00 20 00 00 00 17 00 00 00
2026-07-11T17:32:46.790028,7.466,can0  204  [16]  28 58 1C D2 24 99 E9 71 28 23 30 75 30 75 00 00
2026-07-11T17:32:46.792588,7.468,can0  206  [24]  CA 0C 6E 09 C1 0C 99 C6 8A 0A C6 0C CA 0C 00 00 00 00 00 00 00 00 00 00
2026-07-11T17:32:46.792907,7.468,can0  204  [16]  28 58 1C D2 24 99 E9 71 28 23 30 75 30 75 00 00
2026-07-11T17:32:46.793144,7.469,can0  041  [04]  EC 00 0E 00
2026-07-11T17:32:46.793391,7.469,can0  070  [20]  AE 2C 4D 08 89 B1 62 03 80 BB 00 00 20 00 00 00 17 00 00 00
2026-07-11T17:32:46.793699,7.469,can0  040  [04]  19 01 05 00
2026-07-11T17:32:46.889269,7.565,can0  204  [16]  28 58 1C D2 24 99 E9 71 28 23 30 75 30 75 00 00
2026-07-11T17:32:46.889597,7.565,can0  100  [03]  7E 7F 04
2026-07-11T17:32:46.889817,7.565,can0  120  [04]  00 00 00 00
2026-07-11T17:32:46.890104,7.566,can0  040  [04]  19 01 05 00
2026-07-11T17:32:46.890482,7.566,can0  204  [16]  28 58 1C D2 24 99 E9 71 28 23 30 75 30 75 00 00
2026-07-11T17:32:46.890764,7.566,can0  060  [32]  00 00 00 00 B0 2C 4D 08 E0 06 B8 10 00 00 10 0E FF 01 00 00 00 00 00 00 02 00 00 00 00 00 00 00
2026-07-11T17:32:46.890963,7.566,can0  060  [32]  74 ED D5 02 C6 69 4D 08 D4 23 66 03 00 00 5C 0D FF 01 00 00 00 00 00 01 02 00 00 00 00 00 00 00
2026-07-11T17:32:46.989305,7.665,can0  204  [16]  28 58 1C D2 24 99 E9 71 28 23 30 75 30 75 00 00
2026-07-11T17:32:46.991840,7.667,can0  206  [24]  CA 0C 6F 09 C1 0C 99 C6 8B 0A C6 0C CA 0C 00 00 00 00 00 00 00 00 00 00
2026-07-11T17:32:46.992100,7.668,can0  133  [00]
2026-07-11T17:32:46.992407,7.668,can0  204  [16]  28 58 1C D2 24 99 E9 71 28 23 30 75 30 75 00 00
2026-07-11T17:32:47.089957,7.765,can0  204  [16]  28 58 1C D2 24 99 E9 71 28 23 30 75 30 75 00 00
2026-07-11T17:32:47.090264,7.766,can0  041  [04]  F8 00 0E 00
2026-07-11T17:32:47.090663,7.766,can0  204  [16]  28 58 1C D2 24 99 E9 71 28 23 30 75 30 75 00 00
2026-07-11T17:32:47.090946,7.766,can0  040  [04]  16 01 06 00
2026-07-11T17:32:47.093569,7.769,can0  206  [24]  CA 0C 6F 09 C1 0C 99 C6 8B 0A C6 0C CA 0C 00 00 00 00 00 00 00 00 00 00
2026-07-11T17:32:47.189744,7.865,can0  040  [04]  16 01 06 00
2026-07-11T17:32:47.190051,7.866,can0  204  [16]  28 58 1C D2 24 99 E9 71 28 23 30 75 30 75 00 00
2026-07-11T17:32:47.190417,7.866,can0  204  [16]  28 58 1C D2 24 99 E9 71 28 23 30 75 30 75 00 00
2026-07-11T17:32:47.289881,7.965,can0  204  [16]  28 58 1C D2 24 99 E9 71 28 23 30 75 30 75 00 00
2026-07-11T17:32:47.292426,7.968,can0  206  [24]  CA 0C 70 09 C6 0C 99 C6 8A 0A C1 0C CA 0C 00 00 00 00 00 00 00 00 00 00
2026-07-11T17:32:47.292728,7.968,can0  204  [16]  28 58 1C D2 24 99 E9 71 28 23 30 75 30 75 00 00
2026-07-11T17:32:47.293012,7.968,can0  070  [20]  AE 2C 4D 08 89 B1 62 03 80 BB 00 00 20 00 00 00 17 00 00 00
2026-07-11T17:32:47.293355,7.969,can0  041  [04]  00 01 0E 00
2026-07-11T17:32:47.389096,8.065,can0  204  [16]  28 58 1C D2 24 99 E9 71 28 23 30 75 30 75 00 00
2026-07-11T17:32:47.389424,8.065,can0  040  [04]  1D 01 08 00
2026-07-11T17:32:47.389729,8.065,can0  204  [16]  28 58 1C D2 24 99 E9 71 28 23 30 75 30 75 00 00
2026-07-11T17:32:47.389980,8.065,can0  040  [04]  1D 01 08 00
2026-07-11T17:32:47.489504,8.165,can0  204  [16]  28 58 1C D2 24 99 E9 71 28 23 30 75 30 75 00 00
2026-07-11T17:32:47.492089,8.168,can0  206  [24]  CA 0C 6F 09 C6 0C 99 C6 8B 0A C6 0C CA 0C 00 00 00 00 00 00 00 00 00 00
2026-07-11T17:32:47.492611,8.168,can0  070  [20]  AE 2C 4D 08 89 B1 62 03 80 BB 00 00 20 00 00 00 17 00 00 00
2026-07-11T17:32:47.492973,8.168,can0  204  [16]  28 58 1C D2 24 99 E9 71 28 23 30 75 30 75 00 00
2026-07-11T17:32:47.589511,8.265,can0  204  [16]  28 58 1C D2 24 99 E9 71 28 23 30 75 30 75 00 00
2026-07-11T17:32:47.589895,8.265,can0  060  [32]  26 6B D6 02 2A BD 4D 08 AB 1E 64 03 00 00 08 0C 06 00 80 00 00 00 00 00 02 00 00 00 00 00 00 00
2026-07-11T17:32:47.590087,8.266,can0  060  [32]  03 78 D6 02 9B 32 4D 08 5F 21 B8 10 0A 00 10 0E FF 01 00 00 00 00 00 01 02 00 00 00 00 00 00 00
2026-07-11T17:32:47.591094,8.267,can0  041  [04]  F5 00 0F 00
2026-07-11T17:32:47.591161,8.267,can0  204  [16]  28 58 1C D2 24 99 E9 71 28 23 30 75 30 75 00 00
2026-07-11T17:32:47.593978,8.269,can0  206  [24]  C5 0C 6F 09 C6 0C 99 C6 89 0A C6 0C D0 0C 00 00 00 00 00 00 00 00 00 00
2026-07-11T17:32:47.594281,8.270,can0  040  [04]  22 01 0A 00
2026-07-11T17:32:47.689472,8.365,can0  110  [02]  39 1B
2026-07-11T17:32:47.689780,8.365,can0  204  [16]  28 58 1C D2 24 99 E9 71 28 23 30 75 30 75 00 00
2026-07-11T17:32:47.690017,8.365,can0  040  [04]  22 01 0A 00
2026-07-11T17:32:47.690371,8.366,can0  204  [16]  28 58 1C D2 24 99 E9 71 28 23 30 75 30 75 00 00
2026-07-11T17:32:47.789997,8.465,can0  070  [20]  AC 2C 4D 08 88 B1 62 03 68 BF 00 00 20 00 00 00 32 00 00 00
2026-07-11T17:32:47.790298,8.466,can0  204  [16]  28 58 1C D2 24 99 E9 71 28 23 30 75 30 75 00 00
2026-07-11T17:32:47.790613,8.466,can0  070  [20]  AC 2C 4D 08 88 B1 62 03 68 BF 00 00 20 00 00 00 32 00 00 00
2026-07-11T17:32:47.793237,8.469,can0  206  [24]  C5 0C 6F 09 C6 0C 99 C6 8A 0A C6 0C D0 0C 00 00 00 00 00 00 00 00 00 00
2026-07-11T17:32:47.793517,8.469,can0  204  [16]  28 58 1C D2 24 99 E9 71 28 23 30 75 30 75 00 00
2026-07-11T17:32:47.793795,8.469,can0  070  [20]  AC 2C 4D 08 88 B1 62 03 68 BF 00 00 20 00 00 00 32 00 00 00
2026-07-11T17:32:47.889568,8.565,can0  204  [16]  28 58 1C D2 24 99 E9 71 28 23 30 75 30 75 00 00
2026-07-11T17:32:47.889822,8.565,can0  041  [04]  F5 00 0F 00
2026-07-11T17:32:47.890173,8.566,can0  204  [16]  28 58 1C D2 24 99 E9 71 28 23 30 75 30 75 00 00
2026-07-11T17:32:47.896200,8.572,can0  040  [04]  34 01 0B 00
2026-07-11T17:32:47.991975,8.667,can0  206  [24]  C5 0C 6D 09 CB 0C 99 C6 8A 0A C1 0C D0 0C 00 00 00 00 00 00 00 00 00 00
2026-07-11T17:32:47.992222,8.668,can0  040  [04]  34 01 0B 00
2026-07-11T17:32:47.992536,8.668,can0  204  [16]  28 58 1C D2 24 99 E9 71 28 23 30 75 30 75 00 00
2026-07-11T17:32:47.992779,8.668,can0  204  [16]  28 58 1C D2 24 99 E9 71 28 23 30 75 30 75 00 00
2026-07-11T17:32:48.089397,8.765,can0  100  [03]  71 7F 04
2026-07-11T17:32:48.089661,8.765,can0  120  [04]  00 00 00 00
2026-07-11T17:32:48.089973,8.765,can0  204  [16]  28 58 1C D2 24 99 E9 71 28 23 30 75 30 75 00 00
2026-07-11T17:32:48.090286,8.766,can0  204  [16]  28 58 1C D2 24 99 E9 71 28 23 30 75 30 75 00 00
2026-07-11T17:32:48.092840,8.768,can0  206  [24]  C5 0C 6C 09 C6 0C 99 C6 8A 0A C6 0C D0 0C 00 00 00 00 00 00 00 00 00 00
2026-07-11T17:32:48.093094,8.769,can0  041  [04]  F3 00 10 00
2026-07-11T17:32:48.189157,8.865,can0  204  [16]  28 58 1C D2 24 99 E9 71 28 23 30 75 30 75 00 00
2026-07-11T17:32:48.189435,8.865,can0  040  [04]  45 01 0B 00
2026-07-11T17:32:48.189749,8.865,can0  204  [16]  28 58 1C D2 24 99 E9 71 28 23 30 75 30 75 00 00
2026-07-11T17:32:48.189983,8.865,can0  040  [04]  45 01 0B 00
2026-07-11T17:32:48.289301,8.965,can0  204  [16]  28 58 1C D2 24 99 E9 71 28 23 30 75 30 75 00 00
2026-07-11T17:32:48.291857,8.967,can0  206  [24]  C5 0C 6C 09 C6 0C 99 C6 89 0A C6 0C D0 0C 00 00 00 00 00 00 00 00 00 00
2026-07-11T17:32:48.292154,8.968,can0  204  [16]  28 58 1C D2 24 99 E9 71 28 23 30 75 30 75 00 00
2026-07-11T17:32:48.389093,9.065,can0  070  [20]  AC 2C 4D 08 88 B1 62 03 68 BF 00 00 20 00 00 00 32 00 00 00
2026-07-11T17:32:48.389496,9.065,can0  204  [16]  28 58 1C D2 24 99 E9 71 28 23 30 75 30 75 00 00
2026-07-11T17:32:48.389973,9.065,can0  041  [04]  F2 00 14 00
2026-07-11T17:32:48.390031,9.066,can0  204  [16]  28 58 1C D2 24 99 E9 71 28 23 30 75 30 75 00 00
2026-07-11T17:32:48.390382,9.066,can0  040  [04]  45 01 0C 00
2026-07-11T17:32:48.491405,9.167,can0  206  [24]  C5 0C 6C 09 C6 0C 99 C6 88 0A CA 0C D0 0C 00 00 00 00 00 00 00 00 00 00
2026-07-11T17:32:48.491723,9.167,can0  070  [20]  AC 2C 4D 08 88 B1 62 03 68 BF 00 00 20 00 00 00 32 00 00 00
2026-07-11T17:32:48.492002,9.167,can0  204  [16]  28 58 1C D2 24 99 E9 71 28 23 30 75 30 75 00 00
2026-07-11T17:32:48.492293,9.168,can0  040  [04]  45 01 0C 00
2026-07-11T17:32:48.492642,9.168,can0  204  [16]  28 58 1C D2 24 99 E9 71 28 23 30 75 30 75 00 00
2026-07-11T17:32:48.589169,9.265,can0  204  [16]  28 58 1C D2 24 99 E9 71 28 23 30 75 30 75 00 00
2026-07-11T17:32:48.592318,9.268,can0  206  [24]  C0 0C 6B 09 C6 0C 99 C6 88 0A C6 0C D5 0C 00 00 00 00 00 00 00 00 00 00
2026-07-11T17:32:48.592636,9.268,can0  204  [16]  28 58 1C D2 24 99 E9 71 28 23 30 75 30 75 00 00
2026-07-11T17:32:48.696712,9.372,can0  041  [04]  F0 00 13 00
2026-07-11T17:32:48.696830,9.372,can0  204  [16]  28 58 1C D2 24 99 E9 71 28 23 30 75 30 75 00 00
2026-07-11T17:32:48.697006,9.372,can0  060  [32]  67 99 D6 02 E5 68 4D 08 D2 38 64 03 00 00 10 04 CE 00 80 00 00 00 00 00 03 00 00 00 00 00 00 00
2026-07-11T17:32:48.697263,9.373,can0  060  [32]  00 00 00 00 AC 2C 4D 08 DC 06 B8 10 00 00 10 0E FF 01 00 00 00 00 00 01 03 00 00 00 00 00 00 00
2026-07-11T17:32:48.697439,9.373,can0  060  [32]  73 ED D5 02 DA B9 4D 08 5B 1E 64 03 00 00 40 05 FF 01 00 00 00 00 00 02 03 00 00 00 00 00 00 00
2026-07-11T17:32:48.697969,9.373,can0  204  [16]  28 58 1C D2 24 99 E9 71 28 23 30 75 30 75 00 00
2026-07-11T17:32:48.699785,9.375,can0  070  [20]  AC 2C 4D 08 88 B1 62 03 50 C3 00 00 20 00 00 00 1A 00 00 00
2026-07-11T17:32:48.699859,9.375,can0  070  [20]  AC 2C 4D 08 88 B1 62 03 50 C3 00 00 20 00 00 00 1B 00 00 00
2026-07-11T17:32:48.699903,9.375,can0  040  [04]  45 01 0D 00
2026-07-11T17:32:48.789757,9.465,can0  204  [16]  28 58 1C D2 24 99 E9 71 28 23 30 75 30 75 00 00
2026-07-11T17:32:48.792548,9.468,can0  206  [24]  C0 0C 6E 09 C6 0C 99 C6 87 0A C6 0C D5 0C 00 00 00 00 00 00 00 00 00 00
2026-07-11T17:32:48.792824,9.468,can0  204  [16]  28 58 1C D2 24 99 E9 71 28 23 30 75 30 75 00 00
2026-07-11T17:32:48.889879,9.565,can0  070  [20]  AC 2C 4D 08 88 B1 62 03 50 C3 00 00 20 00 00 00 1B 00 00 00
2026-07-11T17:32:48.890156,9.566,can0  204  [16]  28 58 1C D2 24 99 E9 71 28 23 30 75 30 75 00 00
2026-07-11T17:32:48.890420,9.566,can0  204  [16]  28 58 1C D2 24 99 E9 71 28 23 30 75 30 75 00 00
2026-07-11T17:32:48.890707,9.566,can0  041  [04]  F1 00 11 00
2026-07-11T17:32:48.992675,9.668,can0  206  [24]  C5 0C 6F 09 CB 0C 99 C6 87 0A C1 0C D0 0C 00 00 00 00 00 00 00 00 00 00
2026-07-11T17:32:48.992915,9.668,can0  040  [04]  45 01 0D 00
2026-07-11T17:32:48.993278,9.669,can0  204  [16]  28 58 1C D2 24 99 E9 71 28 23 30 75 30 75 00 00
2026-07-11T17:32:48.993591,9.669,can0  040  [04]  45 01 0D 00
2026-07-11T17:32:48.993926,9.669,can0  204  [16]  28 58 1C D2 24 99 E9 71 28 23 30 75 30 75 00 00
2026-07-11T17:32:49.089924,9.765,can0  204  [16]  28 58 1C D2 24 99 E9 71 28 23 30 75 30 75 00 00
2026-07-11T17:32:49.092934,9.768,can0  206  [24]  C5 0C 70 09 CB 0C 99 C6 88 0A C1 0C D0 0C 00 00 00 00 00 00 00 00 00 00
2026-07-11T17:32:49.093217,9.769,can0  204  [16]  28 58 1C D2 24 99 E9 71 28 23 30 75 30 75 00 00
2026-07-11T17:32:49.189320,9.865,can0  204  [16]  28 58 1C D2 24 99 E9 71 28 23 30 75 30 75 00 00
2026-07-11T17:32:49.189632,9.865,can0  041  [04]  F3 00 10 00
2026-07-11T17:32:49.189871,9.865,can0  060  [32]  00 00 00 00 00 00 00 00 00 00 00 00 00 00 00 00 00 00 00 00 00 00 00 00 00 00 00 00 00 00 00 00
2026-07-11T17:32:49.190098,9.866,can0  040  [04]  49 01 0C 00
2026-07-11T17:32:49.190359,9.866,can0  204  [16]  28 58 1C D2 24 99 E9 71 28 23 30 75 30 75 00 00
2026-07-11T17:32:49.289417,9.965,can0  100  [03]  6D 7F 04
2026-07-11T17:32:49.289679,9.965,can0  110  [02]  38 1B
2026-07-11T17:32:49.289903,9.965,can0  120  [04]  00 00 00 00
2026-07-11T17:32:49.290258,9.966,can0  204  [16]  28 58 1C D2 24 99 E9 71 28 23 30 75 30 75 00 00
2026-07-11T17:32:49.293251,9.969,can0  206  [24]  C5 0C 71 09 CB 0C 99 C6 89 0A BC 0C D0 0C 00 00 00 00 00 00 00 00 00 00
2026-07-11T17:32:49.293587,9.969,can0  040  [04]  49 01 0C 00
2026-07-11T17:32:49.293832,9.969,can0  204  [16]  28 58 1C D2 24 99 E9 71 28 23 30 75 30 75 00 00
2026-07-11T17:32:49.389430,10.065,can0  070  [20]  AC 2C 4D 08 88 B1 62 03 50 C3 00 00 20 00 00 00 1B 00 00 00
2026-07-11T17:32:49.389751,10.065,can0  204  [16]  28 58 1C D2 24 99 E9 71 28 23 30 75 30 75 00 00
2026-07-11T17:32:49.390007,10.065,can0  204  [16]  28 58 1C D2 24 99 E9 71 28 23 30 75 30 75 00 00
2026-07-11T17:32:49.492834,10.168,can0  206  [24]  CA 0C 71 09 CB 0C 99 C6 88 0A C1 0C CA 0C 00 00 00 00 00 00 00 00 00 00
2026-07-11T17:32:49.493138,10.169,can0  041  [04]  FE 00 10 00
2026-07-11T17:32:49.493508,10.169,can0  204  [16]  28 58 1C D2 24 99 E9 71 28 23 30 75 30 75 00 00
2026-07-11T17:32:49.493837,10.169,can0  070  [20]  AC 2C 4D 08 88 B1 62 03 50 C3 00 00 20 00 00 00 1B 00 00 00
2026-07-11T17:32:49.494132,10.170,can0  040  [04]  56 01 0E 00
2026-07-11T17:32:49.494485,10.170,can0  204  [16]  28 58 1C D2 24 99 E9 71 28 23 30 75 30 75 00 00
2026-07-11T17:32:49.589377,10.265,can0  040  [04]  56 01 0E 00
2026-07-11T17:32:49.589722,10.265,can0  204  [16]  28 58 1C D2 24 99 E9 71 28 23 30 75 30 75 00 00
2026-07-11T17:32:49.592243,10.268,can0  206  [24]  CA 0C 71 09 CB 0C 99 C6 88 0A C1 0C CA 0C 00 00 00 00 00 00 00 00 00 00
2026-07-11T17:32:49.592571,10.268,can0  204  [16]  28 58 1C D2 24 99 E9 71 28 23 30 75 30 75 00 00
2026-07-11T17:32:49.700487,10.376,can0  204  [16]  28 58 1C D2 24 99 E9 71 28 23 30 75 30 75 00 00
2026-07-11T17:32:49.700815,10.376,can0  060  [32]  00 00 00 00 00 00 00 00 00 00 00 00 00 00 00 00 00 00 00 00 00 00 00 00 00 00 00 00 00 00 00 00
2026-07-11T17:32:49.701012,10.376,can0  060  [32]  00 00 00 00 AC 2C 4D 08 DC 06 B8 10 00 00 10 0E FF 01 00 00 00 00 00 00 01 00 00 00 00 00 00 00
2026-07-11T17:32:49.701752,10.377,can0  041  [04]  06 01 0F 00
2026-07-11T17:32:49.702143,10.378,can0  204  [16]  28 58 1C D2 24 99 E9 71 28 23 30 75 30 75 00 00
2026-07-11T17:32:49.792956,10.468,can0  070  [20]  AB 2C 4D 08 86 B1 62 03 38 C7 00 00 20 00 00 00 13 00 00 00
2026-07-11T17:32:49.793235,10.469,can0  132  [00]
2026-07-11T17:32:49.793523,10.469,can0  070  [20]  AB 2C 4D 08 86 B1 62 03 38 C7 00 00 20 00 00 00 12 00 00 00
2026-07-11T17:32:49.793801,10.469,can0  040  [04]  5E 01 11 00
2026-07-11T17:32:49.796345,10.472,can0  206  [24]  C6 0C 70 09 CF 0C 99 C6 88 0A CA 0C CA 0C 00 00 00 00 00 00 00 00 00 00
2026-07-11T17:32:49.796936,10.472,can0  204  [16]  28 58 1C D2 24 99 E9 71 28 23 30 75 30 75 00 00
2026-07-11T17:32:49.797011,10.472,can0  040  [04]  5E 01 11 00
2026-07-11T17:32:49.797215,10.473,can0  204  [16]  28 58 1C D2 24 99 E9 71 28 23 30 75 30 75 00 00
2026-07-11T17:32:49.797508,10.473,can0  070  [20]  AB 2C 4D 08 86 B1 62 03 38 C7 00 00 20 00 00 00 12 00 00 00
2026-07-11T17:32:49.890171,10.566,can0  204  [16]  28 58 1C D2 24 99 E9 71 28 23 30 75 30 75 00 00
2026-07-11T17:32:49.890238,10.566,can0  130  [00]
2026-07-11T17:32:49.895872,10.571,can0  204  [16]  28 58 1C D2 24 99 E9 71 28 23 30 75 30 75 00 00
2026-07-11T17:32:49.992419,10.668,can0  206  [24]  C0 0C 6F 09 CA 0C 99 C6 88 0A CF 0C D0 0C 00 00 00 00 00 00 00 00 00 00
2026-07-11T17:32:49.992483,10.668,can0  204  [16]  28 58 1C D2 24 99 E9 71 28 23 30 75 30 75 00 00
2026-07-11T17:32:49.992532,10.668,can0  041  [04]  10 01 0D 00
2026-07-11T17:32:49.998065,10.674,can0  040  [04]  62 01 10 00
2026-07-11T17:32:49.998120,10.674,can0  204  [16]  28 58 1C D2 24 99 E9 71 28 23 30 75 30 75 00 00
2026-07-11T17:32:50.089319,10.765,can0  040  [04]  62 01 10 00
2026-07-11T17:32:50.089600,10.765,can0  204  [16]  28 58 1C D2 24 99 E9 71 28 23 30 75 30 75 00 00
2026-07-11T17:32:50.092139,10.768,can0  206  [24]  C0 0C 6F 09 CA 0C 99 C6 87 0A CF 0C D0 0C 00 00 00 00 00 00 00 00 00 00
2026-07-11T17:32:50.097154,10.773,can0  204  [16]  28 58 1C D2 24 99 E9 71 28 23 30 75 30 75 00 00
2026-07-11T17:32:50.189757,10.865,can0  204  [16]  28 58 1C D2 24 99 E9 71 28 23 30 75 30 75 00 00
2026-07-11T17:32:50.195629,10.871,can0  060  [32]  00 00 00 00 00 00 00 00 00 00 00 00 00 00 00 00 00 00 00 00 00 00 00 00 00 00 00 00 00 00 00 00
2026-07-11T17:32:50.195693,10.871,can0  204  [16]  28 58 1C D2 24 99 E9 71 28 23 30 75 30 75 00 00
2026-07-11T17:32:50.289833,10.965,can0  041  [04]  10 01 0D 00
2026-07-11T17:32:50.292853,10.968,can0  206  [24]  C6 0C 6D 09 CA 0C 99 C6 89 0A CF 0C CA 0C 00 00 00 00 00 00 00 00 00 00
2026-07-11T17:32:50.293222,10.969,can0  204  [16]  28 58 1C D2 24 99 E9 71 28 23 30 75 30 75 00 00
2026-07-11T17:32:50.293517,10.969,can0  040  [04]  54 01 0D 00
2026-07-11T17:32:50.293776,10.969,can0  070  [20]  AB 2C 4D 08 86 B1 62 03 38 C7 00 00 20 00 00 00 12 00 00 00
2026-07-11T17:32:50.293998,10.969,can0  040  [04]  54 01 0D 00
2026-07-11T17:32:50.294343,10.970,can0  204  [16]  28 58 1C D2 24 99 E9 71 28 23 30 75 30 75 00 00
2026-07-11T17:32:50.389609,11.065,can0  204  [16]  28 58 1C D2 24 99 E9 71 28 23 30 75 30 75 00 00
2026-07-11T17:32:50.389882,11.065,can0  204  [16]  28 58 1C D2 24 99 E9 71 28 23 30 75 30 75 00 00
2026-07-11T17:32:50.492638,11.168,can0  206  [24]  C6 0C 6E 09 CF 0C 99 C6 8A 0A CA 0C CA 0C 00 00 00 00 00 00 00 00 00 00
2026-07-11T17:32:50.492878,11.168,can0  100  [03]  63 7F 04
2026-07-11T17:32:50.493103,11.169,can0  120  [04]  00 00 00 00
2026-07-11T17:32:50.493440,11.169,can0  070  [20]  AB 2C 4D 08 86 B1 62 03 38 C7 00 00 20 00 00 00 12 00 00 00
2026-07-11T17:32:50.493792,11.169,can0  204  [16]  28 58 1C D2 24 99 E9 71 28 23 30 75 30 75 00 00
2026-07-11T17:32:50.494022,11.169,can0  041  [04]  10 01 0E 00
2026-07-11T17:32:50.589229,11.265,can0  204  [16]  28 58 1C D2 24 99 E9 71 28 23 30 75 30 75 00 00
2026-07-11T17:32:50.589810,11.265,can0  040  [04]  3E 01 0C 00
2026-07-11T17:32:50.589864,11.265,can0  204  [16]  28 58 1C D2 24 99 E9 71 28 23 30 75 30 75 00 00
2026-07-11T17:32:50.598293,11.274,can0  206  [24]  C0 0C 6E 09 CA 0C 99 C6 89 0A C6 0C D0 0C 00 00 00 00 00 00 00 00 00 00
2026-07-11T17:32:50.598356,11.274,can0  040  [04]  3E 01 0C 00
2026-07-11T17:32:50.707653,11.383,can0  204  [16]  28 58 1C D2 24 99 E9 71 28 23 30 75 30 75 00 00
2026-07-11T17:32:50.707729,11.383,can0  204  [16]  28 58 1C D2 24 99 E9 71 28 23 30 75 30 75 00 00
2026-07-11T17:32:50.707772,11.383,can0  070  [20]  AB 2C 4D 08 86 B1 62 03 20 CB 00 00 20 00 00 00 32 00 00 00
2026-07-11T17:32:50.791640,11.467,can0  060  [32]  00 00 00 00 AB 2C 4D 08 DB 06 B8 10 00 00 10 0E FF 01 00 00 00 00 00 00 01 00 00 00 00 00 00 00
2026-07-11T17:32:50.792099,11.468,can0  204  [16]  28 58 1C D2 24 99 E9 71 28 23 30 75 30 75 00 00
2026-07-11T17:32:50.792341,11.468,can0  070  [20]  AB 2C 4D 08 86 B1 62 03 20 CB 00 00 20 00 00 00 31 00 00 00
2026-07-11T17:32:50.795353,11.471,can0  206  [24]  C6 0C 6E 09 CA 0C 99 C6 8A 0A C6 0C CA 0C 00 00 00 00 00 00 00 00 00 00
2026-07-11T17:32:50.795694,11.471,can0  041  [04]  1B 01 0D 00
2026-07-11T17:32:50.796038,11.472,can0  204  [16]  28 58 1C D2 24 99 E9 71 28 23 30 75 30 75 00 00
2026-07-11T17:32:50.889645,11.565,can0  070  [20]  AB 2C 4D 08 86 B1 62 03 20 CB 00 00 20 00 00 00 31 00 00 00
2026-07-11T17:32:50.889714,11.565,can0  040  [04]  29 01 0C 00
2026-07-11T17:32:50.889929,11.565,can0  204  [16]  28 58 1C D2 24 99 E9 71 28 23 30 75 30 75 00 00
2026-07-11T17:32:50.890128,11.566,can0  110  [02]  39 1B
2026-07-11T17:32:50.890393,11.566,can0  040  [04]  29 01 0C 00
2026-07-11T17:32:50.890831,11.566,can0  204  [16]  28 58 1C D2 24 99 E9 71 28 23 30 75 30 75 00 00
2026-07-11T17:32:50.893581,11.569,can0  206  [24]  C0 0C 6F 09 CA 0C 99 C6 8A 0A C6 0C D0 0C 00 00 00 00 00 00 00 00 00 00
2026-07-11T17:32:50.989178,11.665,can0  204  [16]  28 58 1C D2 24 99 E9 71 28 23 30 75 30 75 00 00
2026-07-11T17:32:50.989607,11.665,can0  204  [16]  28 58 1C D2 24 99 E9 71 28 23 30 75 30 75 00 00
2026-07-11T17:32:51.089733,11.765,can0  204  [16]  28 58 1C D2 24 99 E9 71 28 23 30 75 30 75 00 00
2026-07-11T17:32:51.090010,11.765,can0  041  [04]  2B 01 08 00
2026-07-11T17:32:51.090296,11.766,can0  204  [16]  28 58 1C D2 24 99 E9 71 28 23 30 75 30 75 00 00
2026-07-11T17:32:51.090616,11.766,can0  040  [04]  16 01 0E 00
2026-07-11T17:32:51.093804,11.769,can0  206  [24]  C0 0C 70 09 CA 0C 99 C6 88 0A C1 0C D0 0C 00 00 00 00 00 00 00 00 00 00
2026-07-11T17:32:51.191871,11.867,can0  040  [04]  16 01 0E 00
2026-07-11T17:32:51.191968,11.867,can0  204  [16]  28 58 1C D2 24 99 E9 71 28 23 30 75 30 75 00 00
2026-07-11T17:32:51.198061,11.874,can0  204  [16]  28 58 1C D2 24 99 E9 71 28 23 30 75 30 75 00 00
2026-07-11T17:32:51.289425,11.965,can0  204  [16]  28 58 1C D2 24 99 E9 71 28 23 30 75 30 75 00 00
2026-07-11T17:32:51.292745,11.968,can0  206  [24]  C0 0C 6F 09 CA 0C 99 C6 87 0A C6 0C D0 0C 00 00 00 00 00 00 00 00 00 00
2026-07-11T17:32:51.293069,11.969,can0  204  [16]  28 58 1C D2 24 99 E9 71 28 23 30 75 30 75 00 00
2026-07-11T17:32:51.293306,11.969,can0  041  [04]  3F 01 07 00
2026-07-11T17:32:51.293623,11.969,can0  070  [20]  AB 2C 4D 08 86 B1 62 03 20 CB 00 00 20 00 00 00 31 00 00 00
2026-07-11T17:32:51.391397,12.067,can0  204  [16]  28 58 1C D2 24 99 E9 71 28 23 30 75 30 75 00 00
2026-07-11T17:32:51.391465,12.067,can0  040  [04]  1C 01 12 00
2026-07-11T17:32:51.391809,12.067,can0  204  [16]  28 58 1C D2 24 99 E9 71 28 23 30 75 30 75 00 00
2026-07-11T17:32:51.392091,12.068,can0  040  [04]  1C 01 12 00
2026-07-11T17:32:51.398981,12.074,can0  206  [24]  C6 0C 6F 09 CA 0C 99 C6 88 0A C6 0C CA 0C 00 00 00 00 00 00 00 00 00 00
2026-07-11T17:32:51.493386,12.169,can0  204  [16]  28 58 1C D2 24 99 E9 71 28 23 30 75 30 75 00 00
2026-07-11T17:32:51.494789,12.170,can0  070  [20]  AB 2C 4D 08 86 B1 62 03 20 CB 00 00 20 00 00 00 31 00 00 00
2026-07-11T17:32:51.499019,12.174,can0  204  [16]  28 58 1C D2 24 99 E9 71 28 23 30 75 30 75 00 00
2026-07-11T17:32:51.591761,12.267,can0  204  [16]  28 58 1C D2 24 99 E9 71 28 23 30 75 30 75 00 00
2026-07-11T17:32:51.592143,12.268,can0  041  [04]  4E 01 09 00
2026-07-11T17:32:51.595315,12.271,can0  206  [24]  C0 0C 6F 09 CA 0C 99 C6 87 0A C6 0C D0 0C 00 00 00 00 00 00 00 00 00 00
2026-07-11T17:32:51.595671,12.271,can0  204  [16]  28 58 1C D2 24 99 E9 71 28 23 30 75 30 75 00 00
2026-07-11T17:32:51.595959,12.271,can0  040  [04]  29 01 11 00
2026-07-11T17:32:51.706268,12.382,can0  100  [03]  5A 7F 04
2026-07-11T17:32:51.706337,12.382,can0  120  [04]  00 00 00 00
2026-07-11T17:32:51.707143,12.383,can0  204  [16]  28 58 1C D2 24 99 E9 71 28 23 30 75 30 75 00 00
2026-07-11T17:32:51.707194,12.383,can0  040  [04]  29 01 11 00
2026-07-11T17:32:51.707528,12.383,can0  204  [16]  28 58 1C D2 24 99 E9 71 28 23 30 75 30 75 00 00
2026-07-11T17:32:51.711737,12.387,can0  070  [20]  A9 2C 4D 08 86 B1 62 03 08 CF 00 00 20 00 00 00 32 00 00 00
2026-07-11T17:32:51.806570,12.482,can0  060  [32]  D7 93 D6 02 51 81 4D 08 3B 1C 64 03 87 00 FF 0D 5C 01 01 00 00 00 00 00 02 00 00 00 00 00 00 00
2026-07-11T17:32:51.806676,12.482,can0  060  [32]  00 00 00 00 A9 2C 4D 08 DB 06 B8 10 00 00 10 0E FF 01 00 00 00 00 00 01 02 00 00 00 00 00 00 00
2026-07-11T17:32:51.809806,12.485,can0  204  [16]  28 58 1C D2 24 99 E9 71 28 23 30 75 30 75 00 00
2026-07-11T17:32:51.809894,12.485,can0  206  [24]  C6 0C 6F 09 CA 0C 99 C6 88 0A CA 0C CA 0C 00 00 00 00 00 00 00 00 00 00
2026-07-11T17:32:51.810034,12.486,can0  070  [20]  A9 2C 4D 08 86 B1 62 03 08 CF 00 00 20 00 00 00 33 00 00 00
2026-07-11T17:32:51.810370,12.486,can0  204  [16]  28 58 1C D2 24 99 E9 71 28 23 30 75 30 75 00 00
2026-07-11T17:32:51.908045,12.584,can0  070  [20]  A9 2C 4D 08 86 B1 62 03 08 CF 00 00 20 00 00 00 33 00 00 00
2026-07-11T17:32:51.908438,12.584,can0  041  [04]  3F 01 0C 00
2026-07-11T17:32:51.908883,12.584,can0  204  [16]  28 58 1C D2 24 99 E9 71 28 23 30 75 30 75 00 00
2026-07-11T17:32:51.916924,12.592,can0  040  [04]  32 01 0F 00
2026-07-11T17:32:51.916992,12.592,can0  204  [16]  28 58 1C D2 24 99 E9 71 28 23 30 75 30 75 00 00
2026-07-11T17:32:51.917034,12.593,can0  206  [24]  CA 0C 70 09 CB 0C 99 C6 87 0A C5 0C CA 0C 00 00 00 00 00 00 00 00 00 00
2026-07-11T17:32:52.008931,12.684,can0  040  [04]  32 01 0F 00
2026-07-11T17:32:52.009224,12.685,can0  204  [16]  28 58 1C D2 24 99 E9 71 28 23 30 75 30 75 00 00
2026-07-11T17:32:52.009501,12.685,can0  204  [16]  28 58 1C D2 24 99 E9 71 28 23 30 75 30 75 00 00
2026-07-11T17:32:52.109775,12.785,can0  204  [16]  28 58 1C D2 24 99 E9 71 28 23 30 75 30 75 00 00
2026-07-11T17:32:52.109842,12.785,can0  206  [24]  CA 0C 6F 09 CB 0C 99 C6 89 0A C5 0C CA 0C 00 00 00 00 00 00 00 00 00 00
2026-07-11T17:32:52.110079,12.786,can0  204  [16]  28 58 1C D2 24 99 E9 71 28 23 30 75 30 75 00 00
2026-07-11T17:32:52.110305,12.786,can0  041  [04]  20 01 0E 00
2026-07-11T17:32:52.207910,12.883,can0  204  [16]  28 58 1C D2 24 99 E9 71 28 23 30 75 30 75 00 00
2026-07-11T17:32:52.207991,12.883,can0  040  [04]  2E 01 0F 00
2026-07-11T17:32:52.208443,12.884,can0  204  [16]  28 58 1C D2 24 99 E9 71 28 23 30 75 30 75 00 00
2026-07-11T17:32:52.212298,12.888,can0  040  [04]  2E 01 0F 00
2026-07-11T17:32:52.313093,12.989,can0  060  [32]  00 00 00 00 00 00 00 00 00 00 00 00 00 00 00 00 00 00 00 00 00 00 00 00 00 00 00 00 00 00 00 00
2026-07-11T17:32:52.313184,12.989,can0  204  [16]  28 58 1C D2 24 99 E9 71 28 23 30 75 30 75 00 00
2026-07-11T17:32:52.313252,12.989,can0  206  [24]  C6 0C 6E 09 CA 0C 99 C6 88 0A C6 0C CA 0C 00 00 00 00 00 00 00 00 00 00
2026-07-11T17:32:52.313392,12.989,can0  204  [16]  28 58 1C D2 24 99 E9 71 28 23 30 75 30 75 00 00
2026-07-11T17:32:52.313713,12.989,can0  070  [20]  A9 2C 4D 08 86 B1 62 03 08 CF 00 00 20 00 00 00 33 00 00 00
2026-07-11T17:32:52.410900,13.086,can0  204  [16]  28 58 1C D2 24 99 E9 71 28 23 30 75 30 75 00 00
2026-07-11T17:32:52.411010,13.086,can0  041  [04]  1E 01 10 00
2026-07-11T17:32:52.411097,13.087,can0  204  [16]  28 58 1C D2 24 99 E9 71 28 23 30 75 30 75 00 00
2026-07-11T17:32:52.411178,13.087,can0  206  [24]  C6 0C 6E 09 CA 0C 99 C6 8D 0A C6 0C CA 0C 00 00 00 00 00 00 00 00 00 00
2026-07-11T17:32:52.411266,13.087,can0  060  [32]  23 DD D5 02 B0 57 4D 08 EC 41 64 03 00 00 27 09 BF 00 80 00 00 00 00 00 01 00 00 00 00 00 00 00
2026-07-11T17:32:52.416946,13.092,can0  040  [04]  3D 01 0F 00
2026-07-11T17:32:52.505194,13.181,can0  110  [02]  38 1B
2026-07-11T17:32:52.505294,13.181,can0  070  [20]  A9 2C 4D 08 86 B1 62 03 08 CF 00 00 20 00 00 00 33 00 00 00
2026-07-11T17:32:52.505634,13.181,can0  204  [16]  28 58 1C D2 24 99 E9 71 28 23 30 75 30 75 00 00
2026-07-11T17:32:52.505722,13.181,can0  040  [04]  3D 01 0F 00
2026-07-11T17:32:52.505951,13.181,can0  204  [16]  28 58 1C D2 24 99 E9 71 28 23 30 75 30 75 00 00
2026-07-11T17:32:52.602767,13.278,can0  204  [16]  28 58 1C D2 24 99 E9 71 28 23 30 75 30 75 00 00
2026-07-11T17:32:52.602866,13.278,can0  206  [24]  C6 0C 6F 09 C6 0C 99 C6 8E 0A CA 0C CA 0C 00 00 00 00 00 00 00 00 00 00
2026-07-11T17:32:52.608519,13.284,can0  204  [16]  28 58 1C D2 24 99 E9 71 28 23 30 75 30 75 00 00
2026-07-11T17:32:52.715111,13.391,can0  041  [04]  10 01 10 00
2026-07-11T17:32:52.716282,13.392,can0  204  [16]  28 58 1C D2 24 99 E9 71 28 23 30 75 30 75 00 00
2026-07-11T17:32:52.716373,13.392,can0  040  [04]  43 01 11 00
2026-07-11T17:32:52.722444,13.398,can0  070  [20]  A9 2C 4D 08 86 B1 62 03 F0 D2 00 00 20 00 00 00 38 00 00 00
2026-07-11T17:32:52.722538,13.398,can0  204  [16]  28 58 1C D2 24 99 E9 71 28 23 30 75 30 75 00 00
2026-07-11T17:32:52.722640,13.398,can0  070  [20]  A9 2C 4D 08 86 B1 62 03 F0 D2 00 00 20 00 00 00 37 00 00 00
2026-07-11T17:32:52.722722,13.398,can0  040  [04]  43 01 11 00
2026-07-11T17:32:52.816302,13.492,can0  206  [24]  C6 0C 6F 09 C6 0C 99 C6 8E 0A CA 0C CA 0C 00 00 00 00 00 00 00 00 00 00
2026-07-11T17:32:52.816662,13.492,can0  204  [16]  28 58 1C D2 24 99 E9 71 28 23 30 75 30 75 00 00
2026-07-11T17:32:52.816819,13.492,can0  070  [20]  A9 2C 4D 08 86 B1 62 03 F0 D2 00 00 20 00 00 00 37 00 00 00
2026-07-11T17:32:52.822515,13.498,can0  204  [16]  28 58 1C D2 24 99 E9 71 28 23 30 75 30 75 00 00
2026-07-11T17:32:52.911330,13.587,can0  100  [03]  52 7F 04
2026-07-11T17:32:52.911601,13.587,can0  120  [04]  00 00 00 00
2026-07-11T17:32:52.911883,13.587,can0  204  [16]  28 58 1C D2 24 99 E9 71 28 23 30 75 30 75 00 00
2026-07-11T17:32:52.912193,13.588,can0  204  [16]  28 58 1C D2 24 99 E9 71 28 23 30 75 30 75 00 00
2026-07-11T17:32:52.912578,13.588,can0  041  [04]  0C 01 10 00
2026-07-11T17:32:52.921151,13.597,can0  206  [24]  C6 0C 6E 09 C6 0C 99 C6 8D 0A CA 0C CA 0C 00 00 00 00 00 00 00 00 00 00
2026-07-11T17:32:53.012314,13.688,can0  040  [04]  48 01 0E 00
2026-07-11T17:32:53.012424,13.688,can0  204  [16]  28 58 1C D2 24 99 E9 71 28 23 30 75 30 75 00 00
2026-07-11T17:32:53.012567,13.688,can0  040  [04]  48 01 0E 00
2026-07-11T17:32:53.012852,13.688,can0  204  [16]  28 58 1C D2 24 99 E9 71 28 23 30 75 30 75 00 00
2026-07-11T17:32:53.108902,13.784,can0  204  [16]  28 58 1C D2 24 99 E9 71 28 23 30 75 30 75 00 00
2026-07-11T17:32:53.118433,13.794,can0  206  [24]  CA 0C 70 09 C1 0C 99 C6 8C 0A CA 0C CA 0C 00 00 00 00 00 00 00 00 00 00
2026-07-11T17:32:53.118530,13.794,can0  204  [16]  28 58 1C D2 24 99 E9 71 28 23 30 75 30 75 00 00
2026-07-11T17:32:53.208470,13.884,can0  204  [16]  28 58 1C D2 24 99 E9 71 28 23 30 75 30 75 00 00
2026-07-11T17:32:53.208760,13.884,can0  041  [04]  0C 01 10 00
2026-07-11T17:32:53.209066,13.885,can0  040  [04]  52 01 0A 00
2026-07-11T17:32:53.209336,13.885,can0  204  [16]  28 58 1C D2 24 99 E9 71 28 23 30 75 30 75 00 00
2026-07-11T17:32:53.307699,13.983,can0  206  [24]  CA 0C 70 09 C1 0C 99 C6 86 0A CA 0C CA 0C 00 00 00 00 00 00 00 00 00 00
2026-07-11T17:32:53.309637,13.985,can0  040  [04]  52 01 0A 00
2026-07-11T17:32:53.309724,13.985,can0  204  [16]  28 58 1C D2 24 99 E9 71 28 23 30 75 30 75 00 00
2026-07-11T17:32:53.309819,13.985,can0  070  [20]  A9 2C 4D 08 86 B1 62 03 F0 D2 00 00 20 00 00 00 37 00 00 00
2026-07-11T17:32:53.316725,13.992,can0  204  [16]  28 58 1C D2 24 99 E9 71 28 23 30 75 30 75 00 00
2026-07-11T17:32:53.407613,14.083,can0  204  [16]  28 58 1C D2 24 99 E9 71 28 23 30 75 30 75 00 00
2026-07-11T17:32:53.410941,14.086,can0  206  [24]  C6 0C 6F 09 CA 0C 99 C6 86 0A C6 0C CA 0C 00 00 00 00 00 00 00 00 00 00
2026-07-11T17:32:53.508018,14.183,can0  204  [16]  28 58 1C D2 24 99 E9 71 28 23 30 75 30 75 00 00
2026-07-11T17:32:53.508281,14.184,can0  041  [04]  10 01 10 00
2026-07-11T17:32:53.508655,14.184,can0  204  [16]  28 58 1C D2 24 99 E9 71 28 23 30 75 30 75 00 00
2026-07-11T17:32:53.508926,14.184,can0  070  [20]  A9 2C 4D 08 86 B1 62 03 F0 D2 00 00 20 00 00 00 37 00 00 00
2026-07-11T17:32:53.509188,14.185,can0  040  [04]  60 01 0A 00
2026-07-11T17:32:53.509540,14.185,can0  204  [16]  28 58 1C D2 24 99 E9 71 28 23 30 75 30 75 00 00
2026-07-11T17:32:53.609879,14.285,can0  040  [04]  60 01 0A 00
2026-07-11T17:32:53.609946,14.285,can0  204  [16]  28 58 1C D2 24 99 E9 71 28 23 30 75 30 75 00 00
2026-07-11T17:32:53.609991,14.285,can0  206  [24]  C6 0C 6F 09 CA 0C 99 C6 86 0A C6 0C CA 0C 00 00 00 00 00 00 00 00 00 00
2026-07-11T17:32:53.613566,14.289,can0  204  [16]  28 58 1C D2 24 99 E9 71 28 23 30 75 30 75 00 00
2026-07-11T17:32:53.711880,14.387,can0  204  [16]  28 58 1C D2 24 99 E9 71 28 23 30 75 30 75 00 00
2026-07-11T17:32:53.711986,14.387,can0  070  [20]  A9 2C 4D 08 88 B1 62 03 D8 D6 00 00 20 00 00 00 2C 00 00 00
2026-07-11T17:32:53.712583,14.388,can0  041  [04]  15 01 0F 00
2026-07-11T17:32:53.713070,14.389,can0  204  [16]  28 58 1C D2 24 99 E9 71 28 23 30 75 30 75 00 00
2026-07-11T17:32:53.713471,14.389,can0  060  [32]  48 40 D6 02 40 65 4D 08 BD 44 64 03 00 00 25 08 D0 00 80 00 00 00 00 00 03 00 00 00 00 00 00 00
2026-07-11T17:32:53.713877,14.389,can0  060  [32]  00 00 00 00 A9 2C 4D 08 DB 06 B8 10 00 00 10 0E FF 01 00 00 00 00 00 01 03 00 00 00 00 00 00 00
2026-07-11T17:32:53.714083,14.390,can0  060  [32]  EB DC D5 02 C4 84 4D 08 7E 6B 62 03 48 00 09 0A FF 01 00 00 00 00 00 02 03 00 00 00 00 00 00 00
2026-07-11T17:32:53.823750,14.499,can0  206  [24]  C6 0C 70 09 CF 0C 99 C6 85 0A C1 0C CA 0C 00 00 00 00 00 00 00 00 00 00
2026-07-11T17:32:53.824031,14.500,can0  070  [20]  A9 2C 4D 08 88 B1 62 03 D8 D6 00 00 20 00 00 00 2C 00 00 00
2026-07-11T17:32:53.824247,14.500,can0  040  [04]  04 00 0E 00
2026-07-11T17:32:53.825017,14.500,can0  204  [16]  28 58 1C D2 24 99 E9 71 28 23 30 75 30 75 00 00
2026-07-11T17:32:53.825093,14.501,can0  040  [04]  04 00 0E 00
2026-07-11T17:32:53.825158,14.501,can0  204  [16]  28 58 1C D2 24 99 E9 71 28 23 30 75 30 75 00 00
2026-07-11T17:32:53.876338,14.552,can0  070  [20]  A9 2C 4D 08 88 B1 62 03 D8 D6 00 00 20 00 00 00 2C 00 00 00
2026-07-11T17:32:53.876438,14.552,can0  204  [16]  28 58 1C D2 24 99 E9 71 28 23 30 75 30 75 00 00
2026-07-11T17:32:53.879685,14.555,can0  206  [24]  C6 0C 6E 09 CF 0C 99 C6 86 0A C1 0C CA 0C 00 00 00 00 00 00 00 00 00 00
2026-07-11T17:32:53.879770,14.555,can0  204  [16]  28 58 1C D2 24 99 E9 71 28 23 30 75 30 75 00 00
2026-07-11T17:32:53.977286,14.653,can0  041  [04]  10 01 10 00
2026-07-11T17:32:53.977647,14.653,can0  204  [16]  28 58 1C D2 24 99 E9 71 28 23 30 75 30 75 00 00
2026-07-11T17:32:53.977959,14.653,can0  040  [04]  08 00 0A 00
2026-07-11T17:32:53.978634,14.654,can0  204  [16]  28 58 1C D2 24 99 E9 71 28 23 30 75 30 75 00 00
2026-07-11T17:32:53.978718,14.654,can0  100  [03]  48 7F 04
2026-07-11T17:32:53.978973,14.654,can0  110  [02]  39 1B
2026-07-11T17:32:53.979055,14.655,can0  120  [04]  00 00 00 00
2026-07-11T17:32:54.078479,14.754,can0  040  [04]  08 00 0A 00
2026-07-11T17:32:54.087934,14.763,can0  204  [16]  28 58 1C D2 24 99 E9 71 28 23 30 75 30 75 00 00
2026-07-11T17:32:54.088024,14.763,can0  206  [24]  CA 0C 6E 09 CB 0C 99 C6 88 0A C1 0C CA 0C 00 00 00 00 00 00 00 00 00 00
2026-07-11T17:32:54.088120,14.764,can0  204  [16]  28 58 1C D2 24 99 E9 71 28 23 30 75 30 75 00 00
2026-07-11T17:32:54.182937,14.858,can0  204  [16]  28 58 1C D2 24 99 E9 71 28 23 30 75 30 75 00 00
2026-07-11T17:32:54.188693,14.864,can0  204  [16]  28 58 1C D2 24 99 E9 71 28 23 30 75 30 75 00 00
2026-07-11T17:32:54.286086,14.962,can0  041  [04]  0B 01 0E 00
2026-07-11T17:32:54.286183,14.962,can0  206  [24]  CA 0C 6E 09 CB 0C 99 C6 88 0A C1 0C CA 0C 00 00 00 00 00 00 00 00 00 00
2026-07-11T17:32:54.286271,14.962,can0  040  [04]  45 01 06 00
2026-07-11T17:32:54.286359,14.962,can0  204  [16]  28 58 1C D2 24 99 E9 71 28 23 30 75 30 75 00 00
2026-07-11T17:32:54.292289,14.968,can0  040  [04]  45 01 06 00
2026-07-11T17:32:54.292375,14.968,can0  204  [16]  28 58 1C D2 24 99 E9 71 28 23 30 75 30 75 00 00
2026-07-11T17:32:54.388446,15.064,can0  070  [20]  A9 2C 4D 08 88 B1 62 03 D8 D6 00 00 20 00 00 00 2C 00 00 00
2026-07-11T17:32:54.388792,15.064,can0  204  [16]  28 58 1C D2 24 99 E9 71 28 23 30 75 30 75 00 00
2026-07-11T17:32:54.391541,15.067,can0  206  [24]  CA 0C 6E 09 C6 0C 99 C6 89 0A C6 0C CA 0C 00 00 00 00 00 00 00 00 00 00
2026-07-11T17:32:54.397101,15.073,can0  204  [16]  28 58 1C D2 24 99 E9 71 28 23 30 75 30 75 00 00
2026-07-11T17:32:54.492648,15.168,can0  070  [20]  A9 2C 4D 08 88 B1 62 03 D8 D6 00 00 20 00 00 00 2C 00 00 00
2026-07-11T17:32:54.492944,15.168,can0  204  [16]  28 58 1C D2 24 99 E9 71 28 23 30 75 30 75 00 00
2026-07-11T17:32:54.493434,15.169,can0  041  [04]  04 01 0C 00
2026-07-11T17:32:54.493520,15.169,can0  204  [16]  28 58 1C D2 24 99 E9 71 28 23 30 75 30 75 00 00
2026-07-11T17:32:54.499837,15.175,can0  040  [04]  15 01 09 00
2026-07-11T17:32:54.599421,15.275,can0  206  [24]  CA 0C 6E 09 C6 0C 99 C6 89 0A C6 0C CA 0C 00 00 00 00 00 00 00 00 00 00
2026-07-11T17:32:54.599777,15.275,can0  204  [16]  28 58 1C D2 24 99 E9 71 28 23 30 75 30 75 00 00
2026-07-11T17:32:54.599963,15.275,can0  040  [04]  15 01 09 00
2026-07-11T17:32:54.605996,15.281,can0  204  [16]  28 58 1C D2 24 99 E9 71 28 23 30 75 30 75 00 00
2026-07-11T17:32:54.718590,15.394,can0  204  [16]  28 58 1C D2 24 99 E9 71 28 23 30 75 30 75 00 00
2026-07-11T17:32:54.718884,15.394,can0  070  [20]  A7 2C 4D 08 88 B1 62 03 C0 DA 00 00 20 00 00 00 38 00 00 00
2026-07-11T17:32:54.719339,15.395,can0  070  [20]  A7 2C 4D 08 88 B1 62 03 C0 DA 00 00 20 00 00 00 38 00 00 00
2026-07-11T17:32:54.719439,15.395,can0  204  [16]  28 58 1C D2 24 99 E9 71 28 23 30 75 30 75 00 00
2026-07-11T17:32:54.822471,15.498,can0  206  [24]  CA 0C 6F 09 C6 0C 99 C6 89 0A C6 0C CA 0C 00 00 00 00 00 00 00 00 00 00
2026-07-11T17:32:54.822540,15.498,can0  041  [04]  E8 00 0C 00
2026-07-11T17:32:54.822727,15.498,can0  060  [32]  00 00 00 00 A7 2C 4D 08 DC 06 B8 10 00 00 10 0E FF 01 00 00 00 00 00 00 02 00 00 00 00 00 00 00
2026-07-11T17:32:54.823147,15.499,can0  060  [32]  68 97 D6 02 1E 42 4D 08 8E 6D B8 10 4D 00 22 0A FF 01 00 00 00 00 00 01 02 00 00 00 00 00 00 00
2026-07-11T17:32:54.823488,15.499,can0  204  [16]  28 58 1C D2 24 99 E9 71 28 23 30 75 30 75 00 00
2026-07-11T17:32:54.823710,15.499,can0  040  [04]  0C 01 0D 00
2026-07-11T17:32:54.829082,15.505,can0  070  [20]  A7 2C 4D 08 88 B1 62 03 C0 DA 00 00 20 00 00 00 38 00 00 00
2026-07-11T17:32:54.922645,15.598,can0  204  [16]  28 58 1C D2 24 99 E9 71 28 23 30 75 30 75 00 00
2026-07-11T17:32:54.922946,15.598,can0  040  [04]  0C 01 0D 00
2026-07-11T17:32:54.923263,15.599,can0  204  [16]  28 58 1C D2 24 99 E9 71 28 23 30 75 30 75 00 00
2026-07-11T17:32:54.930251,15.606,can0  206  [24]  CA 0C 6F 09 CB 0C 99 C6 88 0A C5 0C CA 0C 00 00 00 00 00 00 00 00 00 00
2026-07-11T17:32:54.930360,15.606,can0  204  [16]  28 58 1C D2 24 99 E9 71 28 23 30 75 30 75 00 00
2026-07-11T17:32:55.027434,15.703,can0  204  [16]  28 58 1C D2 24 99 E9 71 28 23 30 75 30 75 00 00
2026-07-11T17:32:55.117229,15.793,can0  204  [16]  28 58 1C D2 24 99 E9 71 28 23 30 75 30 75 00 00
2026-07-11T17:32:55.120242,15.796,can0  041  [04]  F2 00 0D 00
2026-07-11T17:32:55.120307,15.796,can0  206  [24]  C6 0C 6E 09 CF 0C 99 C6 88 0A C5 0C CA 0C 00 00 00 00 00 00 00 00 00 00
2026-07-11T17:32:55.120611,15.796,can0  040  [04]  0C 01 0F 00
2026-07-11T17:32:55.126384,15.802,can0  204  [16]  28 58 1C D2 24 99 E9 71 28 23 30 75 30 75 00 00
2026-07-11T17:32:55.218169,15.894,can0  040  [04]  0C 01 0F 00
2026-07-11T17:32:55.218571,15.894,can0  204  [16]  28 58 1C D2 24 99 E9 71 28 23 30 75 30 75 00 00
2026-07-11T17:32:55.218813,15.894,can0  204  [16]  28 58 1C D2 24 99 E9 71 28 23 30 75 30 75 00 00
2026-07-11T17:32:55.219259,15.895,can0  100  [03]  43 7F 04
2026-07-11T17:32:55.219355,15.895,can0  120  [04]  00 00 00 00
2026-07-11T17:32:55.227305,15.903,can0  206  [24]  C0 0C 6F 09 CF 0C 99 C6 88 0A C1 0C D0 0C 00 00 00 00 00 00 00 00 00 00
2026-07-11T17:32:55.319661,15.995,can0  204  [16]  28 58 1C D2 24 99 E9 71 28 23 30 75 30 75 00 00
2026-07-11T17:32:55.319972,15.995,can0  204  [16]  28 58 1C D2 24 99 E9 71 28 23 30 75 30 75 00 00
2026-07-11T17:32:55.320631,15.996,can0  060  [32]  78 FC D5 02 BB 74 4D 08 5F CC 64 03 34 00 B9 01 FF 01 00 00 00 00 00 00 02 00 00 00 00 00 00 00
2026-07-11T17:32:55.320720,15.996,can0  060  [32]  D7 93 D6 02 2D 82 4D 08 DB 1B 64 03 86 00 E7 0D 5B 01 01 00 00 00 00 01 02 00 00 00 00 00 00 00
2026-07-11T17:32:55.321019,15.996,can0  041  [04]  F0 00 0E 00
2026-07-11T17:32:55.321306,15.997,can0  070  [20]  A7 2C 4D 08 88 B1 62 03 C0 DA 00 00 20 00 00 00 38 00 00 00
2026-07-11T17:32:55.424994,16.100,can0  204  [16]  28 58 1C D2 24 99 E9 71 28 23 30 75 30 75 00 00
2026-07-11T17:32:55.425302,16.101,can0  040  [04]  0C 01 0F 00
2026-07-11T17:32:55.425660,16.101,can0  204  [16]  28 58 1C D2 24 99 E9 71 28 23 30 75 30 75 00 00
2026-07-11T17:32:55.425971,16.101,can0  040  [04]  0C 01 0F 00
2026-07-11T17:32:55.430715,16.106,can0  206  [24]  C5 0C 6F 09 D0 0C 99 C6 87 0A C0 0C D0 0C 00 00 00 00 00 00 00 00 00 00
2026-07-11T17:32:55.484140,16.160,can0  204  [16]  28 58 1C D2 24 99 E9 71 28 23 30 75 30 75 00 00
2026-07-11T17:32:55.490428,16.166,can0  070  [20]  A7 2C 4D 08 88 B1 62 03 C0 DA 00 00 20 00 00 00 38 00 00 00
2026-07-11T17:32:55.490518,16.166,can0  204  [16]  28 58 1C D2 24 99 E9 71 28 23 30 75 30 75 00 00
2026-07-11T17:32:55.582470,16.258,can0  204  [16]  28 58 1C D2 24 99 E9 71 28 23 30 75 30 75 00 00
2026-07-11T17:32:55.591777,16.267,can0  206  [24]  CA 0C 6D 09 D0 0C 99 C6 87 0A C0 0C CA 0C 00 00 00 00 00 00 00 00 00 00
2026-07-11T17:32:55.591842,16.267,can0  041  [04]  FC 00 10 00
2026-07-11T17:32:55.591885,16.267,can0  204  [16]  28 58 1C D2 24 99 E9 71 28 23 30 75 30 75 00 00
2026-07-11T17:32:55.591958,16.267,can0  040  [04]  04 01 0D 00
2026-07-11T17:32:55.592004,16.267,can0  110  [02]  38 1B
2026-07-11T17:32:55.684887,16.360,can0  204  [16]  28 58 1C D2 24 99 E9 71 28 23 30 75 30 75 00 00
2026-07-11T17:32:55.685164,16.361,can0  040  [04]  04 01 0D 00
2026-07-11T17:32:55.685538,16.361,can0  204  [16]  28 58 1C D2 24 99 E9 71 28 23 30 75 30 75 00 00
2026-07-11T17:32:55.685871,16.361,can0  070  [20]  A7 2C 4D 08 88 B1 62 03 A8 DE 00 00 20 00 00 00 32 00 00 00
2026-07-11T17:32:55.686149,16.362,can0  070  [20]  A7 2C 4D 08 88 B1 62 03 A8 DE 00 00 20 00 00 00 32 00 00 00
2026-07-11T17:32:55.689672,16.365,can0  206  [24]  CA 0C 6E 09 D0 0C 99 C6 88 0A C0 0C CA 0C 00 00 00 00 00 00 00 00 00 00
2026-07-11T17:32:55.786265,16.462,can0  204  [16]  28 58 1C D2 24 99 E9 71 28 23 30 75 30 75 00 00
2026-07-11T17:32:55.786576,16.462,can0  204  [16]  28 58 1C D2 24 99 E9 71 28 23 30 75 30 75 00 00
2026-07-11T17:32:55.786818,16.462,can0  070  [20]  A7 2C 4D 08 88 B1 62 03 A8 DE 00 00 20 00 00 00 32 00 00 00
2026-07-11T17:32:55.880722,16.556,can0  041  [04]  00 01 10 00
2026-07-11T17:32:55.881054,16.557,can0  204  [16]  28 58 1C D2 24 99 E9 71 28 23 30 75 30 75 00 00
2026-07-11T17:32:55.881311,16.557,can0  040  [04]  02 01 0C 00
2026-07-11T17:32:55.883236,16.559,can0  204  [16]  28 58 1C D2 24 99 E9 71 28 23 30 75 30 75 00 00
2026-07-11T17:32:55.883296,16.559,can0  206  [24]  CA 0C 6E 09 D0 0C 99 C6 88 0A BC 0C CA 0C 00 00 00 00 00 00 00 00 00 00
2026-07-11T17:32:55.885475,16.561,can0  060  [32]  00 00 00 00 A7 2C 4D 08 DC 06 B8 10 00 00 10 0E FF 01 00 00 00 00 00 00 02 00 00 00 00 00 00 00
2026-07-11T17:32:55.885581,16.561,can0  060  [32]  46 75 D6 02 B0 98 4D 08 35 48 B9 10 45 00 F7 04 7D 00 00 00 00 00 00 01 02 00 00 00 00 00 00 00
2026-07-11T17:32:55.891142,16.567,can0  040  [04]  02 01 0C 00
2026-07-11T17:32:56.023031,16.699,can0  204  [16]  28 58 1C D2 24 99 E9 71 28 23 30 75 30 75 00 00
2026-07-11T17:32:56.023367,16.699,can0  204  [16]  28 58 1C D2 24 99 E9 71 28 23 30 75 30 75 00 00
2026-07-11T17:32:56.115709,16.791,can0  204  [16]  28 58 1C D2 24 99 E9 71 28 23 30 75 30 75 00 00
2026-07-11T17:32:56.118632,16.794,can0  206  [24]  CA 0C 6D 09 CB 0C 99 C6 8A 0A C5 0C CA 0C 00 00 00 00 00 00 00 00 00 00
2026-07-11T17:32:56.119021,16.794,can0  204  [16]  28 58 1C D2 24 99 E9 71 28 23 30 75 30 75 00 00
2026-07-11T17:32:56.124541,16.800,can0  041  [04]  FA 00 0F 00
2026-07-11T17:32:56.213285,16.889,can0  040  [04]  F2 00 0C 00
2026-07-11T17:32:56.213698,16.889,can0  204  [16]  28 58 1C D2 24 99 E9 71 28 23 30 75 30 75 00 00
2026-07-11T17:32:56.214104,16.890,can0  204  [16]  28 58 1C D2 24 99 E9 71 28 23 30 75 30 75 00 00
2026-07-11T17:32:56.214332,16.890,can0  040  [04]  F2 00 0C 00
2026-07-11T17:32:56.311402,16.987,can0  206  [24]  CA 0C 6C 09 C6 0C 99 C6 8C 0A CA 0C CA 0C 00 00 00 00 00 00 00 00 00 00
2026-07-11T17:32:56.311955,16.987,can0  204  [16]  28 58 1C D2 24 99 E9 71 28 23 30 75 30 75 00 00
2026-07-11T17:32:56.312038,16.988,can0  204  [16]  28 58 1C D2 24 99 E9 71 28 23 30 75 30 75 00 00
2026-07-11T17:32:56.312137,16.988,can0  131  [00]
2026-07-11T17:32:56.312420,16.988,can0  070  [20]  A7 2C 4D 08 88 B1 62 03 A8 DE 00 00 20 00 00 00 32 00 00 00
2026-07-11T17:32:56.408619,17.084,can0  204  [16]  28 58 1C D2 24 99 E9 71 28 23 30 75 30 75 00 00
2026-07-11T17:32:56.408712,17.084,can0  041  [04]  FA 00 0D 00
2026-07-11T17:32:56.408799,17.084,can0  206  [24]  C5 0C 6D 09 C6 0C 99 C6 8D 0A CA 0C D0 0C 00 00 00 00 00 00 00 00 00 00
2026-07-11T17:32:56.409365,17.085,can0  204  [16]  28 58 1C D2 24 99 E9 71 28 23 30 75 30 75 00 00
2026-07-11T17:32:56.409451,17.085,can0  060  [32]  00 00 00 00 00 00 00 00 00 00 00 00 00 00 00 00 00 00 00 00 00 00 00 00 00 00 00 00 00 00 00 00
2026-07-11T17:32:56.409538,17.085,can0  040  [04]  0C 01 0D 00
2026-07-11T17:32:56.409634,17.085,can0  100  [03]  3E 7F 04
2026-07-11T17:32:56.503418,17.179,can0  120  [04]  00 00 00 00
2026-07-11T17:32:56.507620,17.183,can0  070  [20]  A7 2C 4D 08 88 B1 62 03 A8 DE 00 00 20 00 00 00 32 00 00 00
2026-07-11T17:32:56.514173,17.190,can0  204  [16]  28 58 1C D2 24 99 E9 71 28 23 30 75 30 75 00 00
2026-07-11T17:32:56.514275,17.190,can0  040  [04]  0C 01 0D 00
2026-07-11T17:32:56.514373,17.190,can0  204  [16]  28 58 1C D2 24 99 E9 71 28 23 30 75 30 75 00 00
2026-07-11T17:32:56.608717,17.284,can0  204  [16]  28 58 1C D2 24 99 E9 71 28 23 30 75 30 75 00 00
2026-07-11T17:32:56.608808,17.284,can0  206  [24]  CA 0C 6D 09 C6 0C 99 C6 8C 0A CA 0C CA 0C 00 00 00 00 00 00 00 00 00 00
2026-07-11T17:32:56.608900,17.284,can0  204  [16]  28 58 1C D2 24 99 E9 71 28 23 30 75 30 75 00 00
2026-07-11T17:32:56.698441,17.374,can0  041  [04]  F4 00 0C 00
2026-07-11T17:32:56.698755,17.374,can0  204  [16]  28 58 1C D2 24 99 E9 71 28 23 30 75 30 75 00 00
2026-07-11T17:32:56.699047,17.375,can0  040  [04]  16 01 09 00
2026-07-11T17:32:56.699402,17.375,can0  070  [20]  A7 2C 4D 08 89 B1 62 03 90 E2 00 00 20 00 00 00 1A 00 00 00
2026-07-11T17:32:56.699627,17.375,can0  204  [16]  28 58 1C D2 24 99 E9 71 28 23 30 75 30 75 00 00
2026-07-11T17:32:56.699858,17.375,can0  040  [04]  16 01 09 00
2026-07-11T17:32:56.707937,17.383,can0  206  [24]  CA 0C 6E 09 C6 0C 99 C6 8C 0A C6 0C CA 0C 00 00 00 00 00 00 00 00 00 00
2026-07-11T17:32:56.795917,17.471,can0  070  [20]  A7 2C 4D 08 89 B1 62 03 90 E2 00 00 20 00 00 00 1A 00 00 00
2026-07-11T17:32:56.796212,17.472,can0  204  [16]  28 58 1C D2 24 99 E9 71 28 23 30 75 30 75 00 00
2026-07-11T17:32:56.796433,17.472,can0  060  [32]  00 00 00 00 A7 2C 4D 08 DE 06 B8 10 00 00 10 0E FF 01 00 00 00 00 00 00 01 00 00 00 00 00 00 00
2026-07-11T17:32:56.797185,17.473,can0  204  [16]  28 58 1C D2 24 99 E9 71 28 23 30 75 30 75 00 00
2026-07-11T17:32:56.797565,17.473,can0  070  [20]  A7 2C 4D 08 89 B1 62 03 90 E2 00 00 20 00 00 00 1A 00 00 00
2026-07-11T17:32:56.889527,17.565,can0  204  [16]  28 58 1C D2 24 99 E9 71 28 23 30 75 30 75 00 00
2026-07-11T17:32:56.892359,17.568,can0  133  [00]
2026-07-11T17:32:56.892442,17.568,can0  206  [24]  C0 0C 6E 09 CA 0C 99 C6 8A 0A C6 0C D0 0C 00 00 00 00 00 00 00 00 00 00
2026-07-11T17:32:56.892687,17.568,can0  041  [04]  E4 00 0D 00
2026-07-11T17:32:56.893085,17.569,can0  204  [16]  28 58 1C D2 24 99 E9 71 28 23 30 75 30 75 00 00
2026-07-11T17:32:56.989898,17.665,can0  040  [04]  26 01 05 00
2026-07-11T17:32:56.989988,17.665,can0  204  [16]  28 58 1C D2 24 99 E9 71 28 23 30 75 30 75 00 00
2026-07-11T17:32:56.990074,17.666,can0  040  [04]  26 01 05 00
2026-07-11T17:32:56.996136,17.672,can0  204  [16]  28 58 1C D2 24 99 E9 71 28 23 30 75 30 75 00 00
2026-07-11T17:32:57.092181,17.768,can0  204  [16]  28 58 1C D2 24 99 E9 71 28 23 30 75 30 75 00 00
2026-07-11T17:32:57.092273,17.768,can0  206  [24]  C0 0C 6F 09 CF 0C 99 C6 8B 0A C1 0C D0 0C 00 00 00 00 00 00 00 00 00 00
2026-07-11T17:32:57.098632,17.774,can0  204  [16]  28 58 1C D2 24 99 E9 71 28 23 30 75 30 75 00 00
2026-07-11T17:32:57.190536,17.866,can0  204  [16]  28 58 1C D2 24 99 E9 71 28 23 30 75 30 75 00 00
2026-07-11T17:32:57.190649,17.866,can0  041  [04]  E1 00 11 00
2026-07-11T17:32:57.190730,17.866,can0  040  [04]  19 01 06 00
2026-07-11T17:32:57.193408,17.869,can0  204  [16]  28 58 1C D2 24 99 E9 71 28 23 30 75 30 75 00 00
2026-07-11T17:32:57.193494,17.869,can0  206  [24]  C6 0C 70 09 CA 0C 99 C6 8A 0A C1 0C CA 0C 00 00 00 00 00 00 00 00 00 00
2026-07-11T17:32:57.199931,17.875,can0  110  [02]  39 1B
2026-07-11T17:32:57.289855,17.965,can0  040  [04]  19 01 06 00
2026-07-11T17:32:57.289958,17.965,can0  204  [16]  28 58 1C D2 24 99 E9 71 28 23 30 75 30 75 00 00
2026-07-11T17:32:57.290303,17.966,can0  204  [16]  28 58 1C D2 24 99 E9 71 28 23 30 75 30 75 00 00
2026-07-11T17:32:57.290604,17.966,can0  070  [20]  A7 2C 4D 08 89 B1 62 03 90 E2 00 00 20 00 00 00 1A 00 00 00
2026-07-11T17:32:57.389970,18.065,can0  204  [16]  28 58 1C D2 24 99 E9 71 28 23 30 75 30 75 00 00
2026-07-11T17:32:57.392601,18.068,can0  206  [24]  C6 0C 70 09 CA 0C 99 C6 8B 0A C1 0C CA 0C 00 00 00 00 00 00 00 00 00 00
2026-07-11T17:32:57.396064,18.072,can0  204  [16]  28 58 1C D2 24 99 E9 71 28 23 30 75 30 75 00 00
2026-07-11T17:32:57.396149,18.072,can0  041  [04]  E2 00 16 00
2026-07-11T17:32:57.489249,18.165,can0  070  [20]  A7 2C 4D 08 89 B1 62 03 90 E2 00 00 20 00 00 00 1A 00 00 00
2026-07-11T17:32:57.495996,18.171,can0  040  [04]  19 01 06 00
2026-07-11T17:32:57.496085,18.172,can0  204  [16]  28 58 1C D2 24 99 E9 71 28 23 30 75 30 75 00 00
2026-07-11T17:32:57.496176,18.172,can0  204  [16]  28 58 1C D2 24 99 E9 71 28 23 30 75 30 75 00 00
2026-07-11T17:32:57.496259,18.172,can0  040  [04]  19 01 06 00
2026-07-11T17:32:57.592115,18.268,can0  206  [24]  C6 0C 6F 09 CA 0C 99 C6 8A 0A C6 0C CA 0C 00 00 00 00 00 00 00 00 00 00
2026-07-11T17:32:57.592443,18.268,can0  204  [16]  28 58 1C D2 24 99 E9 71 28 23 30 75 30 75 00 00
2026-07-11T17:32:57.592753,18.268,can0  204  [16]  28 58 1C D2 24 99 E9 71 28 23 30 75 30 75 00 00
2026-07-11T17:32:57.596436,18.272,can0  100  [03]  3F 7F 04
2026-07-11T17:32:57.596520,18.272,can0  120  [04]  00 00 00 00
2026-07-11T17:32:57.691270,18.367,can0  204  [16]  28 58 1C D2 24 99 E9 71 28 23 30 75 30 75 00 00
2026-07-11T17:32:57.691596,18.367,can0  041  [04]  E4 00 18 00
2026-07-11T17:32:57.692133,18.368,can0  070  [20]  A7 2C 4D 08 89 B1 62 03 78 E6 00 00 20 00 00 00 1A 00 00 00
2026-07-11T17:32:57.692365,18.368,can0  204  [16]  28 58 1C D2 24 99 E9 71 28 23 30 75 30 75 00 00
2026-07-11T17:32:57.695154,18.371,can0  206  [24]  C6 0C 6F 09 CA 0C 86 CB 88 0A C6 0C CA 0C 00 00 00 00 00 00 00 00 00 00
2026-07-11T17:32:57.696844,18.372,can0  070  [20]  A7 2C 4D 08 89 B1 62 03 78 E6 00 00 20 00 00 00 1A 00 00 00
2026-07-11T17:32:57.797585,18.473,can0  040  [04]  0C 01 08 00
2026-07-11T17:32:57.797715,18.473,can0  204  [16]  28 58 1C D2 24 99 E9 71 28 23 30 75 30 75 00 00
2026-07-11T17:32:57.797807,18.473,can0  040  [04]  0C 01 08 00
2026-07-11T17:32:57.797888,18.473,can0  060  [32]  26 6B D6 02 33 BD 4D 08 B1 1E 64 03 00 00 5B 0C 06 00 80 00 00 00 00 00 02 00 00 00 00 00 00 00
2026-07-11T17:32:57.797971,18.473,can0  060  [32]  00 00 00 00 A7 2C 4D 08 DE 06 B8 10 00 00 10 0E FF 01 00 00 00 00 00 01 02 00 00 00 00 00 00 00
2026-07-11T17:32:57.798058,18.474,can0  204  [16]  28 58 1C D2 24 99 E9 71 28 23 30 75 30 75 00 00
2026-07-11T17:32:57.892025,18.568,can0  070  [20]  A7 2C 4D 08 89 B1 62 03 78 E6 00 00 20 00 00 00 1A 00 00 00
2026-07-11T17:32:57.892115,18.568,can0  204  [16]  28 58 1C D2 24 99 E9 71 28 23 30 75 30 75 00 00
2026-07-11T17:32:57.892199,18.568,can0  206  [24]  C6 0C 6F 09 C6 0C 86 CB 86 0A C6 0C CA 0C 00 00 00 00 00 00 00 00 00 00
2026-07-11T17:32:57.898366,18.574,can0  204  [16]  28 58 1C D2 24 99 E9 71 28 23 30 75 30 75 00 00
2026-07-11T17:32:57.990036,18.666,can0  041  [04]  E0 00 18 00
2026-07-11T17:32:57.990490,18.666,can0  204  [16]  28 58 1C D2 24 99 E9 71 28 23 30 75 30 75 00 00
2026-07-11T17:32:57.990591,18.666,can0  040  [04]  0C 01 0C 00
2026-07-11T17:32:57.996373,18.672,can0  204  [16]  28 58 1C D2 24 99 E9 71 28 23 30 75 30 75 00 00
2026-07-11T17:32:58.092170,18.768,can0  206  [24]  C6 0C 6F 09 C6 0C 86 CB 87 0A C6 0C CA 0C 00 00 00 00 00 00 00 00 00 00
2026-07-11T17:32:58.092425,18.768,can0  040  [04]  0C 01 0C 00
2026-07-11T17:32:58.096598,18.772,can0  204  [16]  28 58 1C D2 24 99 E9 71 28 23 30 75 30 75 00 00
2026-07-11T17:32:58.096722,18.772,can0  204  [16]  28 58 1C D2 24 99 E9 71 28 23 30 75 30 75 00 00
2026-07-11T17:32:58.192180,18.868,can0  204  [16]  28 58 1C D2 24 99 E9 71 28 23 30 75 30 75 00 00
2026-07-11T17:32:58.192272,18.868,can0  206  [24]  C6 0C 6E 09 CA 0C 86 CB 86 0A C6 0C CA 0C 00 00 00 00 00 00 00 00 00 00
2026-07-11T17:32:58.192503,18.868,can0  204  [16]  28 58 1C D2 24 99 E9 71 28 23 30 75 30 75 00 00
2026-07-11T17:32:58.198962,18.874,can0  041  [04]  E2 00 18 00
2026-07-11T17:32:58.290632,18.966,can0  040  [04]  0C 01 0F 00
2026-07-11T17:32:58.290697,18.966,can0  204  [16]  28 58 1C D2 24 99 E9 71 28 23 30 75 30 75 00 00
2026-07-11T17:32:58.290741,18.966,can0  060  [32]  00 00 00 00 00 00 00 00 00 00 00 00 00 00 00 00 00 00 00 00 00 00 00 00 00 00 00 00 00 00 00 00
2026-07-11T17:32:58.290790,18.966,can0  040  [04]  0C 01 0F 00
2026-07-11T17:32:58.297344,18.973,can0  204  [16]  28 58 1C D2 24 99 E9 71 28 23 30 75 30 75 00 00
2026-07-11T17:32:58.389651,19.065,can0  060  [32]  D7 93 D6 02 CE 82 4D 08 91 1B 64 03 85 00 D8 0D 5A 01 01 00 00 00 00 00 01 00 00 00 00 00 00 00
2026-07-11T17:32:58.401482,19.077,can0  070  [20]  A7 2C 4D 08 89 B1 62 03 78 E6 00 00 20 00 00 00 1A 00 00 00
2026-07-11T17:32:58.401572,19.077,can0  204  [16]  28 58 1C D2 24 99 E9 71 28 23 30 75 30 75 00 00
2026-07-11T17:32:58.401624,19.077,can0  206  [24]  C6 0C 6D 09 CA 0C 86 CB 87 0A C6 0C CA 0C 00 00 00 00 00 00 00 00 00 00
2026-07-11T17:32:58.401694,19.077,can0  204  [16]  28 58 1C D2 24 99 E9 71 28 23 30 75 30 75 00 00
2026-07-11T17:32:58.490423,19.166,can0  070  [20]  A7 2C 4D 08 89 B1 62 03 78 E6 00 00 20 00 00 00 1A 00 00 00
2026-07-11T17:32:58.490486,19.166,can0  204  [16]  28 58 1C D2 24 99 E9 71 28 23 30 75 30 75 00 00
2026-07-11T17:32:58.490537,19.166,can0  041  [04]  E0 00 17 00
2026-07-11T17:32:58.490588,19.166,can0  204  [16]  28 58 1C D2 24 99 E9 71 28 23 30 75 30 75 00 00
2026-07-11T17:32:58.490632,19.166,can0  040  [04]  0C 01 0C 00
2026-07-11T17:32:58.591959,19.267,can0  206  [24]  CA 0C 6D 09 C1 0C 99 C6 88 0A CA 0C CA 0C 00 00 00 00 00 00 00 00 00 00
2026-07-11T17:32:58.592023,19.267,can0  204  [16]  28 58 1C D2 24 99 E9 71 28 23 30 75 30 75 00 00
2026-07-11T17:32:58.592195,19.268,can0  040  [04]  0C 01 0C 00
2026-07-11T17:32:58.592436,19.268,can0  204  [16]  28 58 1C D2 24 99 E9 71 28 23 30 75 30 75 00 00
2026-07-11T17:32:58.690037,19.366,can0  204  [16]  28 58 1C D2 24 99 E9 71 28 23 30 75 30 75 00 00
2026-07-11T17:32:58.693759,19.369,can0  070  [20]  A7 2C 4D 08 89 B1 62 03 00 00 00 00 21 00 00 00 13 00 00 00
2026-07-11T17:32:58.693860,19.369,can0  206  [24]  C5 0C 6D 09 CB 0C 99 C6 8A 0A C1 0C D0 0C 00 00 00 00 00 00 00 00 00 00
2026-07-11T17:32:58.694148,19.370,can0  204  [16]  28 58 1C D2 24 99 E9 71 28 23 30 75 30 75 00 00
2026-07-11T17:32:58.789805,19.465,can0  070  [20]  A7 2C 4D 08 89 B1 62 03 00 00 00 00 21 00 00 00 12 00 00 00
2026-07-11T17:32:58.790095,19.466,can0  041  [04]  E4 00 13 00
2026-07-11T17:32:58.790442,19.466,can0  204  [16]  28 58 1C D2 24 99 E9 71 28 23 30 75 30 75 00 00
2026-07-11T17:32:58.790711,19.466,can0  040  [04]  0C 01 0B 00
2026-07-11T17:32:58.790950,19.466,can0  100  [03]  3D 7F 04
2026-07-11T17:32:58.791215,19.467,can0  110  [02]  38 1B
2026-07-11T17:32:58.791569,19.467,can0  204  [16]  28 58 1C D2 24 99 E9 71 28 23 30 75 30 75 00 00
2026-07-11T17:32:58.791820,19.467,can0  120  [04]  00 00 00 00
2026-07-11T17:32:58.892200,19.568,can0  040  [04]  0C 01 0B 00
2026-07-11T17:32:58.892298,19.568,can0  204  [16]  28 58 1C D2 24 99 E9 71 28 23 30 75 30 75 00 00
2026-07-11T17:32:58.892385,19.568,can0  206  [24]  C5 0C 6C 09 CB 0C 99 C6 8B 0A C1 0C D0 0C 00 00 00 00 00 00 00 00 00 00
2026-07-11T17:32:58.892598,19.568,can0  070  [20]  A7 2C 4D 08 89 B1 62 03 00 00 00 00 21 00 00 00 12 00 00 00
2026-07-11T17:32:58.892852,19.568,can0  204  [16]  28 58 1C D2 24 99 E9 71 28 23 30 75 30 75 00 00
2026-07-11T17:32:58.893104,19.569,can0  060  [32]  73 ED D5 02 DA B9 4D 08 5C 1E 64 03 00 00 40 05 FF 01 00 00 00 00 00 00 03 00 00 00 00 00 00 00
2026-07-11T17:32:58.989890,19.665,can0  060  [32]  00 00 00 00 A7 2C 4D 08 DE 06 B8 10 00 00 10 0E FF 01 00 00 00 00 00 01 03 00 00 00 00 00 00 00
2026-07-11T17:32:58.990082,19.666,can0  060  [32]  D7 93 D6 02 CE 82 4D 08 91 1B 64 03 85 00 D8 0D 5A 01 01 00 00 00 00 02 03 00 00 00 00 00 00 00
2026-07-11T17:32:58.990861,19.666,can0  204  [16]  28 58 1C D2 24 99 E9 71 28 23 30 75 30 75 00 00
2026-07-11T17:32:58.991178,19.667,can0  041  [04]  E7 00 11 00
2026-07-11T17:32:58.991535,19.667,can0  204  [16]  28 58 1C D2 24 99 E9 71 28 23 30 75 30 75 00 00
2026-07-11T17:32:59.092492,19.768,can0  206  [24]  C5 0C 6D 09 C6 0C 99 C6 8C 0A C6 0C D0 0C 00 00 00 00 00 00 00 00 00 00
2026-07-11T17:32:59.092769,19.768,can0  040  [04]  0C 01 0B 00
2026-07-11T17:32:59.093136,19.769,can0  204  [16]  28 58 1C D2 24 99 E9 71 28 23 30 75 30 75 00 00
2026-07-11T17:32:59.093415,19.769,can0  040  [04]  0C 01 0B 00
2026-07-11T17:32:59.093786,19.769,can0  204  [16]  28 58 1C D2 24 99 E9 71 28 23 30 75 30 75 00 00
2026-07-11T17:32:59.189959,19.865,can0  204  [16]  28 58 1C D2 24 99 E9 71 28 23 30 75 30 75 00 00
2026-07-11T17:32:59.192640,19.868,can0  206  [24]  C5 0C 6D 09 C6 0C 99 C6 8B 0A C6 0C D0 0C 00 00 00 00 00 00 00 00 00 00
2026-07-11T17:32:59.193009,19.868,can0  204  [16]  28 58 1C D2 24 99 E9 71 28 23 30 75 30 75 00 00
2026-07-11T17:32:59.289110,19.965,can0  204  [16]  28 58 1C D2 24 99 E9 71 28 23 30 75 30 75 00 00
2026-07-11T17:32:59.295126,19.971,can0  041  [04]  EE 00 11 00
2026-07-11T17:32:59.389642,20.065,can0  204  [16]  28 58 1C D2 24 99 E9 71 28 23 30 75 30 75 00 00
2026-07-11T17:32:59.389968,20.065,can0  040  [04]  13 01 0A 00
2026-07-11T17:32:59.393063,20.069,can0  206  [24]  BC 0C 6E 09 CF 0C 99 C6 8B 0A C1 0C D5 0C 00 00 00 00 00 00 00 00 00 00
2026-07-11T17:32:59.393117,20.069,can0  070  [20]  A7 2C 4D 08 89 B1 62 03 00 00 00 00 21 00 00 00 12 00 00 00
2026-07-11T17:32:59.393318,20.069,can0  040  [04]  13 01 0A 00
2026-07-11T17:32:59.393580,20.069,can0  204  [16]  28 58 1C D2 24 99 E9 71 28 23 30 75 30 75 00 00
2026-07-11T17:32:59.489561,20.165,can0  204  [16]  28 58 1C D2 24 99 E9 71 28 23 30 75 30 75 00 00
2026-07-11T17:32:59.495639,20.171,can0  070  [20]  A7 2C 4D 08 89 B1 62 03 00 00 00 00 21 00 00 00 12 00 00 00
2026-07-11T17:32:59.495707,20.171,can0  204  [16]  28 58 1C D2 24 99 E9 71 28 23 30 75 30 75 00 00
2026-07-11T17:32:59.590004,20.265,can0  204  [16]  28 58 1C D2 24 99 E9 71 28 23 30 75 30 75 00 00
2026-07-11T17:32:59.593141,20.269,can0  206  [24]  C5 0C 6E 09 CB 0C 99 C6 84 0A C1 0C D0 0C 00 00 00 00 00 00 00 00 00 00
2026-07-11T17:32:59.593210,20.269,can0  041  [04]  EA 00 12 00
2026-07-11T17:32:59.593429,20.269,can0  204  [16]  28 58 1C D2 24 99 E9 71 28 23 30 75 30 75 00 00
2026-07-11T17:32:59.599937,20.275,can0  040  [04]  19 01 0A 00
2026-07-11T17:32:59.689780,20.365,can0  132  [00]
2026-07-11T17:32:59.690574,20.366,can0  204  [16]  28 58 1C D2 24 99 E9 71 28 23 30 75 30 75 00 00
2026-07-11T17:32:59.690661,20.366,can0  040  [04]  19 01 0A 00
2026-07-11T17:32:59.690711,20.366,can0  204  [16]  28 58 1C D2 24 99 E9 71 28 23 30 75 30 75 00 00
2026-07-11T17:32:59.690755,20.366,can0  070  [20]  A7 2C 4D 08 8B B1 62 03 E8 03 00 00 21 00 00 00 04 00 00 00
2026-07-11T17:32:59.693401,20.369,can0  206  [24]  C0 0C 6F 09 C6 0C 99 C6 82 0A C1 0C D5 0C 00 00 00 00 00 00 00 00 00 00
2026-07-11T17:32:59.696266,20.372,can0  070  [20]  A7 2C 4D 08 8B B1 62 03 E8 03 00 00 21 00 00 00 04 00 00 00
2026-07-11T17:32:59.789236,20.465,can0  204  [16]  28 58 1C D2 24 99 E9 71 28 23 30 75 30 75 00 00
2026-07-11T17:32:59.789517,20.465,can0  204  [16]  28 58 1C D2 24 99 E9 71 28 23 30 75 30 75 00 00
2026-07-11T17:32:59.796607,20.472,can0  070  [20]  A7 2C 4D 08 8B B1 62 03 E8 03 00 00 21 00 00 00 04 00 00 00
2026-07-11T17:32:59.796686,20.472,can0  041  [04]  EA 00 11 00
2026-07-11T17:32:59.889969,20.565,can0  060  [32]  67 99 D6 02 EA 68 4D 08 D0 38 64 03 01 00 10 04 CC 00 01 00 00 00 00 00 02 00 00 00 00 00 00 00
2026-07-11T17:32:59.890140,20.566,can0  060  [32]  00 00 00 00 A7 2C 4D 08 E0 06 B8 10 00 00 10 0E FF 01 00 00 00 00 00 01 02 00 00 00 00 00 00 00
2026-07-11T17:32:59.890778,20.566,can0  130  [00]
2026-07-11T17:32:59.891046,20.567,can0  204  [16]  28 58 1C D2 24 99 E9 71 28 23 30 75 30 75 00 00
2026-07-11T17:32:59.891340,20.567,can0  040  [04]  26 01 06 00
2026-07-11T17:32:59.894424,20.570,can0  206  [24]  C0 0C 6F 09 C6 0C 99 C6 7D 0A C1 0C D5 0C 00 00 00 00 00 00 00 00 00 00
2026-07-11T17:32:59.894476,20.570,can0  204  [16]  28 58 1C D2 24 99 E9 71 28 23 30 75 30 75 00 00
2026-07-11T17:32:59.900964,20.576,can0  040  [04]  26 01 06 00
2026-07-11T17:32:59.991914,20.667,can0  204  [16]  28 58 1C D2 24 99 E9 71 28 23 30 75 30 75 00 00
2026-07-11T17:32:59.992233,20.668,can0  204  [16]  28 58 1C D2 24 99 E9 71 28 23 30 75 30 75 00 00
2026-07-11T17:32:59.992512,20.668,can0  100  [03]  3E 7F 04
2026-07-11T17:32:59.999432,20.675,can0  120  [04]  00 00 00 00
2026-07-11T17:33:00.092875,20.768,can0  206  [24]  CA 0C 6E 09 C0 0C 99 C6 7D 0A C1 0C D0 0C 00 00 00 00 00 00 00 00 00 00
2026-07-11T17:33:00.093206,20.769,can0  204  [16]  28 58 1C D2 24 99 E9 71 28 23 30 75 30 75 00 00
2026-07-11T17:33:00.093484,20.769,can0  041  [04]  E4 00 12 00
2026-07-11T17:33:00.093744,20.769,can0  204  [16]  28 58 1C D2 24 99 E9 71 28 23 30 75 30 75 00 00
2026-07-11T17:33:00.102650,20.778,can0  040  [04]  3A 01 07 00
2026-07-11T17:33:00.193185,20.869,can0  204  [16]  28 58 1C D2 24 99 E9 71 28 23 30 75 30 75 00 00
2026-07-11T17:33:00.193254,20.869,can0  040  [04]  3A 01 07 00
2026-07-11T17:33:00.193296,20.869,can0  204  [16]  28 58 1C D2 24 99 E9 71 28 23 30 75 30 75 00 00
2026-07-11T17:33:00.196741,20.872,can0  206  [24]  C5 0C 6E 09 C0 0C 99 C6 7F 0A C6 0C D5 0C 00 00 00 00 00 00 00 00 00 00
2026-07-11T17:33:00.299494,20.975,can0  204  [16]  28 58 1C D2 24 99 E9 71 28 23 30 75 30 75 00 00
2026-07-11T17:33:00.299613,20.975,can0  204  [16]  28 58 1C D2 24 99 E9 71 28 23 30 75 30 75 00 00
2026-07-11T17:33:00.299668,20.975,can0  070  [20]  A7 2C 4D 08 8B B1 62 03 E8 03 00 00 21 00 00 00 04 00 00 00
2026-07-11T17:33:00.389432,21.065,can0  060  [32]  00 00 00 00 00 00 00 00 00 00 00 00 00 00 00 00 00 00 00 00 00 00 00 00 00 00 00 00 00 00 00 00
2026-07-11T17:33:00.389972,21.065,can0  204  [16]  28 58 1C D2 24 99 E9 71 28 23 30 75 30 75 00 00
2026-07-11T17:33:00.390070,21.066,can0  041  [04]  E2 00 14 00
2026-07-11T17:33:00.392811,21.068,can0  206  [24]  C0 0C 6D 09 C6 0C 99 C6 86 0A C6 0C D5 0C 00 00 00 00 00 00 00 00 00 00
2026-07-11T17:33:00.393139,21.069,can0  040  [04]  42 01 07 00
2026-07-11T17:33:00.393432,21.069,can0  204  [16]  28 58 1C D2 24 99 E9 71 28 23 30 75 30 75 00 00
2026-07-11T17:33:00.400748,21.076,can0  110  [02]  39 1B
2026-07-11T17:33:00.490663,21.166,can0  204  [16]  28 58 1C D2 24 99 E9 71 28 23 30 75 30 75 00 00
2026-07-11T17:33:00.490783,21.166,can0  070  [20]  A7 2C 4D 08 8B B1 62 03 E8 03 00 00 21 00 00 00 04 00 00 00
2026-07-11T17:33:00.490884,21.166,can0  040  [04]  42 01 07 00
2026-07-11T17:33:00.498926,21.174,can0  204  [16]  28 58 1C D2 24 99 E9 71 28 23 30 75 30 75 00 00
2026-07-11T17:33:00.596775,21.272,can0  206  [24]  C5 0C 6E 09 C6 0C 99 C6 87 0A C6 0C D0 0C 00 00 00 00 00 00 00 00 00 00
2026-07-11T17:33:00.596864,21.272,can0  204  [16]  28 58 1C D2 24 99 E9 71 28 23 30 75 30 75 00 00
2026-07-11T17:33:00.596907,21.272,can0  204  [16]  28 58 1C D2 24 99 E9 71 28 23 30 75 30 75 00 00
2026-07-11T17:33:00.596983,21.272,can0  041  [04]  E0 00 17 00
2026-07-11T17:33:00.702486,21.378,can0  204  [16]  28 58 1C D2 24 99 E9 71 28 23 30 75 30 75 00 00
2026-07-11T17:33:00.703254,21.379,can0  040  [04]  4D 01 06 00
2026-07-11T17:33:00.703309,21.379,can0  070  [20]  A7 2C 4D 08 8B B1 62 03 D0 07 00 00 21 00 00 00 6F 00 00 00
2026-07-11T17:33:00.703351,21.379,can0  204  [16]  28 58 1C D2 24 99 E9 71 28 23 30 75 30 75 00 00
2026-07-11T17:33:00.706532,21.382,can0  206  [24]  C0 0C 6D 09 CA 0C 99 C6 8C 0A C6 0C D0 0C 00 00 00 00 00 00 00 00 00 00
2026-07-11T17:33:00.706630,21.382,can0  070  [20]  A7 2C 4D 08 8B B1 62 03 D0 07 00 00 21 00 00 00 6F 00 00 00
2026-07-11T17:33:00.706713,21.382,can0  040  [04]  4D 01 06 00
2026-07-11T17:33:00.799767,21.475,can0  204  [16]  28 58 1C D2 24 99 E9 71 28 23 30 75 30 75 00 00
2026-07-11T17:33:00.800169,21.476,can0  070  [20]  A7 2C 4D 08 8B B1 62 03 D0 07 00 00 21 00 00 00 6F 00 00 00
2026-07-11T17:33:00.800655,21.476,can0  204  [16]  28 58 1C D2 24 99 E9 71 28 23 30 75 30 75 00 00
2026-07-11T17:33:00.801237,21.477,can0  060  [32]  00 00 00 00 A7 2C 4D 08 E0 06 B8 10 00 00 10 0E FF 01 00 00 00 00 00 00 01 00 00 00 00 00 00 00
2026-07-11T17:33:00.901378,21.577,can0  204  [16]  28 58 1C D2 24 99 E9 71 28 23 30 75 30 75 00 00
2026-07-11T17:33:00.901447,21.577,can0  206  [24]  C0 0C 6D 09 CA 0C 99 C6 8C 0A CA 0C D0 0C 00 00 00 00 00 00 00 00 00 00
2026-07-11T17:33:00.901492,21.577,can0  041  [04]  E6 00 18 00
2026-07-11T17:33:00.907379,21.583,can0  204  [16]  28 58 1C D2 24 99 E9 71 28 23 30 75 30 75 00 00
2026-07-11T17:33:00.907438,21.583,can0  040  [04]  2B 01 07 00
2026-07-11T17:33:01.005253,21.681,can0  204  [16]  28 58 1C D2 24 99 E9 71 28 23 30 75 30 75 00 00
2026-07-11T17:33:01.005333,21.681,can0  040  [04]  2B 01 07 00
2026-07-11T17:33:01.005375,21.681,can0  204  [16]  28 58 1C D2 24 99 E9 71 28 23 30 75 30 75 00 00
2026-07-11T17:33:01.100089,21.776,can0  206  [24]  C0 0C 6E 09 C6 0C 99 C6 89 0A CA 0C D0 0C 00 00 00 00 00 00 00 00 00 00
2026-07-11T17:33:01.100592,21.776,can0  204  [16]  28 58 1C D2 24 99 E9 71 28 23 30 75 30 75 00 00
2026-07-11T17:33:01.100645,21.776,can0  204  [16]  28 58 1C D2 24 99 E9 71 28 23 30 75 30 75 00 00
2026-07-11T17:33:01.197655,21.873,can0  041  [04]  E9 00 15 00
2026-07-11T17:33:01.198062,21.874,can0  204  [16]  28 58 1C D2 24 99 E9 71 28 23 30 75 30 75 00 00
2026-07-11T17:33:01.198320,21.874,can0  040  [04]  19 01 05 00
2026-07-11T17:33:01.201493,21.877,can0  206  [24]  C6 0C 70 09 CA 0C 99 C6 88 0A C6 0C CA 0C 00 00 00 00 00 00 00 00 00 00
2026-07-11T17:33:01.201570,21.877,can0  204  [16]  28 58 1C D2 24 99 E9 71 28 23 30 75 30 75 00 00
2026-07-11T17:33:01.201771,21.877,can0  100  [03]  40 7F 04
2026-07-11T17:33:01.203947,21.879,can0  120  [04]  00 00 00 00
2026-07-11T17:33:01.301850,21.977,can0  040  [04]  19 01 05 00
2026-07-11T17:33:01.301967,21.977,can0  204  [16]  28 58 1C D2 24 99 E9 71 28 23 30 75 30 75 00 00
2026-07-11T17:33:01.302723,21.978,can0  070  [20]  A7 2C 4D 08 8B B1 62 03 D0 07 00 00 21 00 00 00 6F 00 00 00
2026-07-11T17:33:01.302815,21.978,can0  204  [16]  28 58 1C D2 24 99 E9 71 28 23 30 75 30 75 00 00
2026-07-11T17:33:01.401241,22.077,can0  204  [16]  28 58 1C D2 24 99 E9 71 28 23 30 75 30 75 00 00
2026-07-11T17:33:01.410190,22.086,can0  206  [24]  C6 0C 6F 09 CA 0C 99 C6 88 0A C6 0C CA 0C 00 00 00 00 00 00 00 00 00 00
2026-07-11T17:33:01.410256,22.086,can0  204  [16]  28 58 1C D2 24 99 E9 71 28 23 30 75 30 75 00 00
2026-07-11T17:33:01.410300,22.086,can0  041  [04]  F6 00 15 00
2026-07-11T17:33:01.506361,22.182,can0  070  [20]  A7 2C 4D 08 8B B1 62 03 D0 07 00 00 21 00 00 00 6F 00 00 00
2026-07-11T17:33:01.510370,22.186,can0  040  [04]  21 01 06 00
2026-07-11T17:33:01.510682,22.186,can0  204  [16]  28 58 1C D2 24 99 E9 71 28 23 30 75 30 75 00 00
2026-07-11T17:33:01.511033,22.187,can0  040  [04]  21 01 06 00
2026-07-11T17:33:01.514156,22.190,can0  204  [16]  28 58 1C D2 24 99 E9 71 28 23 30 75 30 75 00 00
2026-07-11T17:33:01.514334,22.190,can0  206  [24]  C6 0C 70 09 CA 0C 99 C6 86 0A C6 0C CA 0C 00 00 00 00 00 00 00 00 00 00
2026-07-11T17:33:01.624822,22.300,can0  204  [16]  28 58 1C D2 24 99 E9 71 28 23 30 75 30 75 00 00
2026-07-11T17:33:01.625409,22.301,can0  204  [16]  28 58 1C D2 24 99 E9 71 28 23 30 75 30 75 00 00
2026-07-11T17:33:01.625513,22.301,can0  060  [32]  67 99 D6 02 EC 68 4D 08 CE 38 64 03 01 00 10 04 CC 00 01 00 00 00 00 00 02 00 00 00 00 00 00 00
2026-07-11T17:33:01.625621,22.301,can0  060  [32]  6E DE D5 02 CA 6A 4D 08 52 DC 64 03 00 00 95 0C 39 00 80 00 00 00 00 01 02 00 00 00 00 00 00 00
2026-07-11T17:33:01.732287,22.408,can0  204  [16]  28 58 1C D2 24 99 E9 71 28 23 30 75 30 75 00 00
2026-07-11T17:33:01.732648,22.408,can0  041  [04]  F6 00 12 00
2026-07-11T17:33:01.733047,22.409,can0  070  [20]  A7 2C 4D 08 8B B1 62 03 B8 0B 00 00 21 00 00 00 1C 00 00 00
2026-07-11T17:33:01.736497,22.412,can0  206  [24]  C6 0C 70 09 CF 0C 99 C6 86 0A C1 0C CA 0C 00 00 00 00 00 00 00 00 00 00
2026-07-11T17:33:01.736560,22.412,can0  204  [16]  28 58 1C D2 24 99 E9 71 28 23 30 75 30 75 00 00
2026-07-11T17:33:01.736801,22.412,can0  070  [20]  A7 2C 4D 08 8B B1 62 03 B8 0B 00 00 21 00 00 00 1C 00 00 00
2026-07-11T17:33:01.736994,22.412,can0  040  [04]  26 01 06 00
2026-07-11T17:33:01.789531,22.465,can0  204  [16]  28 58 1C D2 24 99 E9 71 28 23 30 75 30 75 00 00
2026-07-11T17:33:01.796491,22.472,can0  040  [04]  26 01 06 00
2026-07-11T17:33:01.796599,22.472,can0  070  [20]  A7 2C 4D 08 8B B1 62 03 B8 0B 00 00 21 00 00 00 1C 00 00 00
2026-07-11T17:33:01.796655,22.472,can0  204  [16]  28 58 1C D2 24 99 E9 71 28 23 30 75 30 75 00 00
2026-07-11T17:33:01.891635,22.567,can0  206  [24]  CA 0C 70 09 CB 0C 99 C6 87 0A C1 0C CA 0C 00 00 00 00 00 00 00 00 00 00
2026-07-11T17:33:01.892172,22.568,can0  204  [16]  28 58 1C D2 24 99 E9 71 28 23 30 75 30 75 00 00
2026-07-11T17:33:01.892226,22.568,can0  204  [16]  28 58 1C D2 24 99 E9 71 28 23 30 75 30 75 00 00
2026-07-11T17:33:01.990211,22.666,can0  041  [04]  F5 00 12 00
2026-07-11T17:33:01.990278,22.666,can0  204  [16]  28 58 1C D2 24 99 E9 71 28 23 30 75 30 75 00 00
2026-07-11T17:33:01.990323,22.666,can0  040  [04]  0C 01 09 00
2026-07-11T17:33:01.990365,22.666,can0  110  [02]  39 1B
2026-07-11T17:33:01.993246,22.669,can0  204  [16]  28 58 1C D2 24 99 E9 71 28 23 30 75 30 75 00 00
2026-07-11T17:33:01.993324,22.669,can0  206  [24]  CA 0C 6D 09 C6 0C 99 C6 86 0A C6 0C CA 0C 00 00 00 00 00 00 00 00 00 00
2026-07-11T17:33:02.092571,22.768,can0  040  [04]  0C 01 09 00
2026-07-11T17:33:02.092690,22.768,can0  204  [16]  28 58 1C D2 24 99 E9 71 28 23 30 75 30 75 00 00
2026-07-11T17:33:02.100193,22.776,can0  204  [16]  28 58 1C D2 24 99 E9 71 28 23 30 75 30 75 00 00
2026-07-11T17:33:02.194191,22.870,can0  204  [16]  28 58 1C D2 24 99 E9 71 28 23 30 75 30 75 00 00
2026-07-11T17:33:02.197728,22.873,can0  206  [24]  CA 0C 6E 09 C6 0C 99 C6 84 0A C6 0C CA 0C 00 00 00 00 00 00 00 00 00 00
2026-07-11T17:33:02.198020,22.873,can0  204  [16]  28 58 1C D2 24 99 E9 71 28 23 30 75 30 75 00 00
2026-07-11T17:33:02.198268,22.874,can0  041  [04]  F8 00 11 00
2026-07-11T17:33:02.297787,22.973,can0  040  [04]  0C 01 0A 00
2026-07-11T17:33:02.298080,22.974,can0  204  [16]  28 58 1C D2 24 99 E9 71 28 23 30 75 30 75 00 00
2026-07-11T17:33:02.298420,22.974,can0  070  [20]  A7 2C 4D 08 8B B1 62 03 B8 0B 00 00 21 00 00 00 1C 00 00 00
2026-07-11T17:33:02.305614,22.981,can0  040  [04]  0C 01 0A 00
2026-07-11T17:33:02.305679,22.981,can0  204  [16]  28 58 1C D2 24 99 E9 71 28 23 30 75 30 75 00 00
2026-07-11T17:33:02.403646,23.079,can0  206  [24]  CA 0C 6D 09 C6 0C 99 C6 86 0A C6 0C CA 0C 00 00 00 00 00 00 00 00 00 00
2026-07-11T17:33:02.403715,23.079,can0  204  [16]  28 58 1C D2 24 99 E9 71 28 23 30 75 30 75 00 00
2026-07-11T17:33:02.403899,23.079,can0  100  [03]  41 7F 04
2026-07-11T17:33:02.410238,23.086,can0  120  [04]  00 00 00 00
2026-07-11T17:33:02.504649,23.180,can0  204  [16]  28 58 1C D2 24 99 E9 71 28 23 30 75 30 75 00 00
2026-07-11T17:33:02.504768,23.180,can0  070  [20]  A7 2C 4D 08 8B B1 62 03 B8 0B 00 00 21 00 00 00 1C 00 00 00
2026-07-11T17:33:02.504867,23.180,can0  204  [16]  28 58 1C D2 24 99 E9 71 28 23 30 75 30 75 00 00
2026-07-11T17:33:02.505167,23.181,can0  060  [32]  00 03 3D 05 83 7D 4D 08 FA 9E 62 03 00 00 85 01 FB 00 80 00 00 00 00 00 04 00 00 00 00 00 00 00
2026-07-11T17:33:02.505255,23.181,can0  060  [32]  00 00 00 00 A7 2C 4D 08 E0 06 B8 10 00 00 10 0E FF 01 00 00 00 00 00 01 04 00 00 00 00 00 00 00
2026-07-11T17:33:02.505333,23.181,can0  060  [32]  C9 5B D6 02 A1 69 4D 08 34 25 66 03 00 00 CB 04 3C 01 80 00 00 00 00 02 04 00 00 00 00 00 00 00
2026-07-11T17:33:02.505507,23.181,can0  041  [04]  F5 00 10 00
2026-07-11T17:33:02.506089,23.182,can0  060  [32]  00 00 00 00 00 00 00 00 00 00 00 00 00 00 00 00 00 00 00 00 00 00 00 00 00 00 00 00 00 00 00 00
2026-07-11T17:33:02.506144,23.182,can0  204  [16]  28 58 1C D2 24 99 E9 71 28 23 30 75 30 75 00 00
2026-07-11T17:33:02.507819,23.183,can0  040  [04]  02 01 0B 00
2026-07-11T17:33:02.507869,23.183,can0  206  [24]  C6 0C 6D 09 CA 0C 99 C6 87 0A C6 0C CA 0C 00 00 00 00 00 00 00 00 00 00
2026-07-11T17:33:02.613225,23.289,can0  040  [04]  02 01 0B 00
2026-07-11T17:33:02.613325,23.289,can0  204  [16]  28 58 1C D2 24 99 E9 71 28 23 30 75 30 75 00 00
2026-07-11T17:33:02.613397,23.289,can0  204  [16]  28 58 1C D2 24 99 E9 71 28 23 30 75 30 75 00 00
2026-07-11T17:33:02.709700,23.385,can0  204  [16]  28 58 1C D2 24 99 E9 71 28 23 30 75 30 75 00 00
2026-07-11T17:33:02.709976,23.385,can0  070  [20]  A7 2C 4D 08 8D B1 62 03 A0 0F 00 00 21 00 00 00 30 00 00 00
2026-07-11T17:33:02.713437,23.389,can0  206  [24]  C0 0C 6D 09 CA 0C 99 C6 88 0A C6 0C D0 0C 00 00 00 00 00 00 00 00 00 00
2026-07-11T17:33:02.720248,23.396,can0  070  [20]  A7 2C 4D 08 8D B1 62 03 A0 0F 00 00 21 00 00 00 31 00 00 00
2026-07-11T17:33:02.720310,23.396,can0  204  [16]  28 58 1C D2 24 99 E9 71 28 23 30 75 30 75 00 00
2026-07-11T17:33:02.815630,23.491,can0  041  [04]  F5 00 0F 00
2026-07-11T17:33:02.815749,23.491,can0  204  [16]  28 58 1C D2 24 99 E9 71 28 23 30 75 30 75 00 00
2026-07-11T17:33:02.815889,23.491,can0  070  [20]  A7 2C 4D 08 8D B1 62 03 A0 0F 00 00 21 00 00 00 31 00 00 00
2026-07-11T17:33:02.816066,23.492,can0  040  [04]  F9 00 0C 00
2026-07-11T17:33:02.816299,23.492,can0  204  [16]  28 58 1C D2 24 99 E9 71 28 23 30 75 30 75 00 00
2026-07-11T17:33:02.816474,23.492,can0  040  [04]  F9 00 0C 00
2026-07-11T17:33:02.921712,23.597,can0  206  [24]  C6 0C 6E 09 CA 0C 99 C6 88 0A CA 0C CA 0C 00 00 00 00 00 00 00 00 00 00
2026-07-11T17:33:02.921986,23.597,can0  204  [16]  28 58 1C D2 24 99 E9 71 28 23 30 75 30 75 00 00
2026-07-11T17:33:02.922223,23.598,can0  204  [16]  28 58 1C D2 24 99 E9 71 28 23 30 75 30 75 00 00
2026-07-11T17:33:03.031940,23.707,can0  204  [16]  28 58 1C D2 24 99 E9 71 28 23 30 75 30 75 00 00
2026-07-11T17:33:03.032020,23.707,can0  041  [04]  FA 00 10 00
2026-07-11T17:33:03.032063,23.708,can0  206  [24]  C6 0C 6D 09 CA 0C 99 C6 8A 0A C6 0C CA 0C 00 00 00 00 00 00 00 00 00 00
2026-07-11T17:33:03.032107,23.708,can0  204  [16]  28 58 1C D2 24 99 E9 71 28 23 30 75 30 75 00 00
2026-07-11T17:33:03.126062,23.802,can0  040  [04]  D1 00 0C 00
2026-07-11T17:33:03.126131,23.802,can0  204  [16]  28 58 1C D2 24 99 E9 71 28 23 30 75 30 75 00 00
2026-07-11T17:33:03.133071,23.809,can0  040  [04]  D1 00 0C 00
2026-07-11T17:33:03.133146,23.809,can0  204  [16]  28 58 1C D2 24 99 E9 71 28 23 30 75 30 75 00 00
2026-07-11T17:33:03.225428,23.901,can0  060  [32]  00 00 00 00 A7 2C 4D 08 E1 06 B8 10 00 00 10 0E FF 01 00 00 00 00 00 00 02 00 00 00 00 00 00 00
2026-07-11T17:33:03.225561,23.901,can0  060  [32]  D7 93 D6 02 E0 83 4D 08 13 1B 64 03 84 00 C2 0D 58 01 01 00 00 00 00 01 02 00 00 00 00 00 00 00
2026-07-11T17:33:03.225901,23.901,can0  204  [16]  28 58 1C D2 24 99 E9 71 28 23 30 75 30 75 00 00
2026-07-11T17:33:03.229447,23.905,can0  206  [24]  C6 0C 83 09 CF 0C 99 C6 89 0A C1 0C CA 0C 00 00 00 00 00 00 00 00 00 00
2026-07-11T17:33:03.229782,23.905,can0  204  [16]  28 58 1C D2 24 99 E9 71 28 23 30 75 30 75 00 00
2026-07-11T17:33:03.327324,24.003,can0  204  [16]  28 58 1C D2 24 99 E9 71 28 23 30 75 30 75 00 00
2026-07-11T17:33:03.327528,24.003,can0  041  [04]  F4 00 0E 00
2026-07-11T17:33:03.328067,24.004,can0  070  [20]  A7 2C 4D 08 8D B1 62 03 A0 0F 00 00 21 00 00 00 31 00 00 00
2026-07-11T17:33:03.328144,24.004,can0  040  [04]  D7 00 0A 00
2026-07-11T17:33:03.328374,24.004,can0  204  [16]  28 58 1C D2 24 99 E9 71 28 23 30 75 30 75 00 00
2026-07-11T17:33:03.429287,24.105,can0  206  [24]  C1 0C 83 09 D4 0C 99 C6 88 0A C1 0C CA 0C 00 00 00 00 00 00 00 00 00 00
2026-07-11T17:33:03.429618,24.105,can0  040  [04]  D7 00 0A 00
2026-07-11T17:33:03.429891,24.105,can0  204  [16]  28 58 1C D2 24 99 E9 71 28 23 30 75 30 75 00 00
2026-07-11T17:33:03.430167,24.106,can0  204  [16]  28 58 1C D2 24 99 E9 71 28 23 30 75 30 75 00 00
2026-07-11T17:33:03.529330,24.205,can0  070  [20]  A7 2C 4D 08 8D B1 62 03 A0 0F 00 00 21 00 00 00 31 00 00 00
2026-07-11T17:33:03.529786,24.205,can0  204  [16]  28 58 1C D2 24 99 E9 71 28 23 30 75 30 75 00 00
2026-07-11T17:33:03.533631,24.209,can0  206  [24]  BB 0C 82 09 CF 0C 99 C6 87 0A C6 0C D0 0C 00 00 00 00 00 00 00 00 00 00
2026-07-11T17:33:03.534009,24.209,can0  204  [16]  28 58 1C D2 24 99 E9 71 28 23 30 75 30 75 00 00
2026-07-11T17:33:03.641638,24.317,can0  041  [04]  F8 00 0B 00
2026-07-11T17:33:03.642075,24.318,can0  204  [16]  28 58 1C D2 24 99 E9 71 28 23 30 75 30 75 00 00
2026-07-11T17:33:03.642669,24.318,can0  040  [04]  D3 00 07 00
2026-07-11T17:33:03.642763,24.318,can0  100  [03]  44 7F 04
2026-07-11T17:33:03.643254,24.319,can0  110  [02]  39 1B
2026-07-11T17:33:03.643343,24.319,can0  120  [04]  00 00 00 00
2026-07-11T17:33:03.643669,24.319,can0  204  [16]  28 58 1C D2 24 99 E9 71 28 23 30 75 30 75 00 00
2026-07-11T17:33:03.656043,24.332,can0  040  [04]  D3 00 07 00
2026-07-11T17:33:03.714933,24.390,can0  060  [32]  00 00 00 00 00 00 00 00 00 00 00 00 00 00 00 00 00 00 00 00 00 00 00 00 00 00 00 00 00 00 00 00
2026-07-11T17:33:03.718002,24.393,can0  206  [24]  B6 0C 82 09 CF 0C 99 C6 87 0A C6 0C D5 0C 00 00 00 00 00 00 00 00 00 00
2026-07-11T17:33:03.718434,24.394,can0  204  [16]  28 58 1C D2 24 99 E9 71 28 23 30 75 30 75 00 00
2026-07-11T17:33:03.718911,24.394,can0  070  [20]  A7 2C 4D 08 8D B1 62 03 88 13 00 00 21 00 00 00 23 00 00 00
2026-07-11T17:33:03.718965,24.394,can0  070  [20]  A7 2C 4D 08 8D B1 62 03 88 13 00 00 21 00 00 00 23 00 00 00
2026-07-11T17:33:03.725609,24.401,can0  204  [16]  28 58 1C D2 24 99 E9 71 28 23 30 75 30 75 00 00
2026-07-11T17:33:03.822218,24.498,can0  204  [16]  28 58 1C D2 24 99 E9 71 28 23 30 75 30 75 00 00
2026-07-11T17:33:03.822515,24.498,can0  070  [20]  A7 2C 4D 08 8D B1 62 03 88 13 00 00 21 00 00 00 23 00 00 00
2026-07-11T17:33:03.822758,24.498,can0  041  [04]  FD 00 0A 00
2026-07-11T17:33:03.830510,24.506,can0  204  [16]  28 58 1C D2 24 99 E9 71 28 23 30 75 30 75 00 00
2026-07-11T17:33:03.917295,24.593,can0  206  [24]  B6 0C 83 09 CF 0C 99 C6 87 0A CA 0C D5 0C 00 00 00 00 00 00 00 00 00 00
2026-07-11T17:33:03.917695,24.593,can0  040  [04]  0C 01 05 00
2026-07-11T17:33:03.918034,24.594,can0  204  [16]  28 58 1C D2 24 99 E9 71 28 23 30 75 30 75 00 00
2026-07-11T17:33:03.918839,24.594,can0  060  [32]  8D 05 D6 02 A3 7F 4D 08 65 52 65 03 41 00 D0 01 04 00 01 00 00 00 00 00 01 00 00 00 00 00 00 00
2026-07-11T17:33:03.919149,24.595,can0  040  [04]  0C 01 05 00
2026-07-11T17:33:03.925892,24.601,can0  204  [16]  28 58 1C D2 24 99 E9 71 28 23 30 75 30 75 00 00
2026-07-11T17:33:04.008332,24.684,can0  204  [16]  28 58 1C D2 24 99 E9 71 28 23 30 75 30 75 00 00
2026-07-11T17:33:04.011873,24.687,can0  206  [24]  B2 0C 6D 09 D4 0C 99 C6 88 0A CA 0C D5 0C 00 00 00 00 00 00 00 00 00 00
2026-07-11T17:33:04.011950,24.687,can0  204  [16]  28 58 1C D2 24 99 E9 71 28 23 30 75 30 75 00 00
2026-07-11T17:33:04.103333,24.779,can0  041  [04]  EB 00 0B 00
2026-07-11T17:33:04.103698,24.779,can0  204  [16]  28 58 1C D2 24 99 E9 71 28 23 30 75 30 75 00 00
2026-07-11T17:33:04.103936,24.779,can0  040  [04]  2E 01 05 00
2026-07-11T17:33:04.104232,24.780,can0  204  [16]  28 58 1C D2 24 99 E9 71 28 23 30 75 30 75 00 00
2026-07-11T17:33:04.194409,24.870,can0  040  [04]  2E 01 05 00
2026-07-11T17:33:04.197949,24.873,can0  206  [24]  B6 0C 6D 09 CF 0C 99 C6 87 0A CA 0C D5 0C 00 00 00 00 00 00 00 00 00 00
2026-07-11T17:33:04.198245,24.874,can0  204  [16]  28 58 1C D2 24 99 E9 71 28 23 30 75 30 75 00 00
2026-07-11T17:33:04.198509,24.874,can0  204  [16]  28 58 1C D2 24 99 E9 71 28 23 30 75 30 75 00 00
2026-07-11T17:33:04.292301,24.968,can0  204  [16]  28 58 1C D2 24 99 E9 71 28 23 30 75 30 75 00 00
2026-07-11T17:33:04.292757,24.968,can0  070  [20]  A7 2C 4D 08 8D B1 62 03 88 13 00 00 21 00 00 00 23 00 00 00
2026-07-11T17:33:04.457112,25.133,can0  204  [16]  28 58 1C D2 24 99 E9 71 28 23 30 75 30 75 00 00
2026-07-11T17:33:04.457498,25.133,can0  041  [04]  E4 00 0C 00
2026-07-11T17:33:04.463474,25.139,can0  206  [24]  B7 0C 6D 09 CA 0C 99 C6 88 0A CA 0C DA 0C 00 00 00 00 00 00 00 00 00 00
2026-07-11T17:33:04.477872,25.153,can0  040  [04]  26 01 05 00
2026-07-11T17:33:04.477968,25.153,can0  204  [16]  28 58 1C D2 24 99 E9 71 28 23 30 75 30 75 00 00
2026-07-11T17:33:04.520364,25.196,can0  204  [16]  28 58 1C D2 24 99 E9 71 28 23 30 75 30 75 00 00
2026-07-11T17:33:04.520654,25.196,can0  070  [20]  A7 2C 4D 08 8D B1 62 03 88 13 00 00 21 00 00 00 23 00 00 00
2026-07-11T17:33:04.520886,25.196,can0  040  [04]  26 01 05 00
2026-07-11T17:33:04.521204,25.197,can0  204  [16]  28 58 1C D2 24 99 E9 71 28 23 30 75 30 75 00 00
2026-07-11T17:33:04.524913,25.200,can0  206  [24]  B6 0C 6E 09 CF 0C 99 C6 89 0A CA 0C D5 0C 00 00 00 00 00 00 00 00 00 00
2026-07-11T17:33:04.621823,25.297,can0  204  [16]  28 58 1C D2 24 99 E9 71 28 23 30 75 30 75 00 00
2026-07-11T17:33:04.622086,25.298,can0  204  [16]  28 58 1C D2 24 99 E9 71 28 23 30 75 30 75 00 00
2026-07-11T17:33:04.622410,25.298,can0  041  [04]  E0 00 0F 00
2026-07-11T17:33:04.622654,25.298,can0  060  [32]  00 00 00 00 A7 2C 4D 08 E1 06 B8 10 00 00 10 0E FF 01 00 00 00 00 00 00 03 00 00 00 00 00 00 00
2026-07-11T17:33:04.623009,25.298,can0  060  [32]  04 7A D6 02 FB 5A 4D 08 B1 84 64 03 00 00 D0 08 FF 01 00 00 00 00 00 01 03 00 00 00 00 00 00 00
2026-07-11T17:33:04.623172,25.299,can0  060  [32]  59 84 D6 02 44 7F 4D 08 7C F3 64 03 42 00 ED 0A 1E 01 FF 00 00 00 00 02 03 00 00 00 00 00 00 00
2026-07-11T17:33:04.623776,25.299,can0  040  [04]  16 01 07 00
2026-07-11T17:33:04.718458,25.394,can0  204  [16]  28 58 1C D2 24 99 E9 71 28 23 30 75 30 75 00 00
2026-07-11T17:33:04.721836,25.397,can0  206  [24]  B6 0C 6D 09 CF 0C 99 C6 89 0A CA 0C D5 0C 00 00 00 00 00 00 00 00 00 00
2026-07-11T17:33:04.722455,25.398,can0  070  [20]  A9 2C 4D 08 8D B1 62 03 70 17 00 00 21 00 00 00 51 00 00 00
2026-07-11T17:33:04.722764,25.398,can0  204  [16]  28 58 1C D2 24 99 E9 71 28 23 30 75 30 75 00 00
2026-07-11T17:33:04.722984,25.398,can0  040  [04]  16 01 07 00
2026-07-11T17:33:04.723314,25.399,can0  070  [20]  A9 2C 4D 08 8D B1 62 03 70 17 00 00 21 00 00 00 52 00 00 00
2026-07-11T17:33:04.814734,25.490,can0  204  [16]  28 58 1C D2 24 99 E9 71 28 23 30 75 30 75 00 00
2026-07-11T17:33:04.815150,25.491,can0  204  [16]  28 58 1C D2 24 99 E9 71 28 23 30 75 30 75 00 00
2026-07-11T17:33:04.815448,25.491,can0  100  [03]  48 7F 04
2026-07-11T17:33:04.815694,25.491,can0  120  [04]  00 00 00 00
2026-07-11T17:33:04.816051,25.492,can0  070  [20]  A9 2C 4D 08 8D B1 62 03 70 17 00 00 21 00 00 00 52 00 00 00
2026-07-11T17:33:04.906018,25.581,can0  206  [24]  C0 0C 6F 09 CA 0C 99 C6 89 0A CA 0C D0 0C 00 00 00 00 00 00 00 00 00 00
2026-07-11T17:33:04.906531,25.582,can0  204  [16]  28 58 1C D2 24 99 E9 71 28 23 30 75 30 75 00 00
2026-07-11T17:33:04.906593,25.582,can0  041  [04]  D1 00 10 00
2026-07-11T17:33:04.908089,25.584,can0  204  [16]  28 58 1C D2 24 99 E9 71 28 23 30 75 30 75 00 00
2026-07-11T17:33:04.908178,25.584,can0  040  [04]  00 01 07 00
2026-07-11T17:33:04.995783,25.671,can0  204  [16]  28 58 1C D2 24 99 E9 71 28 23 30 75 30 75 00 00
2026-07-11T17:33:04.996099,25.672,can0  040  [04]  00 01 07 00
2026-07-11T17:33:04.999449,25.675,can0  204  [16]  28 58 1C D2 24 99 E9 71 28 23 30 75 30 75 00 00
2026-07-11T17:33:04.999541,25.675,can0  206  [24]  C5 0C 6E 09 C6 0C 99 C6 8A 0A CF 0C D0 0C 00 00 00 00 00 00 00 00 00 00
2026-07-11T17:33:05.139664,25.815,can0  204  [16]  28 58 1C D2 24 99 E9 71 28 23 30 75 30 75 00 00
2026-07-11T17:33:05.146514,25.822,can0  204  [16]  28 58 1C D2 24 99 E9 71 28 23 30 75 30 75 00 00
2026-07-11T17:33:05.240046,25.916,can0  041  [04]  CB 00 0C 00
2026-07-11T17:33:05.240499,25.916,can0  204  [16]  28 58 1C D2 24 99 E9 71 28 23 30 75 30 75 00 00
2026-07-11T17:33:05.243675,25.919,can0  206  [24]  CA 0C 6E 09 CB 0C 99 C6 89 0A C5 0C CA 0C 00 00 00 00 00 00 00 00 00 00
2026-07-11T17:33:05.244085,25.920,can0  040  [04]  DF 00 07 00
2026-07-11T17:33:05.244481,25.920,can0  204  [16]  28 58 1C D2 24 99 E9 71 28 23 30 75 30 75 00 00
2026-07-11T17:33:05.244727,25.920,can0  110  [02]  3A 1B
2026-07-11T17:33:05.245015,25.920,can0  040  [04]  DF 00 07 00
2026-07-11T17:33:05.293661,25.969,can0  204  [16]  28 58 1C D2 24 99 E9 71 28 23 30 75 30 75 00 00
2026-07-11T17:33:05.293971,25.969,can0  204  [16]  28 58 1C D2 24 99 E9 71 28 23 30 75 30 75 00 00
2026-07-11T17:33:05.294299,25.970,can0  070  [20]  A9 2C 4D 08 8D B1 62 03 70 17 00 00 21 00 00 00 52 00 00 00
2026-07-11T17:33:05.397341,26.073,can0  206  [24]  D0 0C 6E 09 C6 0C 99 C6 88 0A C5 0C CA 0C 00 00 00 00 00 00 00 00 00 00
2026-07-11T17:33:05.405368,26.081,can0  204  [16]  28 58 1C D2 24 99 E9 71 28 23 30 75 30 75 00 00
2026-07-11T17:33:05.405464,26.081,can0  204  [16]  28 58 1C D2 24 99 E9 71 28 23 30 75 30 75 00 00
2026-07-11T17:33:05.405534,26.081,can0  041  [04]  D1 00 0B 00
2026-07-11T17:33:05.497693,26.173,can0  070  [20]  A9 2C 4D 08 8D B1 62 03 70 17 00 00 21 00 00 00 52 00 00 00
2026-07-11T17:33:05.497787,26.173,can0  040  [04]  E7 00 07 00
2026-07-11T17:33:05.497852,26.173,can0  204  [16]  28 58 1C D2 24 99 E9 71 28 23 30 75 30 75 00 00
2026-07-11T17:33:05.498067,26.174,can0  040  [04]  E7 00 07 00
2026-07-11T17:33:05.502459,26.178,can0  206  [24]  D0 0C 6E 09 C0 0C 99 C6 88 0A CA 0C CA 0C 00 00 00 00 00 00 00 00 00 00
2026-07-11T17:33:05.502817,26.178,can0  204  [16]  28 58 1C D2 24 99 E9 71 28 23 30 75 30 75 00 00
2026-07-11T17:33:05.594841,26.270,can0  204  [16]  28 58 1C D2 24 99 E9 71 28 23 30 75 30 75 00 00
2026-07-11T17:33:05.595131,26.271,can0  204  [16]  28 58 1C D2 24 99 E9 71 28 23 30 75 30 75 00 00
2026-07-11T17:33:05.753752,26.429,can0  204  [16]  28 58 1C D2 24 99 E9 71 28 23 30 75 30 75 00 00
2026-07-11T17:33:05.753861,26.429,can0  206  [24]  D0 0C 6E 09 C6 0C 99 C6 87 0A C5 0C CA 0C 00 00 00 00 00 00 00 00 00 00
2026-07-11T17:33:05.753937,26.429,can0  041  [04]  D6 00 0A 00
2026-07-11T17:33:05.753987,26.429,can0  070  [20]  A9 2C 4D 08 8E B1 62 03 58 1B 00 00 21 00 00 00 89 00 00 00
2026-07-11T17:33:05.754134,26.430,can0  070  [20]  A9 2C 4D 08 8E B1 62 03 58 1B 00 00 21 00 00 00 8A 00 00 00
2026-07-11T17:33:05.754424,26.430,can0  040  [04]  F2 00 06 00
2026-07-11T17:33:05.754751,26.430,can0  204  [16]  28 58 1C D2 24 99 E9 71 28 23 30 75 30 75 00 00
2026-07-11T17:33:05.804446,26.480,can0  040  [04]  F2 00 06 00
2026-07-11T17:33:05.804911,26.480,can0  204  [16]  28 58 1C D2 24 99 E9 71 28 23 30 75 30 75 00 00
2026-07-11T17:33:05.805204,26.481,can0  070  [20]  A9 2C 4D 08 8E B1 62 03 58 1B 00 00 21 00 00 00 8A 00 00 00
2026-07-11T17:33:05.805516,26.481,can0  204  [16]  28 58 1C D2 24 99 E9 71 28 23 30 75 30 75 00 00
2026-07-11T17:33:05.805762,26.481,can0  060  [32]  EB DC D5 02 6F 84 4D 08 5E 69 62 03 49 00 10 0A FF 01 00 00 00 00 00 00 03 00 00 00 00 00 00 00
2026-07-11T17:33:05.806050,26.482,can0  060  [32]  00 00 00 00 A9 2C 4D 08 E1 06 B8 10 00 00 10 0E FF 01 00 00 00 00 00 01 03 00 00 00 00 00 00 00
2026-07-11T17:33:05.806283,26.482,can0  060  [32]  74 ED D5 02 C9 69 4D 08 13 24 66 03 00 00 75 00 FF 01 00 00 00 00 00 02 03 00 00 00 00 00 00 00
2026-07-11T17:33:05.903421,26.579,can0  206  [24]  C5 0C 6E 09 C6 0C 99 C6 85 0A CA 0C D0 0C 00 00 00 00 00 00 00 00 00 00
2026-07-11T17:33:05.903487,26.579,can0  204  [16]  28 58 1C D2 24 99 E9 71 28 23 30 75 30 75 00 00
2026-07-11T17:33:05.910293,26.586,can0  204  [16]  28 58 1C D2 24 99 E9 71 28 23 30 75 30 75 00 00
2026-07-11T17:33:05.997925,26.673,can0  041  [04]  EB 00 0B 00
2026-07-11T17:33:05.997992,26.673,can0  204  [16]  28 58 1C D2 24 99 E9 71 28 23 30 75 30 75 00 00
2026-07-11T17:33:05.998035,26.674,can0  040  [04]  00 01 07 00
2026-07-11T17:33:06.000796,26.676,can0  206  [24]  C5 0C 6D 09 C6 0C 99 C6 85 0A CA 0C D0 0C 00 00 00 00 00 00 00 00 00 00
2026-07-11T17:33:06.001063,26.677,can0  100  [03]  4D 7F 04
2026-07-11T17:33:06.001286,26.677,can0  120  [04]  00 00 00 00
2026-07-11T17:33:06.001569,26.677,can0  204  [16]  28 58 1C D2 24 99 E9 71 28 23 30 75 30 75 00 00
2026-07-11T17:33:06.096324,26.772,can0  040  [04]  00 01 07 00
