Timestamp,Elapsed_Time_s,CAN_Message
2026-07-11T14:34:33.894173,2.970,can0  204  [16]  6E 23 00 00 00 00 B0 36 28 23 30 75 30 75 00 00
2026-07-11T14:34:33.899096,2.975,can0  206  [24]  C1 0C B0 08 BC 0C 99 C6 AA 09 CA 0C CA 0C 00 00 00 00 00 00 00 00 00 00
2026-07-11T14:34:34.030432,3.106,can0  204  [16]  6E 23 00 00 00 00 B0 36 28 23 30 75 30 75 00 00
2026-07-11T14:34:34.030683,3.106,can0  041  [04]  B5 00 00 00
2026-07-11T14:34:34.082687,3.159,can0  204  [16]  6E 23 00 00 00 00 B1 36 28 23 30 75 30 75 00 00
2026-07-11T14:34:34.085474,3.161,can0  206  [24]  C1 0C B1 08 C1 0C 99 C6 AA 09 C5 0C CA 0C 00 00 00 00 00 00 00 00 00 00
2026-07-11T14:34:34.090262,3.166,can0  060  [32]  00 00 00 00 00 00 00 00 00 00 00 00 00 00 00 00 00 00 00 00 00 00 00 00 00 00 00 00 00 00 00 00
2026-07-11T14:34:34.187372,3.263,can0  204  [16]  6E 23 00 00 00 00 B2 36 28 23 30 75 30 75 00 00
2026-07-11T14:34:34.189146,3.265,can0  206  [24]  C1 0C B0 08 C6 0C 99 C6 AB 09 C0 0C CA 0C 00 00 00 00 00 00 00 00 00 00
2026-07-11T14:34:34.291236,3.367,can0  100  [03]  A1 90 04
2026-07-11T14:34:34.291452,3.367,can0  120  [04]  00 00 00 00
2026-07-11T14:34:34.291797,3.368,can0  204  [16]  6E 23 00 00 00 00 B2 36 28 23 30 75 30 75 00 00
2026-07-11T14:34:34.292014,3.368,can0  041  [04]  8B 00 00 00
2026-07-11T14:34:34.294891,3.371,can0  131  [00]
2026-07-11T14:34:34.393333,3.469,can0  204  [16]  6E 23 00 00 00 00 B2 36 28 23 30 75 30 75 00 00
2026-07-11T14:34:34.396705,3.473,can0  206  [24]  C1 0C B0 08 C6 0C 99 C6 AA 09 C5 0C CA 0C 00 00 00 00 00 00 00 00 00 00
2026-07-11T14:34:34.493280,3.569,can0  204  [16]  6E 23 00 00 00 00 B1 36 28 23 30 75 30 75 00 00
2026-07-11T14:34:34.498514,3.574,can0  041  [04]  8B 00 00 00
2026-07-11T14:34:34.600634,3.676,can0  204  [16]  6E 23 00 00 00 00 B1 36 28 23 30 75 30 75 00 00
2026-07-11T14:34:34.600721,3.677,can0  206  [24]  C6 0C B0 08 C6 0C 99 C6 AA 09 C5 0C C6 0C 00 00 00 00 00 00 00 00 00 00
2026-07-11T14:34:34.600766,3.677,can0  060  [32]  00 00 00 00 00 00 00 00 00 00 00 00 00 00 00 00 00 00 00 00 00 00 00 00 00 00 00 00 00 00 00 00
2026-07-11T14:34:34.698875,3.775,can0  204  [16]  6E 23 00 00 00 00 B0 36 28 23 30 75 30 75 00 00
2026-07-11T14:34:34.704189,3.780,can0  040  [04]  67 01 07 00
2026-07-11T14:34:34.704298,3.780,can0  206  [24]  C6 0C B0 08 C1 0C 99 C6 AB 09 C5 0C CA 0C 00 00 00 00 00 00 00 00 00 00
2026-07-11T14:34:34.807628,3.883,can0  204  [16]  6E 23 00 00 00 00 B1 36 28 23 30 75 30 75 00 00
2026-07-11T14:34:34.808087,3.884,can0  041  [04]  2F 00 00 00
2026-07-11T14:34:34.876500,3.952,can0  204  [16]  6E 23 00 00 00 00 B1 36 28 23 30 75 30 75 00 00
2026-07-11T14:34:34.876589,3.952,can0  206  [24]  C6 0C B0 08 C1 0C 99 C6 AC 09 C5 0C CA 0C 00 00 00 00 00 00 00 00 00 00
2026-07-11T14:34:34.962396,4.038,can0  040  [04]  67 01 02 00
2026-07-11T14:34:34.962884,4.039,can0  204  [16]  6E 23 00 00 00 00 B1 36 28 23 30 75 30 75 00 00
2026-07-11T14:34:34.963135,4.039,can0  040  [04]  67 01 02 00
2026-07-11T14:34:34.969362,4.045,can0  110  [02]  13 1B
2026-07-11T14:34:35.052606,4.128,can0  204  [16]  6E 23 00 00 00 00 B0 36 28 23 30 75 30 75 00 00
2026-07-11T14:34:35.055591,4.131,can0  206  [24]  CA 0C AF 08 B7 0C 99 C6 AB 09 CA 0C CA 0C 00 00 00 00 00 00 00 00 00 00
2026-07-11T14:34:35.055898,4.132,can0  041  [04]  02 00 02 00
2026-07-11T14:34:35.056189,4.132,can0  060  [32]  00 00 00 00 00 00 00 00 00 00 00 00 00 00 00 00 00 00 00 00 00 00 00 00 00 00 00 00 00 00 00 00
2026-07-11T14:34:35.192951,4.269,can0  204  [16]  6E 23 00 00 00 00 AF 36 28 23 30 75 30 75 00 00
2026-07-11T14:34:35.193176,4.269,can0  040  [04]  73 00 02 00
2026-07-11T14:34:35.200883,4.277,can0  206  [24]  CF 0C B0 08 B2 0C 99 C6 AC 09 CF 0C C6 0C 00 00 00 00 00 00 00 00 00 00
2026-07-11T14:34:35.292704,4.369,can0  204  [16]  6E 23 00 00 00 00 AE 36 28 23 30 75 30 75 00 00
2026-07-11T14:34:35.292956,4.369,can0  040  [04]  73 00 02 00
2026-07-11T14:34:35.297933,4.374,can0  041  [04]  5E 01 05 00
2026-07-11T14:34:35.392655,4.468,can0  204  [16]  6E 23 00 00 00 00 AE 36 28 23 30 75 30 75 00 00
2026-07-11T14:34:35.392937,4.469,can0  133  [00]
2026-07-11T14:34:35.395597,4.471,can0  206  [24]  CA 0C B1 08 B7 0C 99 C6 AC 09 CA 0C CA 0C 00 00 00 00 00 00 00 00 00 00
2026-07-11T14:34:35.395844,4.472,can0  100  [03]  B7 90 04
2026-07-11T14:34:35.492985,4.569,can0  120  [04]  00 00 00 00
2026-07-11T14:34:35.493082,4.569,can0  204  [16]  6E 23 00 00 00 00 B0 36 28 23 30 75 30 75 00 00
2026-07-11T14:34:35.493169,4.569,can0  040  [04]  A3 00 09 00
2026-07-11T14:34:35.493256,4.569,can0  040  [04]  A3 00 09 00
2026-07-11T14:34:35.595473,4.671,can0  206  [24]  CB 0C B1 08 B7 0C 99 C6 AC 09 D5 0C C6 0C 00 00 00 00 00 00 00 00 00 00
2026-07-11T14:34:35.595571,4.671,can0  204  [16]  6E 23 00 00 00 00 B0 36 28 23 30 75 30 75 00 00
2026-07-11T14:34:35.596120,4.672,can0  060  [32]  00 00 00 00 00 00 00 00 00 00 00 00 00 00 00 00 00 00 00 00 00 00 00 00 00 00 00 00 00 00 00 00
2026-07-11T14:34:35.596203,4.672,can0  041  [04]  62 01 08 00
2026-07-11T14:34:35.596324,4.672,can0  130  [00]
2026-07-11T14:34:35.693451,4.769,can0  204  [16]  6E 23 00 00 00 00 B0 36 28 23 30 75 30 75 00 00
2026-07-11T14:34:35.695992,4.772,can0  206  [24]  C6 0C B1 08 BC 0C 99 C6 AB 09 CF 0C C6 0C 00 00 00 00 00 00 00 00 00 00
2026-07-11T14:34:35.696291,4.772,can0  040  [04]  99 00 0E 00
2026-07-11T14:34:35.799155,4.875,can0  204  [16]  6E 23 00 00 00 00 AF 36 28 23 30 75 30 75 00 00
2026-07-11T14:34:35.799254,4.875,can0  040  [04]  99 00 0E 00
2026-07-11T14:34:35.893371,4.969,can0  204  [16]  6E 23 00 00 00 00 AF 36 28 23 30 75 30 75 00 00
2026-07-11T14:34:35.893657,4.969,can0  041  [04]  63 01 09 00
2026-07-11T14:34:35.896755,4.973,can0  206  [24]  C6 0C AE 08 B7 0C 99 C6 AB 09 DA 0C C6 0C 00 00 00 00 00 00 00 00 00 00
2026-07-11T14:34:35.992449,5.068,can0  204  [16]  6E 23 00 00 00 00 AF 36 28 23 30 75 30 75 00 00
2026-07-11T14:34:35.992746,5.069,can0  040  [04]  8C 00 10 00
2026-07-11T14:34:36.095987,5.172,can0  206  [24]  C1 0C AE 08 B7 0C 99 C6 AB 09 DA 0C CA 0C 00 00 00 00 00 00 00 00 00 00
2026-07-11T14:34:36.096259,5.172,can0  040  [04]  8C 00 10 00
2026-07-11T14:34:36.096557,5.172,can0  204  [16]  6E 23 00 00 00 00 B0 36 28 23 30 75 30 75 00 00
2026-07-11T14:34:36.096804,5.173,can0  060  [32]  00 00 00 00 00 00 00 00 00 00 00 00 00 00 00 00 00 00 00 00 00 00 00 00 00 00 00 00 00 00 00 00
2026-07-11T14:34:36.097099,5.173,can0  041  [04]  55 01 09 00
2026-07-11T14:34:36.192773,5.269,can0  204  [16]  6E 23 00 00 00 00 B0 36 28 23 30 75 30 75 00 00
2026-07-11T14:34:36.195258,5.271,can0  206  [24]  C1 0C AE 08 B7 0C 99 C6 AC 09 DA 0C CA 0C 00 00 00 00 00 00 00 00 00 00
2026-07-11T14:34:36.293232,5.369,can0  204  [16]  6E 23 00 00 00 00 B0 36 28 23 30 75 30 75 00 00
2026-07-11T14:34:36.300391,5.376,can0  040  [04]  83 00 11 00
2026-07-11T14:34:36.300478,5.376,can0  040  [04]  83 00 11 00
2026-07-11T14:34:36.393194,5.469,can0  204  [16]  6E 23 00 00 00 00 AE 36 28 23 30 75 30 75 00 00
2026-07-11T14:34:36.395648,5.471,can0  206  [24]  C1 0C AE 08 BC 0C 99 C6 AC 09 CF 0C CA 0C 00 00 00 00 00 00 00 00 00 00
2026-07-11T14:34:36.396008,5.472,can0  041  [04]  5A 01 07 00
2026-07-11T14:34:36.497824,5.574,can0  204  [16]  6E 23 00 00 00 00 AF 36 28 23 30 75 30 75 00 00
2026-07-11T14:34:36.594867,5.671,can0  040  [04]  7C 00 11 00
2026-07-11T14:34:36.594970,5.671,can0  206  [24]  C6 0C AF 08 B7 0C 99 C6 AC 09 CF 0C CA 0C 00 00 00 00 00 00 00 00 00 00
2026-07-11T14:34:36.601143,5.677,can0  204  [16]  6E 23 00 00 00 00 AF 36 28 23 30 75 30 75 00 00
2026-07-11T14:34:36.601230,5.677,can0  060  [32]  00 00 00 00 00 00 00 00 00 00 00 00 00 00 00 00 00 00 00 00 00 00 00 00 00 00 00 00 00 00 00 00
2026-07-11T14:34:36.601320,5.677,can0  040  [04]  7C 00 11 00
2026-07-11T14:34:36.601399,5.677,can0  100  [03]  C9 90 04
2026-07-11T14:34:36.601480,5.677,can0  110  [02]  13 1B
2026-07-11T14:34:36.692640,5.768,can0  120  [04]  00 00 00 00
2026-07-11T14:34:36.693207,5.769,can0  041  [04]  4E 01 0A 00
2026-07-11T14:34:36.693287,5.769,can0  204  [16]  6E 23 00 00 00 00 AF 36 28 23 30 75 30 75 00 00
2026-07-11T14:34:36.696178,5.772,can0  206  [24]  C6 0C B2 08 BC 0C 99 C6 AC 09 C5 0C CA 0C 00 00 00 00 00 00 00 00 00 00
2026-07-11T14:34:36.792695,5.869,can0  204  [16]  6E 23 00 00 00 00 AF 36 28 23 30 75 30 75 00 00
2026-07-11T14:34:36.793010,5.869,can0  040  [04]  7D 00 0C 00
2026-07-11T14:34:36.895325,5.971,can0  040  [04]  7D 00 0C 00
2026-07-11T14:34:36.895412,5.971,can0  204  [16]  6E 23 00 00 00 00 AF 36 28 23 30 75 30 75 00 00
2026-07-11T14:34:36.895458,5.971,can0  206  [24]  C6 0C B2 08 C1 0C 99 C6 AB 09 C0 0C CA 0C 00 00 00 00 00 00 00 00 00 00
2026-07-11T14:34:36.895608,5.971,can0  041  [04]  36 01 0C 00
2026-07-11T14:34:37.095687,6.172,can0  204  [16]  6E 23 00 00 00 00 AF 36 28 23 30 75 30 75 00 00
2026-07-11T14:34:37.095771,6.172,can0  206  [24]  C6 0C B2 08 C1 0C 99 C6 AC 09 C0 0C CA 0C 00 00 00 00 00 00 00 00 00 00
2026-07-11T14:34:37.096033,6.172,can0  204  [16]  6E 23 00 00 00 00 AF 36 28 23 30 75 30 75 00 00
2026-07-11T14:34:37.193011,6.269,can0  060  [32]  00 00 00 00 00 00 00 00 00 00 00 00 00 00 00 00 00 00 00 00 00 00 00 00 00 00 00 00 00 00 00 00
2026-07-11T14:34:37.194518,6.270,can0  040  [04]  7F 00 07 00
2026-07-11T14:34:37.194993,6.271,can0  040  [04]  7F 00 07 00
2026-07-11T14:34:37.195050,6.271,can0  204  [16]  6E 23 00 00 00 00 AF 36 28 23 30 75 30 75 00 00
2026-07-11T14:34:37.195285,6.271,can0  041  [04]  23 01 0B 00
2026-07-11T14:34:37.198374,6.274,can0  206  [24]  C6 0C B0 08 C1 0C 99 C6 AA 09 C0 0C CA 0C 00 00 00 00 00 00 00 00 00 00
2026-07-11T14:34:37.298303,6.374,can0  204  [16]  6E 23 00 00 00 00 AE 36 28 23 30 75 30 75 00 00
2026-07-11T14:34:37.397872,6.474,can0  040  [04]  7A 00 02 00
2026-07-11T14:34:37.496053,6.572,can0  206  [24]  BB 0C AF 08 C1 0C 99 C6 AA 09 C5 0C D0 0C 00 00 00 00 00 00 00 00 00 00
2026-07-11T14:34:37.496120,6.572,can0  204  [16]  6E 23 00 00 00 00 AE 36 28 23 30 75 30 75 00 00
2026-07-11T14:34:37.496164,6.572,can0  040  [04]  7A 00 02 00
2026-07-11T14:34:37.496460,6.572,can0  041  [04]  1C 01 08 00
2026-07-11T14:34:37.501649,6.577,can0  204  [16]  6E 23 00 00 00 00 AE 36 28 23 30 75 30 75 00 00
2026-07-11T14:34:37.569849,6.646,can0  206  [24]  B6 0C B0 08 C1 0C 99 C6 AA 09 C5 0C D5 0C 00 00 00 00 00 00 00 00 00 00
2026-07-11T14:34:37.570409,6.646,can0  204  [16]  6E 23 00 00 00 00 B0 36 28 23 30 75 30 75 00 00
2026-07-11T14:34:37.570763,6.647,can0  060  [32]  00 00 00 00 00 00 00 00 00 00 00 00 00 00 00 00 00 00 00 00 00 00 00 00 00 00 00 00 00 00 00 00
2026-07-11T14:34:37.579280,6.655,can0  040  [04]  73 00 02 00
2026-07-11T14:34:37.702894,6.779,can0  040  [04]  73 00 02 00
2026-07-11T14:34:37.794003,6.870,can0  204  [16]  6E 23 00 00 00 00 B0 36 28 23 30 75 30 75 00 00
2026-07-11T14:34:37.796772,6.873,can0  206  [24]  B6 0C B0 08 C1 0C 99 C6 A9 09 CA 0C D5 0C 00 00 00 00 00 00 00 00 00 00
2026-07-11T14:34:37.796980,6.873,can0  041  [04]  E4 00 02 00
2026-07-11T14:34:37.797425,6.873,can0  204  [16]  6E 23 00 00 00 00 B0 36 28 23 30 75 30 75 00 00
2026-07-11T14:34:37.797470,6.873,can0  100  [03]  D9 90 04
2026-07-11T14:34:37.797717,6.874,can0  120  [04]  00 00 00 00
2026-07-11T14:34:37.898332,6.974,can0  040  [04]  87 00 02 00
2026-07-11T14:34:37.899133,6.975,can0  206  [24]  BB 0C AF 08 C6 0C 99 C6 A8 09 C5 0C D0 0C 00 00 00 00 00 00 00 00 00 00
2026-07-11T14:34:37.998771,7.075,can0  204  [16]  6E 23 00 00 00 00 AF 36 28 23 30 75 30 75 00 00
2026-07-11T14:34:37.999309,7.075,can0  040  [04]  87 00 02 00
2026-07-11T14:34:37.999360,7.075,can0  204  [16]  6E 23 00 00 00 00 AF 36 28 23 30 75 30 75 00 00
2026-07-11T14:34:37.999537,7.075,can0  041  [04]  B5 00 02 00
2026-07-11T14:34:38.007534,7.083,can0  206  [24]  C0 0C AF 08 C1 0C 99 C6 AA 09 C5 0C D0 0C 00 00 00 00 00 00 00 00 00 00
2026-07-11T14:34:38.102376,7.178,can0  060  [32]  00 00 00 00 00 00 00 00 00 00 00 00 00 00 00 00 00 00 00 00 00 00 00 00 00 00 00 00 00 00 00 00
2026-07-11T14:34:38.102696,7.179,can0  204  [16]  6E 23 00 00 00 00 AF 36 28 23 30 75 30 75 00 00
2026-07-11T14:34:38.200965,7.277,can0  040  [04]  A0 00 02 00
2026-07-11T14:34:38.201291,7.277,can0  204  [16]  6E 23 00 00 00 00 AF 36 28 23 30 75 30 75 00 00
2026-07-11T14:34:38.201528,7.277,can0  040  [04]  A0 00 02 00
2026-07-11T14:34:38.204188,7.280,can0  206  [24]  C1 0C B0 08 C6 0C 99 C6 AC 09 C0 0C CA 0C 00 00 00 00 00 00 00 00 00 00
2026-07-11T14:34:38.204426,7.280,can0  110  [02]  12 1B
2026-07-11T14:34:38.256773,7.333,can0  041  [04]  10 01 02 00
2026-07-11T14:34:38.257121,7.333,can0  204  [16]  6E 23 00 00 00 00 AF 36 28 23 30 75 30 75 00 00
2026-07-11T14:34:38.361524,7.437,can0  206  [24]  C6 0C B0 08 C1 0C 99 C6 AB 09 C0 0C CA 0C 00 00 00 00 00 00 00 00 00 00
2026-07-11T14:34:38.361814,7.438,can0  204  [16]  6E 23 00 00 00 00 AF 36 28 23 30 75 30 75 00 00
2026-07-11T14:34:38.362064,7.438,can0  040  [04]  99 00 07 00
2026-07-11T14:34:38.467268,7.543,can0  040  [04]  99 00 07 00
2026-07-11T14:34:38.472441,7.548,can0  204  [16]  6E 23 00 00 00 00 AF 36 28 23 30 75 30 75 00 00
2026-07-11T14:34:38.564890,7.641,can0  041  [04]  10 01 06 00
2026-07-11T14:34:38.567912,7.644,can0  206  [24]  C6 0C B0 08 C1 0C 99 C6 AB 09 C0 0C CA 0C 00 00 00 00 00 00 00 00 00 00
2026-07-11T14:34:38.567976,7.644,can0  060  [32]  00 00 00 00 00 00 00 00 00 00 00 00 00 00 00 00 00 00 00 00 00 00 00 00 00 00 00 00 00 00 00 00
2026-07-11T14:34:38.573593,7.649,can0  204  [16]  6E 23 00 00 00 00 AF 36 28 23 30 75 30 75 00 00
2026-07-11T14:34:38.677092,7.753,can0  040  [04]  99 00 06 00
2026-07-11T14:34:38.677536,7.753,can0  204  [16]  6E 23 00 00 00 00 AF 36 28 23 30 75 30 75 00 00
2026-07-11T14:34:38.680179,7.756,can0  206  [24]  C0 0C B0 08 C1 0C 99 C6 AC 09 C0 0C D0 0C 00 00 00 00 00 00 00 00 00 00
2026-07-11T14:34:38.680618,7.756,can0  040  [04]  99 00 06 00
2026-07-11T14:34:38.782789,7.859,can0  204  [16]  6E 23 00 00 00 00 AF 36 28 23 30 75 30 75 00 00
2026-07-11T14:34:38.783186,7.859,can0  041  [04]  10 01 09 00
2026-07-11T14:34:38.884432,7.960,can0  206  [24]  C6 0C B1 08 C1 0C 99 C6 AC 09 C0 0C CA 0C 00 00 00 00 00 00 00 00 00 00
2026-07-11T14:34:38.884756,7.961,can0  204  [16]  6E 23 00 00 00 00 AF 36 28 23 30 75 30 75 00 00
2026-07-11T14:34:38.885027,7.961,can0  040  [04]  7A 00 05 00
2026-07-11T14:34:38.974896,8.051,can0  040  [04]  7A 00 05 00
2026-07-11T14:34:38.975332,8.051,can0  204  [16]  6E 23 00 00 00 00 AF 36 28 23 30 75 30 75 00 00
2026-07-11T14:34:38.977922,8.054,can0  206  [24]  C6 0C B5 08 C1 0C 99 C6 AA 09 C5 0C CA 0C 00 00 00 00 00 00 00 00 00 00
2026-07-11T14:34:38.978139,8.054,can0  100  [03]  EB 90 04
2026-07-11T14:34:38.978424,8.054,can0  120  [04]  00 00 00 00
2026-07-11T14:34:39.065984,8.142,can0  041  [04]  10 01 09 00
2026-07-11T14:34:39.066352,8.142,can0  060  [32]  00 00 00 00 00 00 00 00 00 00 00 00 00 00 00 00 00 00 00 00 00 00 00 00 00 00 00 00 00 00 00 00
2026-07-11T14:34:39.066687,8.143,can0  204  [16]  6E 23 00 00 00 00 AE 36 28 23 30 75 30 75 00 00
2026-07-11T14:34:39.202895,8.279,can0  204  [16]  6E 23 00 00 00 00 AE 36 28 23 30 75 30 75 00 00
2026-07-11T14:34:39.212997,8.289,can0  206  [24]  C6 0C B4 08 C1 0C 99 C6 AA 09 C5 0C CA 0C 00 00 00 00 00 00 00 00 00 00
2026-07-11T14:34:39.213072,8.289,can0  040  [04]  73 00 02 00
2026-07-11T14:34:39.300977,8.377,can0  040  [04]  73 00 02 00
2026-07-11T14:34:39.301276,8.377,can0  204  [16]  6E 23 00 00 00 00 AF 36 28 23 30 75 30 75 00 00
2026-07-11T14:34:39.301523,8.377,can0  041  [04]  1C 01 07 00
2026-07-11T14:34:39.398072,8.474,can0  206  [24]  C6 0C B3 08 BC 0C 99 C6 AB 09 CF 0C C6 0C 00 00 00 00 00 00 00 00 00 00
2026-07-11T14:34:39.398418,8.474,can0  204  [16]  6E 23 00 00 00 00 AF 36 28 23 30 75 30 75 00 00
2026-07-11T14:34:39.492913,8.569,can0  040  [04]  58 00 00 00
2026-07-11T14:34:39.493156,8.569,can0  204  [16]  6E 23 00 00 00 00 AF 36 28 23 30 75 30 75 00 00
2026-07-11T14:34:39.493419,8.569,can0  040  [04]  58 00 00 00
2026-07-11T14:34:39.496875,8.573,can0  206  [24]  C6 0C B3 08 C1 0C 99 C6 AB 09 CA 0C C6 0C 00 00 00 00 00 00 00 00 00 00
2026-07-11T14:34:39.559556,8.635,can0  060  [32]  00 00 00 00 00 00 00 00 00 00 00 00 00 00 00 00 00 00 00 00 00 00 00 00 00 00 00 00 00 00 00 00
2026-07-11T14:34:39.559934,8.636,can0  041  [04]  1A 01 07 00
2026-07-11T14:34:39.569545,8.645,can0  204  [16]  6E 23 00 00 00 00 AF 36 28 23 30 75 30 75 00 00
2026-07-11T14:34:39.662599,8.738,can0  206  [24]  C1 0C B4 08 BC 0C 99 C6 AB 09 CF 0C CA 0C 00 00 00 00 00 00 00 00 00 00
2026-07-11T14:34:39.662666,8.738,can0  204  [16]  6E 23 00 00 00 00 AF 36 28 23 30 75 30 75 00 00
2026-07-11T14:34:39.669206,8.745,can0  040  [04]  87 00 00 00
2026-07-11T14:34:39.805123,8.881,can0  040  [04]  87 00 00 00
2026-07-11T14:34:39.805452,8.881,can0  204  [16]  6E 23 00 00 00 00 AF 36 28 23 30 75 30 75 00 00
2026-07-11T14:34:39.805644,8.881,can0  110  [02]  11 1B
2026-07-11T14:34:39.901272,8.977,can0  206  [24]  C1 0C B1 08 B7 0C 99 C6 AC 09 CF 0C CA 0C 00 00 00 00 00 00 00 00 00 00
2026-07-11T14:34:39.901355,8.977,can0  041  [04]  10 01 09 00
2026-07-11T14:34:39.901615,8.977,can0  204  [16]  6E 23 00 00 00 00 AF 36 28 23 30 75 30 75 00 00
2026-07-11T14:34:39.994898,9.071,can0  204  [16]  6E 23 00 00 00 00 B0 36 28 23 30 75 30 75 00 00
2026-07-11T14:34:39.994975,9.071,can0  040  [04]  DF 00 00 00
2026-07-11T14:34:39.999250,9.075,can0  206  [24]  BB 0C B2 08 BC 0C 99 C6 AB 09 CF 0C D0 0C 00 00 00 00 00 00 00 00 00 00
2026-07-11T14:34:40.093520,9.169,can0  040  [04]  DF 00 00 00
2026-07-11T14:34:40.093589,9.169,can0  060  [32]  00 00 00 00 00 00 00 00 00 00 00 00 00 00 00 00 00 00 00 00 00 00 00 00 00 00 00 00 00 00 00 00
2026-07-11T14:34:40.094035,9.170,can0  204  [16]  6E 23 00 00 00 00 B0 36 28 23 30 75 30 75 00 00
2026-07-11T14:34:40.094088,9.170,can0  041  [04]  10 01 09 00
2026-07-11T14:34:40.195454,9.271,can0  206  [24]  BB 0C B1 08 BC 0C 99 C6 AB 09 CF 0C D0 0C 00 00 00 00 00 00 00 00 00 00
2026-07-11T14:34:40.195690,9.272,can0  204  [16]  6E 23 00 00 00 00 B0 36 28 23 30 75 30 75 00 00
2026-07-11T14:34:40.196060,9.272,can0  100  [03]  F3 90 04
2026-07-11T14:34:40.201991,9.278,can0  120  [04]  00 00 00 00
2026-07-11T14:34:40.293095,9.369,can0  040  [04]  F9 00 02 00
2026-07-11T14:34:40.293429,9.369,can0  204  [16]  6E 23 00 00 00 00 B0 36 28 23 30 75 30 75 00 00
2026-07-11T14:34:40.299859,9.376,can0  040  [04]  F9 00 02 00
2026-07-11T14:34:40.401652,9.477,can0  206  [24]  BB 0C B1 08 BC 0C 99 C6 AC 09 CF 0C D0 0C 00 00 00 00 00 00 00 00 00 00
2026-07-11T14:34:40.401728,9.478,can0  041  [04]  02 01 0A 00
2026-07-11T14:34:40.401773,9.478,can0  204  [16]  6E 23 00 00 00 00 B0 36 28 23 30 75 30 75 00 00
2026-07-11T14:34:40.501626,9.577,can0  204  [16]  6E 23 00 00 00 00 B0 36 28 23 30 75 30 75 00 00
2026-07-11T14:34:40.501704,9.578,can0  206  [24]  C0 0C AF 08 BC 0C 99 C6 AB 09 CA 0C D0 0C 00 00 00 00 00 00 00 00 00 00
2026-07-11T14:34:40.501748,9.578,can0  040  [04]  DF 00 05 00
2026-07-11T14:34:40.593978,9.670,can0  060  [32]  00 00 00 00 00 00 00 00 00 00 00 00 00 00 00 00 00 00 00 00 00 00 00 00 00 00 00 00 00 00 00 00
2026-07-11T14:34:40.594049,9.670,can0  040  [04]  DF 00 05 00
2026-07-11T14:34:40.594091,9.670,can0  204  [16]  6E 23 00 00 00 00 B0 36 28 23 30 75 30 75 00 00
2026-07-11T14:34:40.695844,9.772,can0  041  [04]  09 01 0A 00
2026-07-11T14:34:40.695919,9.772,can0  206  [24]  C0 0C AF 08 C1 0C 99 C6 AB 09 C5 0C D0 0C 00 00 00 00 00 00 00 00 00 00
2026-07-11T14:34:40.702082,9.778,can0  204  [16]  6E 23 00 00 00 00 B0 36 28 23 30 75 30 75 00 00
2026-07-11T14:34:40.792944,9.869,can0  040  [04]  B3 00 07 00
2026-07-11T14:34:40.799020,9.875,can0  204  [16]  6E 23 00 00 00 00 B0 36 28 23 30 75 30 75 00 00
2026-07-11T14:34:40.895948,9.972,can0  206  [24]  CB 0C AB 08 C1 0C 99 C6 AC 09 C5 0C C6 0C 00 00 00 00 00 00 00 00 00 00
2026-07-11T14:34:40.902864,9.979,can0  040  [04]  B3 00 07 00
2026-07-11T14:34:40.902947,9.979,can0  204  [16]  6E 23 00 00 00 00 B0 36 28 23 30 75 30 75 00 00
2026-07-11T14:34:40.902994,9.979,can0  041  [04]  06 01 06 00
2026-07-11T14:34:40.994865,10.071,can0  132  [00]
2026-07-11T14:34:40.995222,10.071,can0  204  [16]  6E 23 00 00 00 00 B0 36 28 23 30 75 30 75 00 00
2026-07-11T14:34:41.003663,10.079,can0  206  [24]  C6 0C AC 08 C6 0C 99 C6 AC 09 C0 0C CA 0C 00 00 00 00 00 00 00 00 00 00
2026-07-11T14:34:41.093243,10.169,can0  040  [04]  C3 00 02 00
2026-07-11T14:34:41.093542,10.169,can0  060  [32]  00 00 00 00 00 00 00 00 00 00 00 00 00 00 00 00 00 00 00 00 00 00 00 00 00 00 00 00 00 00 00 00
2026-07-11T14:34:41.094055,10.170,can0  204  [16]  6E 23 00 00 00 00 B0 36 28 23 30 75 30 75 00 00
2026-07-11T14:34:41.100610,10.176,can0  040  [04]  C3 00 02 00
2026-07-11T14:34:41.196118,10.272,can0  206  [24]  C6 0C AC 08 C1 0C 99 C6 AC 09 C5 0C CA 0C 00 00 00 00 00 00 00 00 00 00
2026-07-11T14:34:41.196191,10.272,can0  041  [04]  FD 00 06 00
2026-07-11T14:34:41.196367,10.272,can0  204  [16]  6E 23 00 00 00 00 B0 36 28 23 30 75 30 75 00 00
2026-07-11T14:34:41.293421,10.369,can0  204  [16]  6E 23 00 00 00 00 B0 36 28 23 30 75 30 75 00 00
2026-07-11T14:34:41.300008,10.376,can0  040  [04]  0C 01 02 00
2026-07-11T14:34:41.396204,10.472,can0  206  [24]  C6 0C AE 08 C6 0C 99 C6 AB 09 C0 0C CA 0C 00 00 00 00 00 00 00 00 00 00
2026-07-11T14:34:41.396442,10.472,can0  040  [04]  0C 01 02 00
2026-07-11T14:34:41.396816,10.473,can0  204  [16]  6E 23 00 00 00 00 B0 36 28 23 30 75 30 75 00 00
2026-07-11T14:34:41.397062,10.473,can0  100  [03]  F5 90 04
2026-07-11T14:34:41.397279,10.473,can0  110  [02]  12 1B
2026-07-11T14:34:41.397486,10.473,can0  120  [04]  00 00 00 00
2026-07-11T14:34:41.492555,10.568,can0  041  [04]  ED 00 06 00
2026-07-11T14:34:41.494991,10.571,can0  206  [24]  C1 0C AE 08 C6 0C 99 C6 AA 09 C5 0C CA 0C 00 00 00 00 00 00 00 00 00 00
2026-07-11T14:34:41.503763,10.580,can0  204  [16]  6E 23 00 00 00 00 B1 36 28 23 30 75 30 75 00 00
2026-07-11T14:34:41.596068,10.672,can0  060  [32]  00 00 00 00 00 00 00 00 00 00 00 00 00 00 00 00 00 00 00 00 00 00 00 00 00 00 00 00 00 00 00 00
2026-07-11T14:34:41.596140,10.672,can0  040  [04]  2E 01 05 00
2026-07-11T14:34:41.601875,10.678,can0  204  [16]  6E 23 00 00 00 00 B1 36 28 23 30 75 30 75 00 00
2026-07-11T14:34:41.701888,10.778,can0  040  [04]  2E 01 05 00
2026-07-11T14:34:41.701987,10.778,can0  206  [24]  C6 0C B2 08 C1 0C 99 C6 AB 09 C5 0C CA 0C 00 00 00 00 00 00 00 00 00 00
2026-07-11T14:34:41.702034,10.778,can0  204  [16]  6E 23 00 00 00 00 B1 36 28 23 30 75 30 75 00 00
2026-07-11T14:34:41.702095,10.778,can0  041  [04]  ED 00 07 00
2026-07-11T14:34:41.801934,10.878,can0  204  [16]  6E 23 00 00 00 00 B0 36 28 23 30 75 30 75 00 00
2026-07-11T14:34:41.802016,10.878,can0  206  [24]  C6 0C B2 08 C1 0C 99 C6 AB 09 C5 0C CA 0C 00 00 00 00 00 00 00 00 00 00
2026-07-11T14:34:41.892800,10.969,can0  040  [04]  2E 01 05 00
2026-07-11T14:34:41.898861,10.975,can0  040  [04]  2E 01 05 00
2026-07-11T14:34:41.898995,10.975,can0  204  [16]  6E 23 00 00 00 00 B0 36 28 23 30 75 30 75 00 00
2026-07-11T14:34:41.993173,11.069,can0  041  [04]  E4 00 07 00
2026-07-11T14:34:42.001614,11.077,can0  206  [24]  C6 0C B1 08 BC 0C 99 C6 AA 09 D0 0C CA 0C 00 00 00 00 00 00 00 00 00 00
2026-07-11T14:34:42.001702,11.078,can0  204  [16]  6E 23 00 00 00 00 B0 36 28 23 30 75 30 75 00 00
2026-07-11T14:34:42.095589,11.171,can0  060  [32]  00 00 00 00 00 00 00 00 00 00 00 00 00 00 00 00 00 00 00 00 00 00 00 00 00 00 00 00 00 00 00 00
2026-07-11T14:34:42.103129,11.179,can0  204  [16]  6E 23 00 00 00 00 B0 36 28 23 30 75 30 75 00 00
2026-07-11T14:34:42.103208,11.179,can0  040  [04]  32 01 06 00
2026-07-11T14:34:42.198693,11.275,can0  040  [04]  32 01 06 00
2026-07-11T14:34:42.202429,11.278,can0  206  [24]  C1 0C B0 08 C1 0C 99 C6 AB 09 D0 0C CA 0C 00 00 00 00 00 00 00 00 00 00
2026-07-11T14:34:42.202487,11.278,can0  204  [16]  6E 23 00 00 00 00 B0 36 28 23 30 75 30 75 00 00
2026-07-11T14:34:42.306694,11.383,can0  041  [04]  DC 00 06 00
2026-07-11T14:34:42.306757,11.383,can0  204  [16]  6E 23 00 00 00 00 B0 36 28 23 30 75 30 75 00 00
2026-07-11T14:34:42.310060,11.386,can0  206  [24]  C6 0C AF 08 C1 0C 99 C6 AC 09 C5 0C CA 0C 00 00 00 00 00 00 00 00 00 00
2026-07-11T14:34:42.370150,11.446,can0  040  [04]  26 01 05 00
2026-07-11T14:34:42.370247,11.446,can0  204  [16]  6E 23 00 00 00 00 B1 36 28 23 30 75 30 75 00 00
2026-07-11T14:34:42.511383,11.587,can0  040  [04]  26 01 05 00
2026-07-11T14:34:42.511451,11.587,can0  206  [24]  BB 0C AF 08 C1 0C 99 C6 AC 09 CA 0C D0 0C 00 00 00 00 00 00 00 00 00 00
2026-07-11T14:34:42.511630,11.587,can0  041  [04]  B5 00 07 00
2026-07-11T14:34:42.511926,11.588,can0  204  [16]  6E 23 00 00 00 00 B1 36 28 23 30 75 30 75 00 00
2026-07-11T14:34:42.609714,11.686,can0  060  [32]  00 00 00 00 00 00 00 00 00 00 00 00 00 00 00 00 00 00 00 00 00 00 00 00 00 00 00 00 00 00 00 00
2026-07-11T14:34:42.609786,11.686,can0  100  [03]  F5 90 04
2026-07-11T14:34:42.609829,11.686,can0  120  [04]  00 00 00 00
2026-07-11T14:34:42.609963,11.686,can0  204  [16]  6E 23 00 00 00 00 B1 36 28 23 30 75 30 75 00 00
2026-07-11T14:34:42.705872,11.782,can0  040  [04]  26 01 05 00
2026-07-11T14:34:42.708841,11.785,can0  206  [24]  BB 0C AE 08 C6 0C 99 C6 AC 09 C5 0C D0 0C 00 00 00 00 00 00 00 00 00 00
2026-07-11T14:34:42.708896,11.785,can0  040  [04]  26 01 05 00
2026-07-11T14:34:42.714459,11.790,can0  204  [16]  6E 23 00 00 00 00 B1 36 28 23 30 75 30 75 00 00
2026-07-11T14:34:42.806602,11.882,can0  041  [04]  AD 00 07 00
2026-07-11T14:34:42.806924,11.883,can0  204  [16]  6E 23 00 00 00 00 B1 36 28 23 30 75 30 75 00 00
2026-07-11T14:34:42.810467,11.886,can0  206  [24]  C0 0C AF 08 C6 0C 99 C6 AC 09 BB 0C D0 0C 00 00 00 00 00 00 00 00 00 00
2026-07-11T14:34:42.912056,11.988,can0  040  [04]  0C 01 02 00
2026-07-11T14:34:42.912367,11.988,can0  204  [16]  6E 23 00 00 00 00 B1 36 28 23 30 75 30 75 00 00
2026-07-11T14:34:42.963360,12.039,can0  040  [04]  0C 01 02 00
2026-07-11T14:34:42.966969,12.043,can0  206  [24]  C6 0C AF 08 CA 0C 99 C6 AB 09 B7 0C CA 0C 00 00 00 00 00 00 00 00 00 00
2026-07-11T14:34:42.967219,12.043,can0  110  [02]  13 1B
2026-07-11T14:34:42.967495,12.043,can0  204  [16]  6E 23 00 00 00 00 B1 36 28 23 30 75 30 75 00 00
2026-07-11T14:34:42.967814,12.044,can0  041  [04]  AD 00 07 00
2026-07-11T14:34:43.065715,12.142,can0  060  [32]  00 00 00 00 00 00 00 00 00 00 00 00 00 00 00 00 00 00 00 00 00 00 00 00 00 00 00 00 00 00 00 00
2026-07-11T14:34:43.066090,12.142,can0  204  [16]  6E 23 00 00 00 00 B1 36 28 23 30 75 30 75 00 00
2026-07-11T14:34:43.216274,12.292,can0  206  [24]  C6 0C AF 08 C6 0C 99 C6 AC 09 BB 0C CA 0C 00 00 00 00 00 00 00 00 00 00
2026-07-11T14:34:43.216561,12.292,can0  040  [04]  DF 00 02 00
2026-07-11T14:34:43.216933,12.293,can0  204  [16]  6E 23 00 00 00 00 B1 36 28 23 30 75 30 75 00 00
2026-07-11T14:34:43.217147,12.293,can0  040  [04]  DF 00 02 00
2026-07-11T14:34:43.269151,12.345,can0  041  [04]  AA 00 05 00
2026-07-11T14:34:43.269443,12.345,can0  204  [16]  6E 23 00 00 00 00 B1 36 28 23 30 75 30 75 00 00
2026-07-11T14:34:43.278568,12.354,can0  206  [24]  CA 0C B0 08 BC 0C 99 C6 AB 09 C0 0C CA 0C 00 00 00 00 00 00 00 00 00 00
2026-07-11T14:34:43.374054,12.450,can0  204  [16]  6E 23 00 00 00 00 B1 36 28 23 30 75 30 75 00 00
2026-07-11T14:34:43.472461,12.548,can0  040  [04]  B3 00 02 00
2026-07-11T14:34:43.472527,12.548,can0  040  [04]  B3 00 02 00
2026-07-11T14:34:43.475474,12.551,can0  206  [24]  C6 0C B1 08 B7 0C 99 C6 AC 09 CA 0C CA 0C 00 00 00 00 00 00 00 00 00 00
2026-07-11T14:34:43.475564,12.551,can0  204  [16]  6E 23 00 00 00 00 B1 36 28 23 30 75 30 75 00 00
2026-07-11T14:34:43.588342,12.664,can0  060  [32]  00 00 00 00 00 00 00 00 00 00 00 00 00 00 00 00 00 00 00 00 00 00 00 00 00 00 00 00 00 00 00 00
2026-07-11T14:34:43.588413,12.664,can0  041  [04]  A4 00 06 00
2026-07-11T14:34:43.594237,12.670,can0  204  [16]  6E 23 00 00 00 00 B0 36 28 23 30 75 30 75 00 00
2026-07-11T14:34:43.690410,12.766,can0  206  [24]  C6 0C B2 08 B7 0C 99 C6 AC 09 CA 0C CA 0C 00 00 00 00 00 00 00 00 00 00
2026-07-11T14:34:43.690657,12.766,can0  040  [04]  91 00 02 00
2026-07-11T14:34:43.690958,12.767,can0  204  [16]  6E 23 00 00 00 00 B0 36 28 23 30 75 30 75 00 00
2026-07-11T14:34:43.789529,12.865,can0  040  [04]  91 00 02 00
2026-07-11T14:34:43.789793,12.866,can0  100  [03]  F2 90 04
2026-07-11T14:34:43.790038,12.866,can0  120  [04]  00 00 00 00
2026-07-11T14:34:43.798342,12.874,can0  206  [24]  CA 0C B2 08 B2 0C 99 C6 AC 09 CF 0C CA 0C 00 00 00 00 00 00 00 00 00 00
2026-07-11T14:34:43.798466,12.874,can0  204  [16]  6E 23 00 00 00 00 B0 36 28 23 30 75 30 75 00 00
2026-07-11T14:34:43.888079,12.964,can0  041  [04]  A4 00 06 00
2026-07-11T14:34:43.888376,12.964,can0  204  [16]  6E 23 00 00 00 00 B0 36 28 23 30 75 30 75 00 00
2026-07-11T14:34:43.983292,13.059,can0  040  [04]  A8 00 07 00
2026-07-11T14:34:43.986248,13.062,can0  206  [24]  CA 0C B2 08 B7 0C 99 C6 AD 09 CA 0C CA 0C 00 00 00 00 00 00 00 00 00 00
2026-07-11T14:34:43.986752,13.063,can0  204  [16]  6E 23 00 00 00 00 B0 36 28 23 30 75 30 75 00 00
2026-07-11T14:34:43.986799,13.063,can0  040  [04]  A8 00 07 00
2026-07-11T14:34:44.087334,13.163,can0  060  [32]  00 00 00 00 00 00 00 00 00 00 00 00 00 00 00 00 00 00 00 00 00 00 00 00 00 00 00 00 00 00 00 00
2026-07-11T14:34:44.093642,13.169,can0  041  [04]  9A 00 08 00
2026-07-11T14:34:44.093728,13.170,can0  204  [16]  6E 23 00 00 00 00 B0 36 28 23 30 75 30 75 00 00
2026-07-11T14:34:44.192583,13.268,can0  206  [24]  C6 0C B1 08 C1 0C 99 C6 AC 09 C0 0C CA 0C 00 00 00 00 00 00 00 00 00 00
2026-07-11T14:34:44.192883,13.269,can0  131  [00]
2026-07-11T14:34:44.193188,13.269,can0  204  [16]  6E 23 00 00 00 00 B0 36 28 23 30 75 30 75 00 00
2026-07-11T14:34:44.293289,13.369,can0  040  [04]  AD 00 0D 00
2026-07-11T14:34:44.293528,13.369,can0  040  [04]  AD 00 0D 00
2026-07-11T14:34:44.296953,13.373,can0  206  [24]  C6 0C B0 08 C6 0C 99 C6 AC 09 C0 0C CA 0C 00 00 00 00 00 00 00 00 00 00
2026-07-11T14:34:44.297393,13.373,can0  204  [16]  6E 23 00 00 00 00 B0 36 28 23 30 75 30 75 00 00
2026-07-11T14:34:44.395865,13.472,can0  041  [04]  A4 00 06 00
2026-07-11T14:34:44.396154,13.472,can0  204  [16]  6E 23 00 00 00 00 B0 36 28 23 30 75 30 75 00 00
2026-07-11T14:34:44.502687,13.579,can0  206  [24]  BB 0C AF 08 CB 0C 99 C6 AD 09 C0 0C D0 0C 00 00 00 00 00 00 00 00 00 00
2026-07-11T14:34:44.502982,13.579,can0  040  [04]  A9 00 0E 00
2026-07-11T14:34:44.503295,13.579,can0  204  [16]  6E 23 00 00 00 00 B0 36 28 23 30 75 30 75 00 00
2026-07-11T14:34:44.608492,13.684,can0  060  [32]  00 00 00 00 00 00 00 00 00 00 00 00 00 00 00 00 00 00 00 00 00 00 00 00 00 00 00 00 00 00 00 00
2026-07-11T14:34:44.608802,13.685,can0  040  [04]  A9 00 0E 00
2026-07-11T14:34:44.609067,13.685,can0  110  [02]  12 1B
2026-07-11T14:34:44.609316,13.685,can0  041  [04]  AA 00 05 00
2026-07-11T14:34:44.609542,13.685,can0  204  [16]  6E 23 00 00 00 00 B0 36 28 23 30 75 30 75 00 00
2026-07-11T14:34:44.718550,13.794,can0  206  [24]  BB 0C AF 08 CB 0C 99 C6 AD 09 C0 0C D0 0C 00 00 00 00 00 00 00 00 00 00
2026-07-11T14:34:44.718852,13.795,can0  204  [16]  6E 23 00 00 00 00 B0 36 28 23 30 75 30 75 00 00
2026-07-11T14:34:44.769553,13.845,can0  040  [04]  9C 00 09 00
2026-07-11T14:34:44.772382,13.848,can0  206  [24]  C0 0C AF 08 C6 0C 99 C6 AD 09 C0 0C D0 0C 00 00 00 00 00 00 00 00 00 00
2026-07-11T14:34:44.871487,13.947,can0  204  [16]  6E 23 00 00 00 00 B0 36 28 23 30 75 30 75 00 00
2026-07-11T14:34:44.871701,13.948,can0  040  [04]  9C 00 09 00
2026-07-11T14:34:44.871920,13.948,can0  041  [04]  B5 00 05 00
2026-07-11T14:34:44.876191,13.952,can0  204  [16]  6E 23 00 00 00 00 AF 36 28 23 30 75 30 75 00 00
2026-07-11T14:34:44.976774,14.053,can0  206  [24]  C6 0C B0 08 C6 0C 99 C6 AD 09 C6 0C CA 0C 00 00 00 00 00 00 00 00 00 00
2026-07-11T14:34:44.977185,14.053,can0  100  [03]  E8 90 04
2026-07-11T14:34:44.977234,14.053,can0  120  [04]  00 00 00 00
2026-07-11T14:34:44.983433,14.059,can0  040  [04]  87 00 06 00
2026-07-11T14:34:44.983510,14.059,can0  204  [16]  6E 23 00 00 00 00 AF 36 28 23 30 75 30 75 00 00
2026-07-11T14:34:45.080388,14.156,can0  060  [32]  00 00 00 00 00 00 00 00 00 00 00 00 00 00 00 00 00 00 00 00 00 00 00 00 00 00 00 00 00 00 00 00
2026-07-11T14:34:45.081411,14.157,can0  040  [04]  87 00 06 00
2026-07-11T14:34:45.182709,14.259,can0  204  [16]  6E 23 00 00 00 00 AF 36 28 23 30 75 30 75 00 00
2026-07-11T14:34:45.185625,14.261,can0  206  [24]  C6 0C B1 08 C6 0C 99 C6 AD 09 C0 0C CA 0C 00 00 00 00 00 00 00 00 00 00
2026-07-11T14:34:45.185818,14.262,can0  041  [04]  B5 00 02 00
2026-07-11T14:34:45.287003,14.363,can0  204  [16]  6E 23 00 00 00 00 B0 36 28 23 30 75 30 75 00 00
2026-07-11T14:34:45.287208,14.363,can0  133  [00]
2026-07-11T14:34:45.289962,14.366,can0  206  [24]  CA 0C B2 08 C6 0C 99 C6 AC 09 BC 0C CA 0C 00 00 00 00 00 00 00 00 00 00
2026-07-11T14:34:45.295385,14.371,can0  040  [04]  66 00 0A 00
2026-07-11T14:34:45.398797,14.475,can0  204  [16]  6E 23 00 00 00 00 B0 36 28 23 30 75 30 75 00 00
2026-07-11T14:34:45.398884,14.475,can0  040  [04]  66 00 0A 00
2026-07-11T14:34:45.496011,14.572,can0  041  [04]  B5 00 02 00
2026-07-11T14:34:45.496352,14.572,can0  204  [16]  6E 23 00 00 00 00 B0 36 28 23 30 75 30 75 00 00
2026-07-11T14:34:45.500027,14.576,can0  206  [24]  CA 0C AD 08 C1 0C 99 C6 AC 09 C0 0C CA 0C 00 00 00 00 00 00 00 00 00 00
2026-07-11T14:34:45.500274,14.576,can0  130  [00]
2026-07-11T14:34:45.599773,14.676,can0  204  [16]  6E 23 00 00 00 00 B0 36 28 23 30 75 30 75 00 00
2026-07-11T14:34:45.600101,14.676,can0  060  [32]  00 00 00 00 00 00 00 00 00 00 00 00 00 00 00 00 00 00 00 00 00 00 00 00 00 00 00 00 00 00 00 00
2026-07-11T14:34:45.600580,14.676,can0  040  [04]  52 00 0E 00
2026-07-11T14:34:45.600660,14.676,can0  040  [04]  52 00 0E 00
2026-07-11T14:34:45.706999,14.783,can0  206  [24]  C1 0C AE 08 C6 0C 99 C6 AC 09 C5 0C CA 0C 00 00 00 00 00 00 00 00 00 00
2026-07-11T14:34:45.707464,14.783,can0  204  [16]  6E 23 00 00 00 00 B0 36 28 23 30 75 30 75 00 00
2026-07-11T14:34:45.707517,14.783,can0  041  [04]  9F 00 02 00
2026-07-11T14:34:45.811341,14.887,can0  204  [16]  6E 23 00 00 00 00 B0 36 28 23 30 75 30 75 00 00
2026-07-11T14:34:45.820391,14.896,can0  206  [24]  C6 0C AE 08 C1 0C 99 C6 AE 09 C5 0C CA 0C 00 00 00 00 00 00 00 00 00 00
2026-07-11T14:34:45.917770,14.994,can0  040  [04]  36 00 0E 00
2026-07-11T14:34:45.918077,14.994,can0  204  [16]  6E 23 00 00 00 00 B0 36 28 23 30 75 30 75 00 00
2026-07-11T14:34:45.918381,14.994,can0  040  [04]  36 00 0E 00
2026-07-11T14:34:45.971480,15.047,can0  204  [16]  6E 23 00 00 00 00 B0 36 28 23 30 75 30 75 00 00
2026-07-11T14:34:45.971874,15.048,can0  041  [04]  A7 00 05 00
2026-07-11T14:34:45.974665,15.050,can0  206  [24]  C6 0C AF 08 BC 0C 99 C6 AD 09 CA 0C CA 0C 00 00 00 00 00 00 00 00 00 00
2026-07-11T14:34:46.088020,15.164,can0  204  [16]  6E 23 00 00 00 00 B0 36 28 23 30 75 30 75 00 00
2026-07-11T14:34:46.088097,15.164,can0  060  [32]  00 00 00 00 00 00 00 00 00 00 00 00 00 00 00 00 00 00 00 00 00 00 00 00 00 00 00 00 00 00 00 00
2026-07-11T14:34:46.088142,15.164,can0  040  [04]  3A 00 0A 00
2026-07-11T14:34:46.196009,15.272,can0  206  [24]  C6 0C B1 08 B7 0C 99 C6 AD 09 CF 0C CA 0C 00 00 00 00 00 00 00 00 00 00
2026-07-11T14:34:46.196105,15.272,can0  040  [04]  3A 00 0A 00
2026-07-11T14:34:46.196171,15.272,can0  204  [16]  6E 23 00 00 00 00 B0 36 28 23 30 75 30 75 00 00
2026-07-11T14:34:46.196215,15.272,can0  100  [03]  E7 90 04
2026-07-11T14:34:46.196346,15.272,can0  110  [02]  13 1B
2026-07-11T14:34:46.196583,15.272,can0  120  [04]  00 00 00 00
2026-07-11T14:34:46.196790,15.273,can0  041  [04]  AE 00 08 00
2026-07-11T14:34:46.305106,15.381,can0  204  [16]  6E 23 00 00 00 00 B0 36 28 23 30 75 30 75 00 00
2026-07-11T14:34:46.307960,15.384,can0  206  [24]  C6 0C B7 08 BC 0C 99 C6 AD 09 CA 0C CA 0C 00 00 00 00 00 00 00 00 00 00
2026-07-11T14:34:46.416516,15.492,can0  204  [16]  6E 23 00 00 00 00 B1 36 28 23 30 75 30 75 00 00
2026-07-11T14:34:46.416595,15.492,can0  040  [04]  45 00 0B 00
2026-07-11T14:34:46.416639,15.492,can0  040  [04]  45 00 0B 00
2026-07-11T14:34:46.513369,15.589,can0  204  [16]  6E 23 00 00 00 00 B1 36 28 23 30 75 30 75 00 00
2026-07-11T14:34:46.522582,15.598,can0  206  [24]  C6 0C B7 08 C1 0C 99 C6 AC 09 C0 0C CA 0C 00 00 00 00 00 00 00 00 00 00
2026-07-11T14:34:46.522651,15.598,can0  041  [04]  B5 00 0B 00
2026-07-11T14:34:46.578594,15.654,can0  060  [32]  00 00 00 00 00 00 00 00 00 00 00 00 00 00 00 00 00 00 00 00 00 00 00 00 00 00 00 00 00 00 00 00
2026-07-11T14:34:46.578711,15.655,can0  204  [16]  6E 23 00 00 00 00 B1 36 28 23 30 75 30 75 00 00
2026-07-11T14:34:46.578819,15.655,can0  206  [24]  C1 0C B2 08 C6 0C 99 C6 AB 09 C0 0C CA 0C 00 00 00 00 00 00 00 00 00 00
2026-07-11T14:34:46.690227,15.766,can0  040  [04]  52 00 0D 00
2026-07-11T14:34:46.696341,15.772,can0  204  [16]  6E 23 00 00 00 00 B0 36 28 23 30 75 30 75 00 00
2026-07-11T14:34:46.696421,15.772,can0  040  [04]  52 00 0D 00
2026-07-11T14:34:46.793756,15.870,can0  204  [16]  6E 23 00 00 00 00 B0 36 28 23 30 75 30 75 00 00
2026-07-11T14:34:46.794123,15.870,can0  041  [04]  C2 00 0B 00
2026-07-11T14:34:46.797036,15.873,can0  206  [24]  C6 0C B3 08 C1 0C 99 C6 AC 09 C0 0C CA 0C 00 00 00 00 00 00 00 00 00 00
2026-07-11T14:34:46.907745,15.984,can0  204  [16]  6E 23 00 00 00 00 B0 36 28 23 30 75 30 75 00 00
2026-07-11T14:34:46.907823,15.984,can0  040  [04]  51 00 0A 00
2026-07-11T14:34:47.007873,16.084,can0  040  [04]  51 00 0A 00
2026-07-11T14:34:47.010955,16.087,can0  204  [16]  6E 23 00 00 00 00 B0 36 28 23 30 75 30 75 00 00
2026-07-11T14:34:47.011022,16.087,can0  206  [24]  C6 0C AF 08 C1 0C 99 C6 AD 09 C0 0C CA 0C 00 00 00 00 00 00 00 00 00 00
2026-07-11T14:34:47.017529,16.093,can0  041  [04]  C2 00 0B 00
2026-07-11T14:34:47.118503,16.194,can0  204  [16]  6E 23 00 00 00 00 B0 36 28 23 30 75 30 75 00 00
2026-07-11T14:34:47.118574,16.194,can0  206  [24]  C0 0C AF 08 BC 0C 99 C6 AC 09 C5 0C D0 0C 00 00 00 00 00 00 00 00 00 00
2026-07-11T14:34:47.173319,16.249,can0  204  [16]  6E 23 00 00 00 00 B0 36 28 23 30 75 30 75 00 00
2026-07-11T14:34:47.173607,16.249,can0  040  [04]  4D 00 09 00
2026-07-11T14:34:47.174981,16.251,can0  040  [04]  4D 00 09 00
2026-07-11T14:34:47.286558,16.362,can0  204  [16]  6E 23 00 00 00 00 B0 36 28 23 30 75 30 75 00 00
2026-07-11T14:34:47.286654,16.362,can0  041  [04]  D4 00 0A 00
2026-07-11T14:34:47.289539,16.365,can0  206  [24]  C0 0C AE 08 B7 0C 99 C6 AD 09 CF 0C D0 0C 00 00 00 00 00 00 00 00 00 00
2026-07-11T14:34:47.402599,16.478,can0  204  [16]  6E 23 00 00 00 00 B0 36 28 23 30 75 30 75 00 00
2026-07-11T14:34:47.402860,16.479,can0  100  [03]  EC 90 04
2026-07-11T14:34:47.403115,16.479,can0  120  [04]  00 00 00 00
2026-07-11T14:34:47.403360,16.479,can0  040  [04]  58 00 02 00
2026-07-11T14:34:47.515047,16.591,can0  204  [16]  6E 23 00 00 00 00 B0 36 28 23 30 75 30 75 00 00
2026-07-11T14:34:47.517183,16.593,can0  206  [24]  C0 0C B3 08 B7 0C 99 C6 AD 09 CF 0C D0 0C 00 00 00 00 00 00 00 00 00 00
2026-07-11T14:34:47.523528,16.599,can0  040  [04]  58 00 02 00
2026-07-11T14:34:47.574075,16.650,can0  041  [04]  10 01 05 00
2026-07-11T14:34:47.574569,16.650,can0  204  [16]  6E 23 00 00 00 00 B1 36 28 23 30 75 30 75 00 00
2026-07-11T14:34:47.583061,16.659,can0  206  [24]  C6 0C B2 08 B2 0C 99 C6 AD 09 D4 0C CA 0C 00 00 00 00 00 00 00 00 00 00
2026-07-11T14:34:47.687775,16.764,can0  204  [16]  6E 23 00 00 00 00 B1 36 28 23 30 75 30 75 00 00
2026-07-11T14:34:47.688083,16.764,can0  040  [04]  DF 00 00 00
2026-07-11T14:34:47.795043,16.871,can0  060  [32]  03 78 D6 02 0B 5C 4D 08 47 19 B8 10 1D 00 92 00 FF 01 00 00 00 00 00 00 02 00 00 00 00 00 00 00
2026-07-11T14:34:47.795147,16.871,can0  060  [32]  5F AE D6 02 F1 34 4D 08 E8 A1 63 03 3B 00 9E 0C FF 01 00 00 00 00 00 01 02 00 00 00 00 00 00 00
2026-07-11T14:34:47.795422,16.871,can0  040  [04]  DF 00 00 00
2026-07-11T14:34:47.804614,16.880,can0  204  [16]  6E 23 00 00 00 00 B1 36 28 23 30 75 30 75 00 00
2026-07-11T14:34:47.804706,16.881,can0  206  [24]  BB 0C B1 08 B7 0C 99 C6 AB 09 D4 0C D0 0C 00 00 00 00 00 00 00 00 00 00
2026-07-11T14:34:47.804799,16.881,can0  110  [02]  12 1B
2026-07-11T14:34:47.804881,16.881,can0  041  [04]  10 01 00 00
2026-07-11T14:34:47.910468,16.986,can0  204  [16]  6E 23 00 00 00 00 B1 36 28 23 30 75 30 75 00 00
2026-07-11T14:34:48.014378,17.090,can0  206  [24]  BB 0C B1 08 B7 0C 99 C6 AC 09 D4 0C D0 0C 00 00 00 00 00 00 00 00 00 00
2026-07-11T14:34:48.014939,17.091,can0  204  [16]  6E 23 00 00 00 00 B0 36 28 23 30 75 30 75 00 00
2026-07-11T14:34:48.015025,17.091,can0  040  [04]  F9 00 02 00
2026-07-11T14:34:48.021083,17.097,can0  040  [04]  F9 00 02 00
2026-07-11T14:34:48.075282,17.151,can0  204  [16]  6E 23 00 00 00 00 B0 36 28 23 30 75 30 75 00 00
2026-07-11T14:34:48.075387,17.151,can0  041  [04]  F8 00 05 00
2026-07-11T14:34:48.075471,17.151,can0  206  [24]  BC 0C B1 08 C0 0C 99 C6 AD 09 CF 0C CA 0C 00 00 00 00 00 00 00 00 00 00
2026-07-11T14:34:48.207791,17.284,can0  204  [16]  6E 23 00 00 00 00 B0 36 28 23 30 75 30 75 00 00
2026-07-11T14:34:48.208026,17.284,can0  040  [04]  F9 00 08 00
2026-07-11T14:34:48.312885,17.389,can0  060  [32]  00 00 00 00 00 00 00 00 00 00 00 00 00 00 00 00 00 00 00 00 00 00 00 00 00 00 00 00 00 00 00 00
2026-07-11T14:34:48.313936,17.390,can0  204  [16]  6E 23 00 00 00 00 AF 36 28 23 30 75 30 75 00 00
2026-07-11T14:34:48.314004,17.390,can0  040  [04]  F9 00 08 00
2026-07-11T14:34:48.321556,17.397,can0  206  [24]  BC 0C B0 08 C0 0C 99 C6 AD 09 CF 0C CA 0C 00 00 00 00 00 00 00 00 00 00
2026-07-11T14:34:48.422148,17.498,can0  041  [04]  E9 00 0A 00
2026-07-11T14:34:48.422216,17.498,can0  204  [16]  6E 23 00 00 00 00 AF 36 28 23 30 75 30 75 00 00
2026-07-11T14:34:48.479670,17.555,can0  206  [24]  BC 0C AF 08 CB 0C 99 C6 AC 09 C5 0C CA 0C 00 00 00 00 00 00 00 00 00 00
2026-07-11T14:34:48.480442,17.556,can0  204  [16]  6E 23 00 00 00 00 AF 36 28 23 30 75 30 75 00 00
2026-07-11T14:34:48.480763,17.557,can0  040  [04]  F6 00 09 00
2026-07-11T14:34:48.589237,17.665,can0  040  [04]  F6 00 09 00
2026-07-11T14:34:48.589950,17.666,can0  204  [16]  6E 23 00 00 00 00 AF 36 28 23 30 75 30 75 00 00
2026-07-11T14:34:48.590277,17.666,can0  100  [03]  F6 90 04
2026-07-11T14:34:48.590512,17.666,can0  120  [04]  00 00 00 00
2026-07-11T14:34:48.592609,17.668,can0  206  [24]  BC 0C B1 08 C6 0C 99 C6 AE 09 CA 0C CA 0C 00 00 00 00 00 00 00 00 00 00
2026-07-11T14:34:48.592881,17.669,can0  041  [04]  EE 00 0A 00
2026-07-11T14:34:48.704351,17.780,can0  204  [16]  6E 23 00 00 00 00 AF 36 28 23 30 75 30 75 00 00
2026-07-11T14:34:48.814748,17.891,can0  040  [04]  DF 00 08 00
2026-07-11T14:34:48.815610,17.891,can0  204  [16]  6E 23 00 00 00 00 AF 36 28 23 30 75 30 75 00 00
2026-07-11T14:34:48.818081,17.894,can0  206  [24]  C1 0C AC 08 C6 0C 99 C6 AD 09 C0 0C CA 0C 00 00 00 00 00 00 00 00 00 00
2026-07-11T14:34:48.818325,17.894,can0  040  [04]  DF 00 08 00
2026-07-11T14:34:48.873132,17.949,can0  204  [16]  6E 23 00 00 00 00 AF 36 28 23 30 75 30 75 00 00
2026-07-11T14:34:48.873473,17.949,can0  060  [32]  00 00 00 00 00 00 00 00 00 00 00 00 00 00 00 00 00 00 00 00 00 00 00 00 00 00 00 00 00 00 00 00
2026-07-11T14:34:48.873785,17.950,can0  041  [04]  E8 00 0B 00
2026-07-11T14:34:48.874019,17.950,can0  060  [32]  8A 36 D6 02 E5 92 4D 08 BD 4B 64 03 7B 00 62 08 D6 00 80 00 00 00 00 00 01 00 00 00 00 00 00 00
2026-07-11T14:34:48.986663,18.062,can0  206  [24]  C6 0C AD 08 C6 0C 99 C6 AC 09 C0 0C C6 0C 00 00 00 00 00 00 00 00 00 00
2026-07-11T14:34:48.987338,18.063,can0  204  [16]  6E 23 00 00 00 00 AF 36 28 23 30 75 30 75 00 00
2026-07-11T14:34:48.987659,18.063,can0  040  [04]  DF 00 07 00
2026-07-11T14:34:49.105501,18.181,can0  204  [16]  6E 23 00 00 00 00 AF 36 28 23 30 75 30 75 00 00
2026-07-11T14:34:49.105566,18.181,can0  040  [04]  DF 00 07 00
2026-07-11T14:34:49.105615,18.181,can0  206  [24]  C1 0C AD 08 C1 0C 99 C6 AC 09 C5 0C CA 0C 00 00 00 00 00 00 00 00 00 00
2026-07-11T14:34:49.226356,18.302,can0  041  [04]  D4 00 0C 00
2026-07-11T14:34:49.226433,18.302,can0  204  [16]  6E 23 00 00 00 00 AF 36 28 23 30 75 30 75 00 00
2026-07-11T14:34:49.277570,18.353,can0  204  [16]  6E 23 00 00 00 00 AF 36 28 23 30 75 30 75 00 00
2026-07-11T14:34:49.280524,18.356,can0  206  [24]  B6 0C AD 08 C1 0C 99 C6 AD 09 CA 0C D5 0C 00 00 00 00 00 00 00 00 00 00
2026-07-11T14:34:49.280851,18.357,can0  040  [04]  DF 00 05 00
2026-07-11T14:34:49.391576,18.467,can0  040  [04]  DF 00 05 00
2026-07-11T14:34:49.392341,18.468,can0  204  [16]  6E 23 00 00 00 00 AF 36 28 23 30 75 30 75 00 00
2026-07-11T14:34:49.392594,18.468,can0  110  [02]  11 1B
2026-07-11T14:34:49.392922,18.469,can0  041  [04]  BC 00 0F 00
2026-07-11T14:34:49.393228,18.469,can0  060  [32]  00 00 00 00 00 00 00 00 00 00 00 00 00 00 00 00 00 00 00 00 00 00 00 00 00 00 00 00 00 00 00 00
2026-07-11T14:34:49.511477,18.587,can0  206  [24]  B6 0C AE 08 C1 0C 99 C6 AD 09 CA 0C D5 0C 00 00 00 00 00 00 00 00 00 00
2026-07-11T14:34:49.512662,18.588,can0  204  [16]  6E 23 00 00 00 00 B0 36 28 23 30 75 30 75 00 00
2026-07-11T14:34:49.629671,18.705,can0  040  [04]  CB 00 02 00
2026-07-11T14:34:49.630746,18.707,can0  204  [16]  6E 23 00 00 00 00 AF 36 28 23 30 75 30 75 00 00
2026-07-11T14:34:49.631042,18.707,can0  040  [04]  CB 00 02 00
2026-07-11T14:34:49.633115,18.709,can0  206  [24]  B2 0C B2 08 BC 0C 99 C6 AD 09 CF 0C DA 0C 00 00 00 00 00 00 00 00 00 00
2026-07-11T14:34:49.692565,18.768,can0  204  [16]  6E 23 00 00 00 00 AF 36 28 23 30 75 30 75 00 00
2026-07-11T14:34:49.692820,18.769,can0  041  [04]  B5 00 0C 00
2026-07-11T14:34:49.805017,18.881,can0  204  [16]  6E 23 00 00 00 00 AE 36 28 23 30 75 30 75 00 00
2026-07-11T14:34:49.807277,18.883,can0  206  [24]  B2 0C B1 08 BC 0C 99 C6 AD 09 CF 0C DA 0C 00 00 00 00 00 00 00 00 00 00
2026-07-11T14:34:49.807551,18.883,can0  100  [03]  F8 90 04
2026-07-11T14:34:49.807812,18.884,can0  120  [04]  00 00 00 00
2026-07-11T14:34:49.808086,18.884,can0  040  [04]  DF 00 02 00
2026-07-11T14:34:49.920684,18.997,can0  040  [04]  DF 00 02 00
2026-07-11T14:34:49.921619,18.997,can0  204  [16]  6E 23 00 00 00 00 AE 36 28 23 30 75 30 75 00 00
2026-07-11T14:34:49.921964,18.998,can0  060  [32]  00 00 00 00 00 00 00 00 00 00 00 00 00 00 00 00 00 00 00 00 00 00 00 00 00 00 00 00 00 00 00 00
2026-07-11T14:34:49.988947,19.065,can0  206  [24]  B7 0C B1 08 BC 0C 99 C6 AC 09 D0 0C DA 0C 00 00 00 00 00 00 00 00 00 00
2026-07-11T14:34:49.989020,19.065,can0  041  [04]  CC 00 0A 00
2026-07-11T14:34:49.989063,19.065,can0  204  [16]  6E 23 00 00 00 00 AD 36 28 23 30 75 30 75 00 00
2026-07-11T14:34:50.109990,19.186,can0  204  [16]  6E 23 00 00 00 00 AD 36 28 23 30 75 30 75 00 00
2026-07-11T14:34:50.110968,19.187,can0  040  [04]  0C 01 02 00
2026-07-11T14:34:50.113897,19.190,can0  206  [24]  C0 0C B0 08 BC 0C 99 C6 AB 09 CA 0C D0 0C 00 00 00 00 00 00 00 00 00 00
2026-07-11T14:34:50.226502,19.302,can0  040  [04]  0C 01 02 00
2026-07-11T14:34:50.227285,19.303,can0  204  [16]  6E 23 00 00 00 00 AD 36 28 23 30 75 30 75 00 00
2026-07-11T14:34:50.227579,19.303,can0  041  [04]  C4 00 0C 00
2026-07-11T14:34:50.280522,19.356,can0  206  [24]  C0 0C AF 08 C1 0C 99 C6 AB 09 C5 0C D0 0C 00 00 00 00 00 00 00 00 00 00
2026-07-11T14:34:50.281244,19.357,can0  204  [16]  6E 23 00 00 00 00 AD 36 28 23 30 75 30 75 00 00
2026-07-11T14:34:50.379972,19.456,can0  040  [04]  19 01 05 00
2026-07-11T14:34:50.380934,19.457,can0  204  [16]  6E 23 00 00 00 00 AD 36 28 23 30 75 30 75 00 00
2026-07-11T14:34:50.381154,19.457,can0  040  [04]  19 01 05 00
2026-07-11T14:34:50.484863,19.561,can0  206  [24]  BB 0C B0 08 CB 0C 99 C6 A7 09 C0 0C D0 0C 00 00 00 00 00 00 00 00 00 00
2026-07-11T14:34:50.485116,19.561,can0  041  [04]  D1 00 0A 00
2026-07-11T14:34:50.485737,19.562,can0  204  [16]  6E 23 00 00 00 00 AD 36 28 23 30 75 30 75 00 00
2026-07-11T14:34:50.586240,19.662,can0  204  [16]  6E 23 00 00 00 00 AE 36 28 23 30 75 30 75 00 00
2026-07-11T14:34:50.588523,19.664,can0  206  [24]  C6 0C B1 08 C1 0C 99 C6 A7 09 C5 0C CA 0C 00 00 00 00 00 00 00 00 00 00
2026-07-11T14:34:50.594944,19.671,can0  040  [04]  0C 01 07 00
2026-07-11T14:34:50.692010,19.768,can0  040  [04]  0C 01 07 00
2026-07-11T14:34:50.692956,19.769,can0  204  [16]  6E 23 00 00 00 00 AE 36 28 23 30 75 30 75 00 00
2026-07-11T14:34:50.803112,19.879,can0  041  [04]  FB 00 0A 00
2026-07-11T14:34:50.803181,19.879,can0  206  [24]  C1 0C B3 08 C6 0C 99 C6 A7 09 C5 0C CA 0C 00 00 00 00 00 00 00 00 00 00
2026-07-11T14:34:50.803227,19.879,can0  204  [16]  6E 23 00 00 00 00 AE 36 28 23 30 75 30 75 00 00
2026-07-11T14:34:50.810037,19.886,can0  132  [00]
2026-07-11T14:34:50.915976,19.992,can0  204  [16]  6E 23 00 00 00 00 AF 36 28 23 30 75 30 75 00 00
2026-07-11T14:34:50.916061,19.992,can0  040  [04]  F2 00 06 00
2026-07-11T14:34:51.010923,20.087,can0  206  [24]  C1 0C B4 08 C6 0C 99 C6 A7 09 C5 0C CA 0C 00 00 00 00 00 00 00 00 00 00
2026-07-11T14:34:51.011308,20.087,can0  040  [04]  F2 00 06 00
2026-07-11T14:34:51.011621,20.087,can0  100  [03]  FB 90 04
2026-07-11T14:34:51.011917,20.088,can0  110  [02]  13 1B
2026-07-11T14:34:51.012744,20.089,can0  204  [16]  6E 23 00 00 00 00 B0 36 28 23 30 75 30 75 00 00
2026-07-11T14:34:51.014864,20.091,can0  120  [04]  00 00 00 00
2026-07-11T14:34:51.014955,20.091,can0  041  [04]  00 01 0E 00
2026-07-11T14:34:51.112668,20.188,can0  204  [16]  6E 23 00 00 00 00 AF 36 28 23 30 75 30 75 00 00
2026-07-11T14:34:51.115148,20.191,can0  206  [24]  C1 0C B3 08 C1 0C 99 C6 A6 09 C5 0C CA 0C 00 00 00 00 00 00 00 00 00 00
2026-07-11T14:34:51.216477,20.292,can0  040  [04]  0C 01 07 00
2026-07-11T14:34:51.216579,20.292,can0  204  [16]  6E 23 00 00 00 00 AE 36 28 23 30 75 30 75 00 00
2026-07-11T14:34:51.224556,20.300,can0  040  [04]  0C 01 07 00
2026-07-11T14:34:51.325446,20.401,can0  206  [24]  C1 0C B3 08 C1 0C 99 C6 AB 09 C5 0C CA 0C 00 00 00 00 00 00 00 00 00 00
2026-07-11T14:34:51.325543,20.401,can0  041  [04]  06 01 0E 00
2026-07-11T14:34:51.325987,20.402,can0  204  [16]  6E 23 00 00 00 00 AD 36 28 23 30 75 30 75 00 00
2026-07-11T14:34:51.380194,20.456,can0  060  [32]  00 00 00 00 00 00 00 00 00 00 00 00 00 00 00 00 00 00 00 00 00 00 00 00 00 00 00 00 00 00 00 00
2026-07-11T14:34:51.380292,20.456,can0  204  [16]  6E 23 00 00 00 00 AD 36 28 23 30 75 30 75 00 00
2026-07-11T14:34:51.380417,20.456,can0  040  [04]  DF 00 06 00
2026-07-11T14:34:51.487234,20.563,can0  206  [24]  C1 0C B1 08 C6 0C 99 C6 AB 09 C0 0C CA 0C 00 00 00 00 00 00 00 00 00 00
2026-07-11T14:34:51.487528,20.563,can0  040  [04]  DF 00 06 00
2026-07-11T14:34:51.488204,20.564,can0  204  [16]  6E 23 00 00 00 00 AE 36 28 23 30 75 30 75 00 00
2026-07-11T14:34:51.590596,20.666,can0  041  [04]  0A 01 0C 00
2026-07-11T14:34:51.590691,20.667,can0  204  [16]  6E 23 00 00 00 00 AE 36 28 23 30 75 30 75 00 00
2026-07-11T14:34:51.592767,20.669,can0  206  [24]  C6 0C B1 08 C1 0C 99 C6 AC 09 C5 0C CA 0C 00 00 00 00 00 00 00 00 00 00
2026-07-11T14:34:51.694387,20.770,can0  040  [04]  C3 00 05 00
2026-07-11T14:34:51.695368,20.771,can0  204  [16]  6E 23 00 00 00 00 AF 36 28 23 30 75 30 75 00 00
2026-07-11T14:34:51.795800,20.872,can0  040  [04]  C3 00 05 00
2026-07-11T14:34:51.795923,20.872,can0  206  [24]  C6 0C B1 08 C1 0C 99 C6 AC 09 C5 0C CA 0C 00 00 00 00 00 00 00 00 00 00
2026-07-11T14:34:51.798290,20.874,can0  204  [16]  6E 23 00 00 00 00 B0 36 28 23 30 75 30 75 00 00
2026-07-11T14:34:51.804895,20.881,can0  041  [04]  09 01 09 00
2026-07-11T14:34:51.903376,20.979,can0  204  [16]  6E 23 00 00 00 00 AF 36 28 23 30 75 30 75 00 00
2026-07-11T14:34:51.905681,20.981,can0  206  [24]  C6 0C B1 08 C1 0C 99 C6 AC 09 C5 0C CA 0C 00 00 00 00 00 00 00 00 00 00
2026-07-11T14:34:52.004473,21.080,can0  040  [04]  C3 00 05 00
2026-07-11T14:34:52.106720,21.183,can0  204  [16]  6E 23 00 00 00 00 AF 36 28 23 30 75 30 75 00 00
2026-07-11T14:34:52.107051,21.183,can0  060  [32]  00 00 00 00 00 00 00 00 00 00 00 00 00 00 00 00 00 00 00 00 00 00 00 00 00 00 00 00 00 00 00 00
2026-07-11T14:34:52.107351,21.183,can0  040  [04]  C3 00 05 00
2026-07-11T14:34:52.107657,21.183,can0  041  [04]  10 01 08 00
2026-07-11T14:34:52.111107,21.187,can0  206  [24]  C6 0C B1 08 BC 0C 99 C6 AD 09 CA 0C CA 0C 00 00 00 00 00 00 00 00 00 00
2026-07-11T14:34:52.112021,21.188,can0  204  [16]  6E 23 00 00 00 00 AE 36 28 23 30 75 30 75 00 00
2026-07-11T14:34:52.210837,21.287,can0  100  [03]  F6 90 04
2026-07-11T14:34:52.211342,21.287,can0  120  [04]  00 00 00 00
2026-07-11T14:34:52.310653,21.386,can0  204  [16]  6E 23 00 00 00 00 AE 36 28 23 30 75 30 75 00 00
2026-07-11T14:34:52.311189,21.387,can0  040  [04]  D7 00 06 00
2026-07-11T14:34:52.314356,21.390,can0  206  [24]  C0 0C B1 08 BC 0C 99 C6 AD 09 CA 0C D0 0C 00 00 00 00 00 00 00 00 00 00
2026-07-11T14:34:52.314659,21.390,can0  040  [04]  D7 00 06 00
2026-07-11T14:34:52.315391,21.391,can0  204  [16]  6E 23 00 00 00 00 B0 36 28 23 30 75 30 75 00 00
2026-07-11T14:34:52.422584,21.498,can0  041  [04]  04 01 06 00
2026-07-11T14:34:52.422657,21.498,can0  204  [16]  6E 23 00 00 00 00 B0 36 28 23 30 75 30 75 00 00
2026-07-11T14:34:52.529444,21.605,can0  206  [24]  C6 0C B0 08 B7 0C 99 C6 AC 09 D5 0C CA 0C 00 00 00 00 00 00 00 00 00 00
2026-07-11T14:34:52.622605,21.698,can0  040  [04]  D7 00 06 00
2026-07-11T14:34:52.623578,21.699,can0  204  [16]  6E 23 00 00 00 00 AF 36 28 23 30 75 30 75 00 00
2026-07-11T14:34:52.623887,21.700,can0  040  [04]  D7 00 06 00
2026-07-11T14:34:52.624120,21.700,can0  110  [02]  13 1B
2026-07-11T14:34:52.634481,21.710,can0  206  [24]  C6 0C AF 08 B7 0C 99 C6 B2 09 D5 0C CA 0C 00 00 00 00 00 00 00 00 00 00
2026-07-11T14:34:52.679695,21.756,can0  204  [16]  6E 23 00 00 00 00 AF 36 28 23 30 75 30 75 00 00
2026-07-11T14:34:52.679762,21.756,can0  041  [04]  E4 00 07 00
2026-07-11T14:34:52.687755,21.764,can0  204  [16]  6E 23 00 00 00 00 AF 36 28 23 30 75 30 75 00 00
2026-07-11T14:34:52.783704,21.860,can0  040  [04]  E7 00 07 00
2026-07-11T14:34:52.786261,21.862,can0  206  [24]  C6 0C AF 08 BC 0C 99 C6 B3 09 D0 0C CA 0C 00 00 00 00 00 00 00 00 00 00
2026-07-11T14:34:52.786571,21.862,can0  040  [04]  E7 00 07 00
2026-07-11T14:34:52.886997,21.963,can0  204  [16]  6E 23 00 00 00 00 AF 36 28 23 30 75 30 75 00 00
2026-07-11T14:34:52.887953,21.964,can0  041  [04]  D6 00 07 00
2026-07-11T14:34:52.888007,21.964,can0  204  [16]  6E 23 00 00 00 00 AF 36 28 23 30 75 30 75 00 00
2026-07-11T14:34:52.888219,21.964,can0  060  [32]  00 00 00 00 00 00 00 00 00 00 00 00 00 00 00 00 00 00 00 00 00 00 00 00 00 00 00 00 00 00 00 00
2026-07-11T14:34:52.898429,21.974,can0  206  [24]  C6 0C AE 08 C1 0C 99 C6 B2 09 CB 0C CA 0C 00 00 00 00 00 00 00 00 00 00
2026-07-11T14:34:52.992361,22.068,can0  040  [04]  DF 00 06 00
2026-07-11T14:34:53.093569,22.169,can0  204  [16]  6E 23 00 00 00 00 AF 36 28 23 30 75 30 75 00 00
2026-07-11T14:34:53.094044,22.170,can0  040  [04]  DF 00 06 00
2026-07-11T14:34:53.097338,22.173,can0  206  [24]  C6 0C AF 08 C1 0C 99 C6 B3 09 CB 0C CA 0C 00 00 00 00 00 00 00 00 00 00
2026-07-11T14:34:53.098006,22.174,can0  204  [16]  6E 23 00 00 00 00 AF 36 28 23 30 75 30 75 00 00
2026-07-11T14:34:53.199512,22.275,can0  041  [04]  E4 00 08 00
2026-07-11T14:34:53.410612,22.486,can0  204  [16]  6E 23 00 00 00 00 AF 36 28 23 30 75 30 75 00 00
2026-07-11T14:34:53.413852,22.490,can0  206  [24]  C6 0C AF 08 C6 0C 99 C6 B2 09 C0 0C CA 0C 00 00 00 00 00 00 00 00 00 00
2026-07-11T14:34:53.414123,22.490,can0  040  [04]  D7 00 08 00
2026-07-11T14:34:53.414910,22.491,can0  204  [16]  6E 23 00 00 00 00 AF 36 28 23 30 75 30 75 00 00
2026-07-11T14:34:53.415201,22.491,can0  040  [04]  D7 00 08 00
2026-07-11T14:34:53.415558,22.491,can0  100  [03]  F2 90 04
2026-07-11T14:34:53.415817,22.492,can0  120  [04]  00 00 00 00
2026-07-11T14:34:53.416077,22.492,can0  041  [04]  ED 00 07 00
2026-07-11T14:34:53.416886,22.493,can0  204  [16]  6E 23 00 00 00 00 AE 36 28 23 30 75 30 75 00 00
2026-07-11T14:34:53.417204,22.493,can0  060  [32]  00 00 00 00 00 00 00 00 00 00 00 00 00 00 00 00 00 00 00 00 00 00 00 00 00 00 00 00 00 00 00 00
2026-07-11T14:34:53.419742,22.496,can0  206  [24]  C6 0C B0 08 C6 0C 99 C6 AD 09 C0 0C CA 0C 00 00 00 00 00 00 00 00 00 00
2026-07-11T14:34:53.529593,22.605,can0  204  [16]  6E 23 00 00 00 00 AE 36 28 23 30 75 30 75 00 00
2026-07-11T14:34:53.623975,22.700,can0  040  [04]  BB 00 0B 00
2026-07-11T14:34:53.626977,22.703,can0  206  [24]  C0 0C AF 08 C6 0C 99 C6 AD 09 C0 0C D0 0C 00 00 00 00 00 00 00 00 00 00
2026-07-11T14:34:53.627041,22.703,can0  040  [04]  BB 00 0B 00
2026-07-11T14:34:53.627086,22.703,can0  204  [16]  6E 23 00 00 00 00 AF 36 28 23 30 75 30 75 00 00
2026-07-11T14:34:53.678651,22.754,can0  041  [04]  D6 00 09 00
2026-07-11T14:34:53.687003,22.763,can0  204  [16]  6E 23 00 00 00 00 AF 36 28 23 30 75 30 75 00 00
2026-07-11T14:34:53.787435,22.863,can0  206  [24]  C6 0C AF 08 C6 0C 99 C6 AE 09 C0 0C CA 0C 00 00 00 00 00 00 00 00 00 00
2026-07-11T14:34:53.787533,22.863,can0  204  [16]  6E 23 00 00 00 00 AF 36 28 23 30 75 30 75 00 00
2026-07-11T14:34:53.794866,22.871,can0  040  [04]  B3 00 0F 00
2026-07-11T14:34:53.891133,22.967,can0  040  [04]  B3 00 0F 00
2026-07-11T14:34:53.903463,22.979,can0  204  [16]  6E 23 00 00 00 00 AF 36 28 23 30 75 30 75 00 00
2026-07-11T14:34:53.903536,22.979,can0  206  [24]  C6 0C B0 08 C6 0C 99 C6 AD 09 C0 0C CA 0C 00 00 00 00 00 00 00 00 00 00
2026-07-11T14:34:53.903581,22.979,can0  060  [32]  00 00 00 00 00 00 00 00 00 00 00 00 00 00 00 00 00 00 00 00 00 00 00 00 00 00 00 00 00 00 00 00
2026-07-11T14:34:54.000225,23.076,can0  041  [04]  B5 00 0B 00
2026-07-11T14:34:54.000438,23.076,can0  060  [32]  C0 E0 E8 05 DD 73 4D 08 A1 71 62 03 01 00 A1 07 14 01 87 00 00 00 00 00 01 00 00 00 00 00 00 00
2026-07-11T14:34:54.001543,23.077,can0  204  [16]  6E 23 00 00 00 00 AD 36 28 23 30 75 30 75 00 00
2026-07-11T14:34:54.104301,23.180,can0  040  [04]  AA 00 11 00
2026-07-11T14:34:54.107058,23.183,can0  206  [24]  C6 0C B1 08 C6 0C 99 C6 AE 09 C0 0C CA 0C 00 00 00 00 00 00 00 00 00 00
2026-07-11T14:34:54.107266,23.183,can0  131  [00]
2026-07-11T14:34:54.108111,23.184,can0  204  [16]  6E 23 00 00 00 00 AD 36 28 23 30 75 30 75 00 00
2026-07-11T14:34:54.108404,23.184,can0  040  [04]  AA 00 11 00
2026-07-11T14:34:54.213978,23.290,can0  110  [02]  13 1B
2026-07-11T14:34:54.214822,23.291,can0  041  [04]  AF 00 09 00
2026-07-11T14:34:54.214874,23.291,can0  204  [16]  6E 23 00 00 00 00 AD 36 28 23 30 75 30 75 00 00
2026-07-11T14:34:54.320378,23.396,can0  206  [24]  C1 0C B1 08 CB 0C 99 C6 AE 09 C0 0C CA 0C 00 00 00 00 00 00 00 00 00 00
2026-07-11T14:34:54.320446,23.396,can0  204  [16]  6E 23 00 00 00 00 AE 36 28 23 30 75 30 75 00 00
2026-07-11T14:34:54.425475,23.501,can0  040  [04]  9C 00 10 00
2026-07-11T14:34:54.425571,23.501,can0  040  [04]  9C 00 10 00
2026-07-11T14:34:54.425654,23.501,can0  206  [24]  C6 0C B1 08 C6 0C 99 C6 AD 09 C0 0C CA 0C 00 00 00 00 00 00 00 00 00 00
2026-07-11T14:34:54.432173,23.508,can0  204  [16]  6E 23 00 00 00 00 AE 36 28 23 30 75 30 75 00 00
2026-07-11T14:34:54.525470,23.601,can0  041  [04]  AD 00 07 00
2026-07-11T14:34:54.525725,23.602,can0  060  [32]  00 00 00 00 00 00 00 00 00 00 00 00 00 00 00 00 00 00 00 00 00 00 00 00 00 00 00 00 00 00 00 00
2026-07-11T14:34:54.526614,23.602,can0  204  [16]  6E 23 00 00 00 00 AF 36 28 23 30 75 30 75 00 00
2026-07-11T14:34:54.627573,23.703,can0  100  [03]  EA 90 04
2026-07-11T14:34:54.630413,23.706,can0  206  [24]  C6 0C B1 08 C6 0C 99 C6 AE 09 C0 0C CA 0C 00 00 00 00 00 00 00 00 00 00
2026-07-11T14:34:54.630684,23.706,can0  120  [04]  00 00 00 00
2026-07-11T14:34:54.630908,23.707,can0  040  [04]  96 00 0F 00
2026-07-11T14:34:54.631545,23.707,can0  204  [16]  6E 23 00 00 00 00 AF 36 28 23 30 75 30 75 00 00
2026-07-11T14:34:54.682567,23.758,can0  040  [04]  96 00 0F 00
2026-07-11T14:34:54.690347,23.766,can0  204  [16]  6E 23 00 00 00 00 AE 36 28 23 30 75 30 75 00 00
2026-07-11T14:34:54.788360,23.864,can0  041  [04]  B5 00 02 00
2026-07-11T14:34:54.798096,23.874,can0  206  [24]  C6 0C B1 08 C6 0C 99 C6 AE 09 C0 0C CA 0C 00 00 00 00 00 00 00 00 00 00
2026-07-11T14:34:54.798185,23.874,can0  204  [16]  6E 23 00 00 00 00 AD 36 28 23 30 75 30 75 00 00
2026-07-11T14:34:54.895336,23.971,can0  040  [04]  95 00 12 00
2026-07-11T14:34:54.898128,23.974,can0  206  [24]  C1 0C B1 08 C6 0C 99 C6 AD 09 C5 0C CA 0C 00 00 00 00 00 00 00 00 00 00
2026-07-11T14:34:54.898752,23.975,can0  204  [16]  6E 23 00 00 00 00 AD 36 28 23 30 75 30 75 00 00
2026-07-11T14:34:54.899000,23.975,can0  040  [04]  95 00 12 00
2026-07-11T14:34:55.002471,24.078,can0  060  [32]  00 00 00 00 00 00 00 00 00 00 00 00 00 00 00 00 00 00 00 00 00 00 00 00 00 00 00 00 00 00 00 00
2026-07-11T14:34:55.002540,24.078,can0  041  [04]  B5 00 02 00
2026-07-11T14:34:55.002590,24.078,can0  204  [16]  6E 23 00 00 00 00 AD 36 28 23 30 75 30 75 00 00
2026-07-11T14:34:55.102522,24.178,can0  206  [24]  C1 0C B1 08 C6 0C 99 C6 AE 09 C5 0C CA 0C 00 00 00 00 00 00 00 00 00 00
2026-07-11T14:34:55.109707,24.186,can0  204  [16]  6E 23 00 00 00 00 AD 36 28 23 30 75 30 75 00 00
2026-07-11T14:34:55.206750,24.283,can0  040  [04]  83 00 11 00
2026-07-11T14:34:55.207000,24.283,can0  133  [00]
2026-07-11T14:34:55.207976,24.284,can0  040  [04]  83 00 11 00
2026-07-11T14:34:55.208022,24.284,can0  204  [16]  6E 23 00 00 00 00 AD 36 28 23 30 75 30 75 00 00
2026-07-11T14:34:55.302603,24.378,can0  206  [24]  C1 0C B1 08 C6 0C 99 C6 AE 09 C0 0C CA 0C 00 00 00 00 00 00 00 00 00 00
2026-07-11T14:34:55.304971,24.381,can0  041  [04]  E4 00 06 00
2026-07-11T14:34:55.305021,24.381,can0  204  [16]  6E 23 00 00 00 00 AE 36 28 23 30 75 30 75 00 00
2026-07-11T14:34:55.400944,24.477,can0  040  [04]  83 00 0D 00
2026-07-11T14:34:55.401005,24.477,can0  206  [24]  C1 0C B2 08 C6 0C 99 C6 AC 09 C0 0C CA 0C 00 00 00 00 00 00 00 00 00 00
2026-07-11T14:34:55.401048,24.477,can0  130  [00]
2026-07-11T14:34:55.407865,24.484,can0  204  [16]  6E 23 00 00 00 00 AE 36 28 23 30 75 30 75 00 00
2026-07-11T14:34:55.505825,24.582,can0  040  [04]  83 00 0D 00
2026-07-11T14:34:55.505894,24.582,can0  204  [16]  6E 23 00 00 00 00 AE 36 28 23 30 75 30 75 00 00
2026-07-11T14:34:55.505949,24.582,can0  041  [04]  10 01 06 00
2026-07-11T14:34:55.596526,24.672,can0  206  [24]  C1 0C B2 08 C6 0C 99 C6 AD 09 C0 0C CA 0C 00 00 00 00 00 00 00 00 00 00
2026-07-11T14:34:55.597199,24.673,can0  204  [16]  6E 23 00 00 00 00 AE 36 28 23 30 75 30 75 00 00
2026-07-11T14:34:55.692888,24.769,can0  040  [04]  6F 00 0D 00
2026-07-11T14:34:55.693630,24.769,can0  204  [16]  6E 23 00 00 00 00 AE 36 28 23 30 75 30 75 00 00
2026-07-11T14:34:55.792454,24.868,can0  040  [04]  6F 00 0D 00
2026-07-11T14:34:55.795582,24.871,can0  206  [24]  C1 0C B2 08 CB 0C 99 C6 AE 09 BB 0C CA 0C 00 00 00 00 00 00 00 00 00 00
2026-07-11T14:34:55.795842,24.872,can0  100  [03]  E7 90 04
2026-07-11T14:34:55.796080,24.872,can0  110  [02]  15 1B
2026-07-11T14:34:55.796346,24.872,can0  120  [04]  00 00 00 00
2026-07-11T14:34:55.796686,24.873,can0  041  [04]  10 01 06 00
2026-07-11T14:34:55.797351,24.873,can0  204  [16]  6E 23 00 00 00 00 AE 36 28 23 30 75 30 75 00 00
2026-07-11T14:34:55.895109,24.971,can0  206  [24]  C6 0C B2 08 C6 0C 99 C6 AD 09 BB 0C CA 0C 00 00 00 00 00 00 00 00 00 00
2026-07-11T14:34:55.895865,24.972,can0  204  [16]  6E 23 00 00 00 00 AE 36 28 23 30 75 30 75 00 00
2026-07-11T14:34:56.001088,25.077,can0  060  [32]  00 00 00 00 00 00 00 00 00 00 00 00 00 00 00 00 00 00 00 00 00 00 00 00 00 00 00 00 00 00 00 00
2026-07-11T14:34:56.001165,25.077,can0  040  [04]  7B 00 0C 00
2026-07-11T14:34:56.001209,25.077,can0  040  [04]  7B 00 0C 00
2026-07-11T14:34:56.001285,25.077,can0  204  [16]  6E 23 00 00 00 00 AE 36 28 23 30 75 30 75 00 00
2026-07-11T14:34:56.093372,25.169,can0  041  [04]  10 01 06 00
2026-07-11T14:34:56.098312,25.174,can0  206  [24]  C6 0C B2 08 C6 0C 99 C6 AD 09 C0 0C CA 0C 00 00 00 00 00 00 00 00 00 00
2026-07-11T14:34:56.193470,25.269,can0  204  [16]  6E 23 00 00 00 00 AE 36 28 23 30 75 30 75 00 00
2026-07-11T14:34:56.194153,25.270,can0  040  [04]  94 00 0E 00
2026-07-11T14:34:56.199374,25.275,can0  206  [24]  C6 0C B2 08 C6 0C 99 C6 AE 09 C0 0C CA 0C 00 00 00 00 00 00 00 00 00 00
2026-07-11T14:34:56.293535,25.369,can0  204  [16]  6E 23 00 00 00 00 AE 36 28 23 30 75 30 75 00 00
2026-07-11T14:34:56.293979,25.370,can0  040  [04]  94 00 0E 00
2026-07-11T14:34:56.301053,25.377,can0  041  [04]  10 01 02 00
2026-07-11T14:34:56.392987,25.469,can0  204  [16]  6E 23 00 00 00 00 AE 36 28 23 30 75 30 75 00 00
2026-07-11T14:34:56.401952,25.478,can0  206  [24]  C6 0C B2 08 C6 0C 99 C6 AD 09 C0 0C CA 0C 00 00 00 00 00 00 00 00 00 00
2026-07-11T14:34:56.493941,25.570,can0  204  [16]  6E 23 00 00 00 00 AE 36 28 23 30 75 30 75 00 00
2026-07-11T14:34:56.494039,25.570,can0  060  [32]  00 00 00 00 00 00 00 00 00 00 00 00 00 00 00 00 00 00 00 00 00 00 00 00 00 00 00 00 00 00 00 00
2026-07-11T14:34:56.494127,25.570,can0  040  [04]  A5 00 10 00
2026-07-11T14:34:56.494218,25.570,can0  040  [04]  A5 00 10 00
2026-07-11T14:34:56.596793,25.673,can0  204  [16]  6E 23 00 00 00 00 AE 36 28 23 30 75 30 75 00 00
2026-07-11T14:34:56.596888,25.673,can0  206  [24]  C6 0C B4 08 C6 0C 99 C6 AC 09 C0 0C CA 0C 00 00 00 00 00 00 00 00 00 00
2026-07-11T14:34:56.596996,25.673,can0  041  [04]  3F 01 02 00
2026-07-11T14:34:56.694053,25.770,can0  204  [16]  6E 23 00 00 00 00 AE 36 28 23 30 75 30 75 00 00
2026-07-11T14:34:56.795891,25.872,can0  206  [24]  CB 0C B3 08 C6 0C 99 C6 AD 09 C0 0C C6 0C 00 00 00 00 00 00 00 00 00 00
2026-07-11T14:34:56.803147,25.879,can0  040  [04]  BA 00 0B 00
2026-07-11T14:34:56.803232,25.879,can0  204  [16]  6E 23 00 00 00 00 AE 36 28 23 30 75 30 75 00 00
2026-07-11T14:34:56.803324,25.879,can0  040  [04]  BA 00 0B 00
2026-07-11T14:34:56.893117,25.969,can0  204  [16]  6E 23 00 00 00 00 AE 36 28 23 30 75 30 75 00 00
2026-07-11T14:34:56.896085,25.972,can0  041  [04]  E4 00 02 00
2026-07-11T14:34:56.896176,25.972,can0  206  [24]  D0 0C B2 08 C6 0C 99 C6 AC 09 C0 0C C0 0C 00 00 00 00 00 00 00 00 00 00
2026-07-11T14:34:56.993482,26.069,can0  204  [16]  6E 23 00 00 00 00 AE 36 28 23 30 75 30 75 00 00
2026-07-11T14:34:56.993843,26.070,can0  060  [32]  00 00 00 00 00 00 00 00 00 00 00 00 00 00 00 00 00 00 00 00 00 00 00 00 00 00 00 00 00 00 00 00
2026-07-11T14:34:56.994372,26.070,can0  100  [03]  DD 90 04
2026-07-11T14:34:56.994419,26.070,can0  120  [04]  00 00 00 00
2026-07-11T14:34:57.001228,26.077,can0  040  [04]  BC 00 07 00
2026-07-11T14:34:57.093808,26.170,can0  204  [16]  6E 23 00 00 00 00 AF 36 28 23 30 75 30 75 00 00
2026-07-11T14:34:57.096203,26.172,can0  206  [24]  CB 0C B3 08 C6 0C 99 C6 AD 09 C0 0C C6 0C 00 00 00 00 00 00 00 00 00 00
2026-07-11T14:34:57.096571,26.172,can0  040  [04]  BC 00 07 00
2026-07-11T14:34:57.096617,26.172,can0  060  [32]  46 75 D6 02 58 30 4D 08 72 16 B8 10 03 00 10 0E 3E 00 00 00 00 00 00 00 01 00 00 00 00 00 00 00
2026-07-11T14:34:57.104971,26.181,can0  041  [04]  A7 00 05 00
2026-07-11T14:34:57.193825,26.270,can0  204  [16]  6E 23 00 00 00 00 AE 36 28 23 30 75 30 75 00 00
2026-07-11T14:34:57.196634,26.272,can0  206  [24]  CB 0C B3 08 CA 0C 99 C6 AC 09 BC 0C C6 0C 00 00 00 00 00 00 00 00 00 00
2026-07-11T14:34:57.294172,26.370,can0  204  [16]  6E 23 00 00 00 00 AE 36 28 23 30 75 30 75 00 00
2026-07-11T14:34:57.301449,26.377,can0  040  [04]  BB 00 09 00
2026-07-11T14:34:57.301541,26.377,can0  040  [04]  BB 00 09 00
2026-07-11T14:34:57.394514,26.470,can0  204  [16]  6E 23 00 00 00 00 AD 36 28 23 30 75 30 75 00 00
2026-07-11T14:34:57.394803,26.471,can0  110  [02]  13 1B
2026-07-11T14:34:57.404079,26.480,can0  041  [04]  B5 00 08 00
2026-07-11T14:34:57.404165,26.480,can0  206  [24]  BB 0C B1 08 CF 0C 99 C6 AD 09 BC 0C D0 0C 00 00 00 00 00 00 00 00 00 00
2026-07-11T14:34:57.503212,26.579,can0  204  [16]  6E 23 00 00 00 00 AD 36 28 23 30 75 30 75 00 00
2026-07-11T14:34:57.593440,26.669,can0  040  [04]  B7 00 11 00
2026-07-11T14:34:57.594315,26.670,can0  204  [16]  6E 23 00 00 00 00 AE 36 28 23 30 75 30 75 00 00
2026-07-11T14:34:57.596597,26.672,can0  206  [24]  C1 0C B3 08 CF 0C 99 C6 AC 09 BC 0C CA 0C 00 00 00 00 00 00 00 00 00 00
2026-07-11T14:34:57.596909,26.673,can0  040  [04]  B7 00 11 00
2026-07-11T14:34:57.597120,26.673,can0  060  [32]  00 00 00 00 00 00 00 00 00 00 00 00 00 00 00 00 00 00 00 00 00 00 00 00 00 00 00 00 00 00 00 00
2026-07-11T14:34:57.693457,26.769,can0  204  [16]  6E 23 00 00 00 00 AD 36 28 23 30 75 30 75 00 00
2026-07-11T14:34:57.693823,26.770,can0  041  [04]  C6 00 09 00
2026-07-11T14:34:57.702773,26.779,can0  206  [24]  BB 0C B3 08 CF 0C 99 C6 AC 09 BC 0C D0 0C 00 00 00 00 00 00 00 00 00 00
2026-07-11T14:34:57.720412,26.796,can0   001  [05]  0e 02 20 20 00 0
2026-07-11T14:34:57.801745,26.878,can0  204  [16]  6E 23 00 00 00 00 AD 36 28 23 30 75 30 75 00 00
2026-07-11T14:34:57.802428,26.878,can0  001  [05]  E0 22 02 00 00
2026-07-11T14:34:57.802671,26.878,can0  040  [04]  B3 00 18 00
2026-07-11T14:34:57.902165,26.978,can0  040  [04]  B3 00 18 00
2026-07-11T14:34:57.916041,26.992,can0  204  [16]  6E 23 00 00 00 00 AE 36 28 23 30 75 30 75 00 00
2026-07-11T14:34:57.916136,26.992,can0  206  [24]  BB 0C B2 08 CF 0C 99 C6 AB 09 BC 0C D0 0C 00 00 00 00 00 00 00 00 00 00
2026-07-11T14:34:57.916243,26.992,can0  041  [04]  CB 00 0A 00
2026-07-11T14:34:58.005642,27.081,can0  204  [16]  6E 23 00 00 00 00 AE 36 28 23 30 75 30 75 00 00
2026-07-11T14:34:58.104489,27.180,can0  206  [24]  C0 0C B3 08 C1 0C 99 C6 AC 09 C5 0C D0 0C 00 00 00 00 00 00 00 00 00 00
2026-07-11T14:34:58.105287,27.181,can0  204  [16]  6E 23 00 00 00 00 AD 36 28 23 30 75 30 75 00 00
2026-07-11T14:34:58.105545,27.181,can0  040  [04]  9D 00 18 00
2026-07-11T14:34:58.105826,27.182,can0  060  [32]  00 00 00 00 00 00 00 00 00 00 00 00 00 00 00 00 00 00 00 00 00 00 00 00 00 00 00 00 00 00 00 00
2026-07-11T14:34:58.106122,27.182,can0  040  [04]  9D 00 18 00
2026-07-11T14:34:58.200589,27.276,can0  204  [16]  6E 23 00 00 00 00 AD 36 28 23 30 75 30 75 00 00
2026-07-11T14:34:58.200848,27.277,can0  100  [03]  CA 90 04
2026-07-11T14:34:58.201079,27.277,can0  120  [04]  00 00 00 00
2026-07-11T14:34:58.201373,27.277,can0  041  [04]  DE 00 07 00
2026-07-11T14:34:58.204220,27.280,can0  206  [24]  C6 0C B3 08 C1 0C 99 C6 AC 09 C5 0C CA 0C 00 00 00 00 00 00 00 00 00 00
2026-07-11T14:34:58.298481,27.374,can0  204  [16]  6E 23 00 00 00 00 AD 36 28 23 30 75 30 75 00 00
2026-07-11T14:34:58.298750,27.375,can0  040  [04]  8B 00 14 00
2026-07-11T14:34:58.394603,27.470,can0  204  [16]  6E 23 00 00 00 00 AD 36 28 23 30 75 30 75 00 00
2026-07-11T14:34:58.397187,27.473,can0  206  [24]  C1 0C B2 08 BC 0C 99 C6 AB 09 CF 0C CA 0C 00 00 00 00 00 00 00 00 00 00
2026-07-11T14:34:58.397491,27.473,can0  040  [04]  8B 00 14 00
2026-07-11T14:34:58.495886,27.572,can0  041  [04]  E4 00 08 00
2026-07-11T14:34:58.503533,27.579,can0  204  [16]  6E 23 00 00 00 00 AD 36 28 23 30 75 30 75 00 00
2026-07-11T14:34:58.598399,27.674,can0  206  [24]  C1 0C B1 08 BC 0C 99 C6 AB 09 CF 0C CA 0C 00 00 00 00 00 00 00 00 00 00
2026-07-11T14:34:58.599052,27.675,can0  204  [16]  6E 23 00 00 00 00 AD 36 28 23 30 75 30 75 00 00
2026-07-11T14:34:58.599349,27.675,can0  040  [04]  75 00 12 00
2026-07-11T14:34:58.699559,27.775,can0  040  [04]  75 00 12 00
2026-07-11T14:34:58.699653,27.775,can0  204  [16]  6E 23 00 00 00 00 AD 36 28 23 30 75 30 75 00 00
2026-07-11T14:34:58.701862,27.778,can0  206  [24]  C1 0C B1 08 C1 0C 99 C6 AC 09 CA 0C CA 0C 00 00 00 00 00 00 00 00 00 00
2026-07-11T14:34:58.708848,27.785,can0  041  [04]  F3 00 07 00
2026-07-11T14:34:58.806239,27.882,can0  204  [16]  6E 23 00 00 00 00 AD 36 28 23 30 75 30 75 00 00
2026-07-11T14:34:58.908991,27.985,can0  204  [16]  6E 23 00 00 00 00 AD 36 28 23 30 75 30 75 00 00
2026-07-11T14:34:58.909089,27.985,can0  040  [04]  75 00 0F 00
2026-07-11T14:34:58.911949,27.988,can0  206  [24]  C1 0C B1 08 C6 0C 99 C6 AC 09 CB 0C CA 0C 00 00 00 00 00 00 00 00 00 00
2026-07-11T14:34:58.919545,27.995,can0  040  [04]  75 00 0F 00
2026-07-11T14:34:59.011108,28.087,can0  204  [16]  6E 23 00 00 00 00 AE 36 28 23 30 75 30 75 00 00
2026-07-11T14:34:59.011200,28.087,can0  110  [02]  12 1B
2026-07-11T14:34:59.015545,28.091,can0  060  [32]  00 00 00 00 00 00 00 00 00 00 00 00 00 00 00 00 00 00 00 00 00 00 00 00 00 00 00 00 00 00 00 00
2026-07-11T14:34:59.015631,28.091,can0  041  [04]  F8 00 06 00
2026-07-11T14:34:59.114544,28.190,can0  206  [24]  C1 0C B1 08 C6 0C 99 C6 AC 09 CB 0C CA 0C 00 00 00 00 00 00 00 00 00 00
2026-07-11T14:34:59.122296,28.198,can0  204  [16]  6E 23 00 00 00 00 AD 36 28 23 30 75 30 75 00 00
2026-07-11T14:34:59.218183,28.294,can0  040  [04]  58 00 00 00
2026-07-11T14:34:59.218275,28.294,can0  204  [16]  6E 23 00 00 00 00 AD 36 28 23 30 75 30 75 00 00
2026-07-11T14:34:59.218360,28.294,can0  040  [04]  58 00 00 00
2026-07-11T14:34:59.228235,28.304,can0  206  [24]  C1 0C B1 08 CB 0C 99 C6 AE 09 C6 0C CA 0C 00 00 00 00 00 00 00 00 00 00
2026-07-11T14:34:59.334405,28.410,can0  041  [04]  F0 00 05 00
2026-07-11T14:34:59.334481,28.410,can0  204  [16]  6E 23 00 00 00 00 AD 36 28 23 30 75 30 75 00 00
2026-07-11T14:34:59.429502,28.505,can0  100  [03]  1E 90 04
2026-07-11T14:34:59.429568,28.505,can0  120  [04]  00 00 00 00
2026-07-11T14:34:59.432572,28.508,can0  204  [16]  6E 23 00 00 00 00 AE 36 28 23 30 75 30 75 00 00
2026-07-11T14:34:59.432636,28.508,can0  206  [24]  C1 0C B2 08 C6 0C 99 C6 AD 09 CB 0C CA 0C 00 00 00 00 00 00 00 00 00 00
2026-07-11T14:34:59.439751,28.516,can0  040  [04]  DF 00 02 00
2026-07-11T14:34:59.542403,28.618,can0  040  [04]  DF 00 02 00
2026-07-11T14:34:59.542515,28.618,can0  204  [16]  6E 23 00 00 00 00 AE 36 28 23 30 75 30 75 00 00
2026-07-11T14:34:59.542620,28.618,can0  041  [04]  F8 00 02 00
2026-07-11T14:34:59.634420,28.710,can0  206  [24]  C1 0C B1 08 C6 0C 99 C6 AC 09 CB 0C CA 0C 00 00 00 00 00 00 00 00 00 00
2026-07-11T14:34:59.641735,28.718,can0  204  [16]  6E 23 00 00 00 00 AE 36 28 23 30 75 30 75 00 00
2026-07-11T14:34:59.734758,28.811,can0  070  [20]  C9 2C 4D 08 A4 AE 62 03 00 00 00 00 23 15 00 00 14 00 00 00
2026-07-11T14:34:59.734848,28.811,can0  040  [04]  B3 00 0E 00
2026-07-11T14:34:59.734944,28.811,can0  204  [16]  6E 23 00 00 00 00 AE 36 28 23 30 75 30 75 00 00
2026-07-11T14:34:59.737339,28.813,can0  070  [20]  C9 2C 4D 08 A4 AE 62 03 00 00 00 00 23 15 00 00 15 00 00 00
2026-07-11T14:34:59.737419,28.813,can0  206  [24]  C1 0C B0 08 C6 0C 99 C6 AC 09 C5 0C CA 0C 00 00 00 00 00 00 00 00 00 00
2026-07-11T14:34:59.745181,28.821,can0  040  [04]  B3 00 0E 00
2026-07-11T14:34:59.790269,28.866,can0  204  [16]  6E 23 00 00 00 00 AD 36 28 23 30 75 30 75 00 00
2026-07-11T14:34:59.790360,28.866,can0  041  [04]  E4 00 02 00
2026-07-11T14:34:59.798367,28.874,can0  070  [20]  C9 2C 4D 08 A4 AE 62 03 00 00 00 00 23 15 00 00 15 00 00 00
2026-07-11T14:34:59.906332,28.982,can0  204  [16]  6E 23 00 00 00 00 AD 36 28 23 30 75 30 75 00 00
2026-07-11T14:34:59.906423,28.982,can0  206  [24]  C1 0C B0 08 C6 0C 99 C6 AD 09 C5 0C CA 0C 00 00 00 00 00 00 00 00 00 00
2026-07-11T14:34:59.999910,29.076,can0  040  [04]  B3 00 0E 00
2026-07-11T14:35:00.000705,29.077,can0  204  [16]  6E 23 00 00 00 00 AD 36 28 23 30 75 30 75 00 00
2026-07-11T14:35:00.001053,29.077,can0  060  [32]  00 00 00 00 00 00 00 00 00 00 00 00 00 00 00 00 00 00 00 00 00 00 00 00 00 00 00 00 00 00 00 00
2026-07-11T14:35:00.001298,29.077,can0  040  [04]  B3 00 0E 00
2026-07-11T14:35:00.110765,29.187,can0  206  [24]  C1 0C B0 08 C6 0C 99 C6 AC 09 C5 0C CA 0C 00 00 00 00 00 00 00 00 00 00
2026-07-11T14:35:00.110860,29.187,can0  041  [04]  D8 00 05 00
2026-07-11T14:35:00.110952,29.187,can0  204  [16]  6E 23 00 00 00 00 AD 36 28 23 30 75 30 75 00 00
2026-07-11T14:35:00.111033,29.187,can0  070  [20]  C9 2C 4D 08 A4 AE 62 03 00 00 00 00 23 15 00 00 15 00 00 00
2026-07-11T14:35:00.206861,29.283,can0  204  [16]  6E 23 00 00 00 00 AD 36 28 23 30 75 30 75 00 00
2026-07-11T14:35:00.207914,29.284,can0  040  [04]  9C 00 12 00
2026-07-11T14:35:00.218972,29.295,can0  206  [24]  C6 0C B1 08 C6 0C 99 C6 AB 09 C0 0C CA 0C 00 00 00 00 00 00 00 00 00 00
2026-07-11T14:35:00.316124,29.392,can0  040  [04]  9C 00 12 00
2026-07-11T14:35:00.316220,29.392,can0  204  [16]  6E 23 00 00 00 00 AE 36 28 23 30 75 30 75 00 00
2026-07-11T14:35:00.319813,29.396,can0  041  [04]  B5 00 02 00
2026-07-11T14:35:00.419778,29.496,can0  206  [24]  C0 0C B0 08 C1 0C 99 C6 AB 09 C5 0C D0 0C 00 00 00 00 00 00 00 00 00 00
2026-07-11T14:35:00.430070,29.506,can0  204  [16]  6E 23 00 00 00 00 AE 36 28 23 30 75 30 75 00 00
2026-07-11T14:35:00.525122,29.601,can0  040  [04]  9A 00 16 00
2026-07-11T14:35:00.526329,29.602,can0  204  [16]  6E 23 00 00 00 00 AE 36 28 23 30 75 30 75 00 00
2026-07-11T14:35:00.526599,29.602,can0  060  [32]  00 00 00 00 00 00 00 00 00 00 00 00 00 00 00 00 00 00 00 00 00 00 00 00 00 00 00 00 00 00 00 00
2026-07-11T14:35:00.526873,29.603,can0  040  [04]  9A 00 16 00
2026-07-11T14:35:00.527162,29.603,can0  070  [20]  C9 2C 4D 08 9D AE 62 03 E8 03 00 00 23 15 00 00 1F 00 00 00
2026-07-11T14:35:00.632065,29.708,can0  206  [24]  C0 0C B1 08 C1 0C 99 C6 AB 09 C5 0C D0 0C 00 00 00 00 00 00 00 00 00 00
2026-07-11T14:35:00.632344,29.708,can0  100  [03]  08 90 04
2026-07-11T14:35:00.632617,29.708,can0  110  [02]  14 1B
2026-07-11T14:35:00.632867,29.709,can0  120  [04]  00 00 00 00
2026-07-11T14:35:00.633126,29.709,can0  070  [20]  C9 2C 4D 08 9D AE 62 03 E8 03 00 00 23 15 00 00 1F 00 00 00
2026-07-11T14:35:00.633820,29.710,can0  204  [16]  6E 23 00 00 00 00 AF 36 28 23 30 75 30 75 00 00
2026-07-11T14:35:00.634066,29.710,can0  041  [04]  AA 00 05 00
2026-07-11T14:35:00.732581,29.808,can0  070  [20]  C9 2C 4D 08 9D AE 62 03 E8 03 00 00 23 15 00 00 1F 00 00 00
2026-07-11T14:35:00.733659,29.809,can0  204  [16]  6E 23 00 00 00 00 AF 36 28 23 30 75 30 75 00 00
2026-07-11T14:35:00.733913,29.810,can0  132  [00]
2026-07-11T14:35:00.736236,29.812,can0  206  [24]  BB 0C B0 08 C6 0C 99 C6 AA 09 C5 0C D0 0C 00 00 00 00 00 00 00 00 00 00
2026-07-11T14:35:00.736535,29.812,can0  040  [04]  A6 00 18 00
2026-07-11T14:35:00.788760,29.865,can0  040  [04]  A6 00 18 00
2026-07-11T14:35:00.789851,29.866,can0  204  [16]  6E 23 00 00 00 00 AF 36 28 23 30 75 30 75 00 00
2026-07-11T14:35:00.892732,29.969,can0  041  [04]  B5 00 05 00
2026-07-11T14:35:00.896306,29.972,can0  206  [24]  BB 0C B0 08 C1 0C 99 C6 AB 09 CA 0C D0 0C 00 00 00 00 00 00 00 00 00 00
2026-07-11T14:35:00.896373,29.972,can0  204  [16]  6E 23 00 00 00 00 AF 36 28 23 30 75 30 75 00 00
2026-07-11T14:35:00.999147,30.075,can0  040  [04]  AD 00 19 00
2026-07-11T14:35:00.999214,30.075,can0  204  [16]  6E 23 00 00 00 00 AF 36 28 23 30 75 30 75 00 00
2026-07-11T14:35:00.999259,30.075,can0  070  [20]  C9 2C 4D 08 9D AE 62 03 E8 03 00 00 23 15 00 00 1F 00 00 00
2026-07-11T14:35:01.006718,30.083,can0  060  [32]  00 00 00 00 00 00 00 00 00 00 00 00 00 00 00 00 00 00 00 00 00 00 00 00 00 00 00 00 00 00 00 00
2026-07-11T14:35:01.099483,30.175,can0  040  [04]  AD 00 19 00
2026-07-11T14:35:01.102017,30.178,can0  206  [24]  BB 0C B0 08 C1 0C 99 C6 AC 09 C5 0C D0 0C 00 00 00 00 00 00 00 00 00 00
2026-07-11T14:35:01.102680,30.178,can0  204  [16]  6E 23 00 00 00 00 B0 36 28 23 30 75 30 75 00 00
2026-07-11T14:35:01.102942,30.179,can0  041  [04]  C9 00 02 00
2026-07-11T14:35:01.202184,30.278,can0  204  [16]  6E 23 00 00 00 00 B0 36 28 23 30 75 30 75 00 00
2026-07-11T14:35:01.204558,30.280,can0  206  [24]  C6 0C B0 08 C1 0C 99 C6 AC 09 C0 0C CA 0C 00 00 00 00 00 00 00 00 00 00
2026-07-11T14:35:01.303225,30.379,can0  040  [04]  A8 00 1B 00
2026-07-11T14:35:01.304118,30.380,can0  204  [16]  6E 23 00 00 00 00 AF 36 28 23 30 75 30 75 00 00
2026-07-11T14:35:01.304387,30.380,can0  040  [04]  A8 00 1B 00
2026-07-11T14:35:01.405622,30.481,can0  206  [24]  C6 0C AF 08 BC 0C 99 C6 AD 09 C5 0C CA 0C 00 00 00 00 00 00 00 00 00 00
2026-07-11T14:35:01.405918,30.482,can0  041  [04]  C9 00 05 00
2026-07-11T14:35:01.406499,30.482,can0  204  [16]  6E 23 00 00 00 00 AF 36 28 23 30 75 30 75 00 00
2026-07-11T14:35:01.509115,30.585,can0  204  [16]  6E 23 00 00 00 00 AF 36 28 23 30 75 30 75 00 00
2026-07-11T14:35:01.509534,30.585,can0  070  [20]  C9 2C 4D 08 9D AE 62 03 E8 03 00 00 23 15 00 00 1F 00 00 00
2026-07-11T14:35:01.509929,30.586,can0  040  [04]  A1 00 1A 00
2026-07-11T14:35:01.517176,30.593,can0  206  [24]  C1 0C B0 08 BC 0C 99 C6 AD 09 CA 0C CA 0C 00 00 00 00 00 00 00 00 00 00
2026-07-11T14:35:01.613741,30.690,can0  070  [20]  C9 2C 4D 08 98 AE 62 03 D0 07 00 00 23 15 00 00 2B 00 00 00
2026-07-11T14:35:01.622037,30.698,can0  070  [20]  C9 2C 4D 08 98 AE 62 03 D0 07 00 00 23 15 00 00 2B 00 00 00
2026-07-11T14:35:01.622123,30.698,can0  040  [04]  A1 00 1A 00
2026-07-11T14:35:01.622168,30.698,can0  204  [16]  6E 23 00 00 00 00 AF 36 28 23 30 75 30 75 00 00
2026-07-11T14:35:01.716250,30.792,can0  041  [04]  AE 00 08 00
2026-07-11T14:35:01.716649,30.792,can0  070  [20]  C9 2C 4D 08 98 AE 62 03 D0 07 00 00 23 15 00 00 2B 00 00 00
2026-07-11T14:35:01.717494,30.793,can0  204  [16]  6E 23 00 00 00 00 AE 36 28 23 30 75 30 75 00 00
2026-07-11T14:35:01.719808,30.796,can0  206  [24]  C1 0C B1 08 C1 0C 99 C6 AD 09 C5 0C CA 0C 00 00 00 00 00 00 00 00 00 00
2026-07-11T14:35:01.728632,30.804,can0  060  [32]  72 32 D6 02 8A 2B 4D 08 25 38 B8 10 01 00 1C 08 FF 01 00 00 00 00 00 00 01 00 00 00 00 00 00 00
2026-07-11T14:35:01.821800,30.898,can0  100  [03]  68 8F 04
2026-07-11T14:35:01.821893,30.898,can0  120  [04]  00 00 00 00
2026-07-11T14:35:01.822577,30.898,can0  204  [16]  6E 23 00 00 00 00 AE 36 28 23 30 75 30 75 00 00
2026-07-11T14:35:01.830463,30.906,can0  040  [04]  9E 00 16 00
2026-07-11T14:35:01.928052,31.004,can0  040  [04]  9E 00 16 00
2026-07-11T14:35:01.930631,31.006,can0  206  [24]  C1 0C AD 08 C1 0C 99 C6 AD 09 C5 0C CA 0C 00 00 00 00 00 00 00 00 00 00
2026-07-11T14:35:01.931382,31.007,can0  204  [16]  6E 23 00 00 00 00 AE 36 28 23 30 75 30 75 00 00
2026-07-11T14:35:01.931684,31.008,can0  041  [04]  A4 00 06 00
2026-07-11T14:35:02.033462,31.109,can0  204  [16]  6E 23 00 00 00 00 AD 36 28 23 30 75 30 75 00 00
2026-07-11T14:35:02.036125,31.112,can0  206  [24]  C1 0C AD 08 BC 0C 99 C6 AE 09 CF 0C CA 0C 00 00 00 00 00 00 00 00 00 00
2026-07-11T14:35:02.136890,31.213,can0  070  [20]  C9 2C 4D 08 98 AE 62 03 D0 07 00 00 23 15 00 00 2B 00 00 00
2026-07-11T14:35:02.137187,31.213,can0  040  [04]  A3 00 13 00
2026-07-11T14:35:02.138155,31.214,can0  204  [16]  6E 23 00 00 00 00 AC 36 28 23 30 75 30 75 00 00
2026-07-11T14:35:02.138537,31.214,can0  040  [04]  A3 00 13 00
2026-07-11T14:35:02.191677,31.267,can0  110  [02]  14 1B
2026-07-11T14:35:02.192126,31.268,can0  041  [04]  A9 00 0A 00
2026-07-11T14:35:02.193012,31.269,can0  204  [16]  6E 23 00 00 00 00 AC 36 28 23 30 75 30 75 00 00
2026-07-11T14:35:02.195817,31.272,can0  206  [24]  BC 0C AE 08 C6 0C 99 C6 AC 09 CA 0C CA 0C 00 00 00 00 00 00 00 00 00 00
2026-07-11T14:35:02.196103,31.272,can0  060  [32]  00 00 00 00 00 00 00 00 00 00 00 00 00 00 00 00 00 00 00 00 00 00 00 00 00 00 00 00 00 00 00 00
2026-07-11T14:35:02.297164,31.373,can0  204  [16]  6E 23 00 00 00 00 AD 36 28 23 30 75 30 75 00 00
2026-07-11T14:35:02.297433,31.373,can0  040  [04]  A9 00 0E 00
2026-07-11T14:35:02.401994,31.478,can0  206  [24]  CB 0C AE 08 C6 0C 99 C6 AC 09 C5 0C C0 0C 00 00 00 00 00 00 00 00 00 00
2026-07-11T14:35:02.402059,31.478,can0  040  [04]  A9 00 0E 00
2026-07-11T14:35:02.402101,31.478,can0  204  [16]  6E 23 00 00 00 00 AD 36 28 23 30 75 30 75 00 00
2026-07-11T14:35:02.503737,31.580,can0  041  [04]  B0 00 0D 00
2026-07-11T14:35:02.503806,31.580,can0  204  [16]  6E 23 00 00 00 00 AD 36 28 23 30 75 30 75 00 00
2026-07-11T14:35:02.514492,31.590,can0  206  [24]  CB 0C AE 08 C1 0C 99 C6 AB 09 CA 0C C0 0C 00 00 00 00 00 00 00 00 00 00
2026-07-11T14:35:02.613192,31.689,can0  070  [20]  C9 2C 4D 08 95 AE 62 03 B8 0B 00 00 23 15 00 00 16 00 00 00
2026-07-11T14:35:02.614023,31.690,can0  204  [16]  6E 23 00 00 00 00 AC 36 28 23 30 75 30 75 00 00
2026-07-11T14:35:02.621809,31.698,can0  070  [20]  C9 2C 4D 08 95 AE 62 03 B8 0B 00 00 23 15 00 00 16 00 00 00
2026-07-11T14:35:02.621870,31.698,can0  040  [04]  B3 00 0C 00
2026-07-11T14:35:02.718531,31.794,can0  040  [04]  B3 00 0C 00
2026-07-11T14:35:02.718621,31.794,can0  070  [20]  C9 2C 4D 08 95 AE 62 03 B8 0B 00 00 23 15 00 00 16 00 00 00
2026-07-11T14:35:02.718708,31.795,can0  206  [24]  CB 0C B1 08 BC 0C 99 C6 AB 09 CA 0C C0 0C 00 00 00 00 00 00 00 00 00 00
2026-07-11T14:35:02.719288,31.795,can0  204  [16]  6E 23 00 00 00 00 AC 36 28 23 30 75 30 75 00 00
2026-07-11T14:35:02.719594,31.795,can0  041  [04]  AD 00 11 00
2026-07-11T14:35:02.822710,31.899,can0  204  [16]  6E 23 00 00 00 00 AC 36 28 23 30 75 30 75 00 00
2026-07-11T14:35:02.929379,32.005,can0  206  [24]  CB 0C B1 08 C1 0C 99 C6 AA 09 CA 0C C0 0C 00 00 00 00 00 00 00 00 00 00
2026-07-11T14:35:02.929640,32.005,can0  040  [04]  BA 00 0B 00
2026-07-11T14:35:02.930415,32.006,can0  204  [16]  6E 23 00 00 00 00 AB 36 28 23 30 75 30 75 00 00
2026-07-11T14:35:02.930635,32.006,can0  040  [04]  BA 00 0B 00
2026-07-11T14:35:03.037840,32.114,can0  100  [03]  4B 8F 04
2026-07-11T14:35:03.038101,32.114,can0  120  [04]  00 00 00 00
2026-07-11T14:35:03.038341,32.114,can0  041  [04]  B5 00 12 00
2026-07-11T14:35:03.039332,32.115,can0  204  [16]  6E 23 00 00 00 00 AC 36 28 23 30 75 30 75 00 00
2026-07-11T14:35:03.049449,32.125,can0  206  [24]  C6 0C B1 08 C1 0C 99 C6 AC 09 CA 0C C6 0C 00 00 00 00 00 00 00 00 00 00
2026-07-11T14:35:03.049515,32.125,can0  060  [32]  00 00 00 00 00 00 00 00 00 00 00 00 00 00 00 00 00 00 00 00 00 00 00 00 00 00 00 00 00 00 00 00
2026-07-11T14:35:03.095693,32.172,can0  070  [20]  C9 2C 4D 08 95 AE 62 03 B8 0B 00 00 23 15 00 00 16 00 00 00
2026-07-11T14:35:03.096554,32.172,can0  204  [16]  6E 23 00 00 00 00 AC 36 28 23 30 75 30 75 00 00
2026-07-11T14:35:03.096816,32.173,can0  040  [04]  D2 00 0E 00
2026-07-11T14:35:03.199969,32.276,can0  040  [04]  D2 00 0E 00
2026-07-11T14:35:03.202811,32.279,can0  206  [24]  BB 0C B1 08 C1 0C 99 C6 AC 09 D0 0C D0 0C 00 00 00 00 00 00 00 00 00 00
2026-07-11T14:35:03.203476,32.279,can0  204  [16]  6E 23 00 00 00 00 AB 36 28 23 30 75 30 75 00 00
2026-07-11T14:35:03.307216,32.383,can0  041  [04]  BC 00 0D 00
2026-07-11T14:35:03.308192,32.384,can0  204  [16]  6E 23 00 00 00 00 AB 36 28 23 30 75 30 75 00 00
2026-07-11T14:35:03.410342,32.486,can0  206  [24]  BB 0C B1 08 C1 0C 99 C6 AD 09 D0 0C D0 0C 00 00 00 00 00 00 00 00 00 00
2026-07-11T14:35:03.410647,32.486,can0  040  [04]  DF 00 11 00
2026-07-11T14:35:03.411539,32.487,can0  204  [16]  6E 23 00 00 00 00 AB 36 28 23 30 75 30 75 00 00
2026-07-11T14:35:03.411780,32.488,can0  040  [04]  DF 00 11 00
2026-07-11T14:35:03.512710,32.589,can0  204  [16]  6E 23 00 00 00 00 AB 36 28 23 30 75 30 75 00 00
2026-07-11T14:35:03.513034,32.589,can0  041  [04]  BF 00 09 00
2026-07-11T14:35:03.515810,32.592,can0  206  [24]  BB 0C AD 08 C6 0C 99 C6 AD 09 CB 0C D0 0C 00 00 00 00 00 00 00 00 00 00
2026-07-11T14:35:03.615747,32.692,can0  060  [32]  00 00 00 00 00 00 00 00 00 00 00 00 00 00 00 00 00 00 00 00 00 00 00 00 00 00 00 00 00 00 00 00
2026-07-11T14:35:03.616539,32.692,can0  070  [20]  C9 2C 4D 08 95 AE 62 03 B8 0B 00 00 23 15 00 00 16 00 00 00
2026-07-11T14:35:03.616820,32.693,can0  070  [20]  C9 2C 4D 08 93 AE 62 03 A0 0F 00 00 23 15 00 00 39 00 00 00
2026-07-11T14:35:03.617089,32.693,can0  070  [20]  C9 2C 4D 08 93 AE 62 03 A0 0F 00 00 23 15 00 00 39 00 00 00
2026-07-11T14:35:03.618024,32.694,can0  204  [16]  6E 23 00 00 00 00 AB 36 28 23 30 75 30 75 00 00
2026-07-11T14:35:03.618243,32.694,can0  060  [32]  69 E6 D5 02 79 55 4D 08 4C 0E B8 10 42 00 EE 0A FF 01 00 00 00 00 00 00 01 00 00 00 00 00 00 00
2026-07-11T14:35:03.721108,32.797,can0  040  [04]  DC 00 10 00
2026-07-11T14:35:03.721528,32.797,can0  070  [20]  C9 2C 4D 08 93 AE 62 03 A0 0F 00 00 23 15 00 00 39 00 00 00
2026-07-11T14:35:03.724387,32.800,can0  206  [24]  BB 0C AD 08 CB 0C 99 C6 AE 09 C6 0C D0 0C 00 00 00 00 00 00 00 00 00 00
2026-07-11T14:35:03.725340,32.801,can0  204  [16]  6E 23 00 00 00 00 AB 36 28 23 30 75 30 75 00 00
2026-07-11T14:35:03.725654,32.801,can0  040  [04]  DC 00 10 00
2026-07-11T14:35:03.825228,32.901,can0  110  [02]  15 1B
2026-07-11T14:35:03.825531,32.901,can0  041  [04]  C4 00 06 00
2026-07-11T14:35:03.826291,32.902,can0  204  [16]  6E 23 00 00 00 00 AB 36 28 23 30 75 30 75 00 00
2026-07-11T14:35:03.932075,33.008,can0  206  [24]  C6 0C AD 08 C6 0C 99 C6 AD 09 C0 0C CA 0C 00 00 00 00 00 00 00 00 00 00
2026-07-11T14:35:03.932334,33.008,can0  040  [04]  D3 00 0E 00
2026-07-11T14:35:03.933259,33.009,can0  204  [16]  6E 23 00 00 00 00 AB 36 28 23 30 75 30 75 00 00
2026-07-11T14:35:04.035844,33.112,can0  040  [04]  D3 00 0E 00
2026-07-11T14:35:04.036080,33.112,can0  131  [00]
2026-07-11T14:35:04.036872,33.113,can0  204  [16]  6E 23 00 00 00 00 AB 36 28 23 30 75 30 75 00 00
2026-07-11T14:35:04.040089,33.116,can0  206  [24]  C1 0C AC 08 CB 0C 99 C6 AD 09 C0 0C CA 0C 00 00 00 00 00 00 00 00 00 00
2026-07-11T14:35:04.140353,33.216,can0  041  [04]  D1 00 05 00
2026-07-11T14:35:04.140691,33.217,can0  070  [20]  C9 2C 4D 08 93 AE 62 03 A0 0F 00 00 23 15 00 00 39 00 00 00
2026-07-11T14:35:04.141749,33.218,can0  204  [16]  6E 23 00 00 00 00 AB 36 28 23 30 75 30 75 00 00
2026-07-11T14:35:04.142060,33.218,can0  060  [32]  00 00 00 00 00 00 00 00 00 00 00 00 00 00 00 00 00 00 00 00 00 00 00 00 00 00 00 00 00 00 00 00
2026-07-11T14:35:04.193886,33.270,can0  100  [03]  92 8E 04
2026-07-11T14:35:04.194144,33.270,can0  120  [04]  00 00 00 00
2026-07-11T14:35:04.196888,33.273,can0  206  [24]  C6 0C AB 08 C6 0C 99 C6 AD 09 C0 0C CA 0C 00 00 00 00 00 00 00 00 00 00
2026-07-11T14:35:04.196993,33.273,can0  040  [04]  C9 00 0D 00
2026-07-11T14:35:04.204506,33.280,can0  204  [16]  6E 23 00 00 00 00 AC 36 28 23 30 75 30 75 00 00
2026-07-11T14:35:04.298653,33.374,can0  040  [04]  C9 00 0D 00
2026-07-11T14:35:04.298978,33.375,can0  041  [04]  C4 00 07 00
2026-07-11T14:35:04.306992,33.383,can0  204  [16]  6E 23 00 00 00 00 AC 36 28 23 30 75 30 75 00 00
2026-07-11T14:35:04.402862,33.479,can0  206  [24]  C6 0C AF 08 C1 0C 99 C6 AD 09 C5 0C CA 0C 00 00 00 00 00 00 00 00 00 00
2026-07-11T14:35:04.411259,33.487,can0  204  [16]  6E 23 00 00 00 00 AC 36 28 23 30 75 30 75 00 00
2026-07-11T14:35:04.504729,33.581,can0  040  [04]  C0 00 0F 00
2026-07-11T14:35:04.505040,33.581,can0  040  [04]  C0 00 0F 00
2026-07-11T14:35:04.508869,33.585,can0  206  [24]  C6 0C AF 08 B7 0C 99 C6 AB 09 CF 0C CA 0C 00 00 00 00 00 00 00 00 00 00
2026-07-11T14:35:04.508976,33.585,can0  204  [16]  6E 23 00 00 00 00 AC 36 28 23 30 75 30 75 00 00
2026-07-11T14:35:04.610996,33.687,can0  070  [20]  CA 2C 4D 08 93 AE 62 03 88 13 00 00 23 15 00 00 34 00 00 00
2026-07-11T14:35:04.611306,33.687,can0  041  [04]  C4 00 09 00
2026-07-11T14:35:04.612253,33.688,can0  070  [20]  CA 2C 4D 08 93 AE 62 03 88 13 00 00 23 15 00 00 34 00 00 00
2026-07-11T14:35:04.612333,33.688,can0  204  [16]  6E 23 00 00 00 00 AC 36 28 23 30 75 30 75 00 00
2026-07-11T14:35:04.715225,33.791,can0  070  [20]  CA 2C 4D 08 93 AE 62 03 88 13 00 00 23 15 00 00 34 00 00 00
2026-07-11T14:35:04.717673,33.793,can0  206  [24]  C6 0C B0 08 B7 0C 99 C6 AB 09 CF 0C CA 0C 00 00 00 00 00 00 00 00 00 00
2026-07-11T14:35:04.717933,33.794,can0  040  [04]  B7 00 11 00
2026-07-11T14:35:04.718528,33.794,can0  204  [16]  6E 23 00 00 00 00 AC 36 28 23 30 75 30 75 00 00
2026-07-11T14:35:04.828889,33.905,can0  040  [04]  B7 00 11 00
2026-07-11T14:35:04.829001,33.905,can0  204  [16]  6E 23 00 00 00 00 AC 36 28 23 30 75 30 75 00 00
2026-07-11T14:35:04.926854,34.003,can0  041  [04]  C4 00 06 00
2026-07-11T14:35:04.926969,34.003,can0  206  [24]  C6 0C B0 08 BC 0C 99 C6 AB 09 CA 0C CA 0C 00 00 00 00 00 00 00 00 00 00
2026-07-11T14:35:04.927494,34.003,can0  204  [16]  6E 23 00 00 00 00 AC 36 28 23 30 75 30 75 00 00
2026-07-11T14:35:05.031473,34.107,can0  040  [04]  BB 00 10 00
2026-07-11T14:35:05.034637,34.110,can0  206  [24]  C0 0C B2 08 BC 0C 99 C6 AA 09 CA 0C D0 0C 00 00 00 00 00 00 00 00 00 00
2026-07-11T14:35:05.034730,34.111,can0  204  [16]  6E 23 00 00 00 00 AD 36 28 23 30 75 30 75 00 00
2026-07-11T14:35:05.034868,34.111,can0  040  [04]  BB 00 10 00
2026-07-11T14:35:05.140548,34.216,can0  070  [20]  CA 2C 4D 08 93 AE 62 03 88 13 00 00 23 15 00 00 34 00 00 00
2026-07-11T14:35:05.141191,34.217,can0  060  [32]  00 00 00 00 00 00 00 00 00 00 00 00 00 00 00 00 00 00 00 00 00 00 00 00 00 00 00 00 00 00 00 00
2026-07-11T14:35:05.141287,34.217,can0  133  [00]
2026-07-11T14:35:05.149347,34.225,can0  041  [04]  A7 00 0A 00
2026-07-11T14:35:05.149423,34.225,can0  204  [16]  6E 23 00 00 00 00 AD 36 28 23 30 75 30 75 00 00
2026-07-11T14:35:05.198265,34.274,can0  206  [24]  C0 0C B1 08 C1 0C 99 C6 AA 09 C5 0C D0 0C 00 00 00 00 00 00 00 00 00 00
2026-07-11T14:35:05.198890,34.275,can0  204  [16]  6E 23 00 00 00 00 AD 36 28 23 30 75 30 75 00 00
2026-07-11T14:35:05.302315,34.378,can0  040  [04]  BA 00 12 00
2026-07-11T14:35:05.303751,34.380,can0  040  [04]  BA 00 12 00
2026-07-11T14:35:05.304533,34.380,can0  204  [16]  6E 23 00 00 00 00 AD 36 28 23 30 75 30 75 00 00
2026-07-11T14:35:05.413325,34.489,can0  206  [24]  C0 0C B2 08 C6 0C 99 C6 AB 09 BB 0C D0 0C 00 00 00 00 00 00 00 00 00 00
2026-07-11T14:35:05.413530,34.489,can0  130  [00]
2026-07-11T14:35:05.413838,34.490,can0  100  [03]  8E 8E 04
2026-07-11T14:35:05.414131,34.490,can0  110  [02]  12 1B
2026-07-11T14:35:05.414359,34.490,can0  120  [04]  00 00 00 00
2026-07-11T14:35:05.414598,34.490,can0  041  [04]  A2 00 0F 00
2026-07-11T14:35:05.415432,34.491,can0  204  [16]  6E 23 00 00 00 00 AD 36 28 23 30 75 30 75 00 00
2026-07-11T14:35:05.524372,34.600,can0  206  [24]  BB 0C B2 08 CB 0C 99 C6 AC 09 BB 0C D0 0C 00 00 00 00 00 00 00 00 00 00
2026-07-11T14:35:05.524681,34.600,can0  040  [04]  B6 00 18 00
2026-07-11T14:35:05.532470,34.608,can0  204  [16]  6E 23 00 00 00 00 AD 36 28 23 30 75 30 75 00 00
2026-07-11T14:35:05.631193,34.707,can0  070  [20]  CA 2C 4D 08 93 AE 62 03 70 17 00 00 23 15 00 00 4A 00 00 00
2026-07-11T14:35:05.639227,34.715,can0  060  [32]  00 00 00 00 CA 2C 4D 08 E8 03 B8 10 00 00 10 0E FF 01 00 00 00 00 00 00 01 00 00 00 00 00 00 00
2026-07-11T14:35:05.639319,34.715,can0  040  [04]  B6 00 18 00
2026-07-11T14:35:05.639410,34.715,can0  204  [16]  6E 23 00 00 00 00 AD 36 28 23 30 75 30 75 00 00
2026-07-11T14:35:05.733250,34.809,can0  041  [04]  A8 00 0E 00
2026-07-11T14:35:05.733991,34.810,can0  070  [20]  CA 2C 4D 08 93 AE 62 03 70 17 00 00 23 15 00 00 4A 00 00 00
2026-07-11T14:35:05.736446,34.812,can0  206  [24]  C0 0C B2 08 C6 0C 99 C6 AC 09 BB 0C D0 0C 00 00 00 00 00 00 00 00 00 00
2026-07-11T14:35:05.736722,34.813,can0  070  [20]  CA 2C 4D 08 93 AE 62 03 70 17 00 00 23 15 00 00 4A 00 00 00
2026-07-11T14:35:05.745352,34.821,can0  204  [16]  6E 23 00 00 00 00 AD 36 28 23 30 75 30 75 00 00
2026-07-11T14:35:05.840216,34.916,can0  040  [04]  B3 00 1B 00
2026-07-11T14:35:05.841140,34.917,can0  204  [16]  6E 23 00 00 00 00 AD 36 28 23 30 75 30 75 00 00
2026-07-11T14:35:05.841403,34.917,can0  040  [04]  B3 00 1B 00
2026-07-11T14:35:05.950798,35.027,can0  206  [24]  C6 0C B2 08 C6 0C 99 C6 AD 09 BB 0C CA 0C 00 00 00 00 00 00 00 00 00 00
2026-07-11T14:35:05.951075,35.027,can0  041  [04]  B5 00 0F 00
2026-07-11T14:35:05.959550,35.035,can0  204  [16]  6E 23 00 00 00 00 AD 36 28 23 30 75 30 75 00 00
2026-07-11T14:35:06.011284,35.087,can0  206  [24]  BB 0C B3 08 CB 0C 99 C6 B2 09 BB 0C D0 0C 00 00 00 00 00 00 00 00 00 00
2026-07-11T14:35:06.019145,35.095,can0  204  [16]  6E 23 00 00 00 00 AD 36 28 23 30 75 30 75 00 00
2026-07-11T14:35:06.129331,35.205,can0  040  [04]  B1 00 1E 00
2026-07-11T14:35:06.129706,35.206,can0  070  [20]  CA 2C 4D 08 93 AE 62 03 70 17 00 00 23 15 00 00 4A 00 00 00
2026-07-11T14:35:06.129997,35.206,can0  060  [32]  00 00 00 00 00 00 00 00 00 00 00 00 00 00 00 00 00 00 00 00 00 00 00 00 00 00 00 00 00 00 00 00
2026-07-11T14:35:06.130259,35.206,can0  040  [04]  B1 00 1E 00
2026-07-11T14:35:06.130441,35.206,can0  060  [32]  90 B4 54 06 12 8A 4D 08 FC 2C 62 03 02 00 B7 0D 16 01 80 00 00 00 00 00 01 00 00 00 00 00 00 00
2026-07-11T14:35:06.142922,35.219,can0  204  [16]  6E 23 00 00 00 00 AD 36 28 23 30 75 30 75 00 00
2026-07-11T14:35:06.241546,35.317,can0  206  [24]  BB 0C B2 08 C6 0C 99 C6 B2 09 C5 0C D0 0C 00 00 00 00 00 00 00 00 00 00
2026-07-11T14:35:06.241859,35.318,can0  041  [04]  BC 00 0C 00
2026-07-11T14:35:06.242476,35.318,can0  204  [16]  6E 23 00 00 00 00 AD 36 28 23 30 75 30 75 00 00
2026-07-11T14:35:06.297830,35.374,can0  040  [04]  AE 00 1F 00
2026-07-11T14:35:06.297906,35.374,can0  204  [16]  6E 23 00 00 00 00 AD 36 28 23 30 75 30 75 00 00
2026-07-11T14:35:06.426451,35.502,can0  206  [24]  BB 0C B2 08 C6 0C 99 C6 B1 09 C5 0C D0 0C 00 00 00 00 00 00 00 00 00 00
2026-07-11T14:35:06.433534,35.509,can0  040  [04]  AE 00 1F 00
2026-07-11T14:35:06.537448,35.613,can0  204  [16]  6E 23 00 00 00 00 AD 36 28 23 30 75 30 75 00 00
2026-07-11T14:35:06.537518,35.613,can0  041  [04]  BE 00 0C 00
2026-07-11T14:35:06.537561,35.613,can0  206  [24]  BB 0C AE 08 C6 0C 99 C6 B1 09 C5 0C D0 0C 00 00 00 00 00 00 00 00 00 00
2026-07-11T14:35:06.546204,35.622,can0  204  [16]  6E 23 00 00 00 00 AD 36 28 23 30 75 30 75 00 00
2026-07-11T14:35:06.645360,35.721,can0  070  [20]  CC 2C 4D 08 93 AE 62 03 58 1B 00 00 23 15 00 00 34 00 00 00
2026-07-11T14:35:06.645707,35.722,can0  100  [03]  7F 8E 04
2026-07-11T14:35:06.646011,35.722,can0  120  [04]  00 00 00 00
2026-07-11T14:35:06.646306,35.722,can0  040  [04]  AE 00 1C 00
2026-07-11T14:35:06.646619,35.722,can0  070  [20]  CC 2C 4D 08 93 AE 62 03 58 1B 00 00 23 15 00 00 33 00 00 00
2026-07-11T14:35:06.646849,35.723,can0  040  [04]  AE 00 1C 00
2026-07-11T14:35:06.700438,35.776,can0  204  [16]  6E 23 00 00 00 00 AD 36 28 23 30 75 30 75 00 00
2026-07-11T14:35:06.700727,35.777,can0  070  [20]  CC 2C 4D 08 93 AE 62 03 58 1B 00 00 23 15 00 00 33 00 00 00
2026-07-11T14:35:06.703516,35.779,can0  206  [24]  C0 0C AE 08 BC 0C 99 C6 B1 09 D0 0C D0 0C 00 00 00 00 00 00 00 00 00 00
2026-07-11T14:35:06.703831,35.780,can0  041  [04]  C1 00 0C 00
2026-07-11T14:35:06.809087,35.885,can0  204  [16]  6E 23 00 00 00 00 AD 36 28 23 30 75 30 75 00 00
2026-07-11T14:35:06.811887,35.888,can0  206  [24]  C0 0C AD 08 BC 0C 99 C6 AC 09 D0 0C D0 0C 00 00 00 00 00 00 00 00 00 00
2026-07-11T14:35:06.917496,35.993,can0  204  [16]  6E 23 00 00 00 00 AD 36 28 23 30 75 30 75 00 00
2026-07-11T14:35:06.926131,36.002,can0  040  [04]  A8 00 1A 00
2026-07-11T14:35:06.926208,36.002,can0  040  [04]  A8 00 1A 00
2026-07-11T14:35:07.034135,36.110,can0  204  [16]  6E 23 00 00 00 00 AD 36 28 23 30 75 30 75 00 00
2026-07-11T14:35:07.034438,36.110,can0  110  [02]  12 1B
2026-07-11T14:35:07.034799,36.111,can0  041  [04]  BB 00 10 00
2026-07-11T14:35:07.037702,36.114,can0  206  [24]  C0 0C AD 08 CA 0C 99 C6 B9 09 C1 0C D0 0C 00 00 00 00 00 00 00 00 00 00
2026-07-11T14:35:07.147703,36.224,can0  204  [16]  6E 23 00 00 00 00 AD 36 28 23 30 75 30 75 00 00
2026-07-11T14:35:07.148403,36.224,can0  070  [20]  CC 2C 4D 08 93 AE 62 03 58 1B 00 00 23 15 00 00 33 00 00 00
2026-07-11T14:35:07.148698,36.225,can0  040  [04]  AB 00 1D 00
2026-07-11T14:35:07.204396,36.280,can0  204  [16]  6E 23 00 00 00 00 AD 36 28 23 30 75 30 75 00 00
2026-07-11T14:35:07.207343,36.283,can0  040  [04]  AB 00 1D 00
