Timestamp,Elapsed_Time_s,CAN_Message
2026-07-11T17:46:35.963372,2.674,can0  204  [16]  6E 23 1C D2 24 99 E9 F1 28 23 30 75 30 75 00 00
2026-07-11T17:46:36.060601,2.771,can0  070  [20]  9D 2C 4D 08 83 B1 62 03 88 90 00 00 2E 00 00 00 27 00 00 00
2026-07-11T17:46:36.060962,2.772,can0  040  [04]  04 00 1A 00
2026-07-11T17:46:36.061012,2.772,can0  204  [16]  6E 23 1C D2 24 99 E9 F1 28 23 30 75 30 75 00 00
2026-07-11T17:46:36.061239,2.772,can0  041  [04]  5A 01 13 00
2026-07-11T17:46:36.061687,2.772,can0  040  [04]  04 00 1A 00
2026-07-11T17:46:36.061732,2.772,can0  204  [16]  6E 23 1C D2 24 99 E9 F1 28 23 30 75 30 75 00 00
2026-07-11T17:46:36.161125,2.872,can0  204  [16]  6E 23 1C D2 24 99 E9 F1 28 23 30 75 30 75 00 00
2026-07-11T17:46:36.161426,2.872,can0  060  [32]  74 0C 7C 0C FE 83 4D 08 A2 3E 64 03 12 00 36 03 F7 00 95 00 00 00 00 00 02 00 00 00 00 00 00 00
2026-07-11T17:46:36.161615,2.872,can0  060  [32]  00 00 00 00 9D 2C 4D 08 D7 06 B8 10 00 00 10 0E FF 01 00 00 00 00 00 01 02 00 00 00 00 00 00 00
2026-07-11T17:46:36.165123,2.876,can0  204  [16]  6E 23 1C D2 24 99 E9 F1 28 23 30 75 30 75 00 00
2026-07-11T17:46:36.263828,2.975,can0  204  [16]  6E 23 1C D2 24 99 E9 F1 28 23 30 75 30 75 00 00
2026-07-11T17:46:36.263896,2.975,can0  070  [20]  9D 2C 4D 08 81 B1 62 03 70 94 00 00 2E 00 00 00 43 00 00 00
2026-07-11T17:46:36.263943,2.975,can0  070  [20]  9D 2C 4D 08 81 B1 62 03 70 94 00 00 2E 00 00 00 43 00 00 00
2026-07-11T17:46:36.263989,2.975,can0  040  [04]  04 00 1A 00
2026-07-11T17:46:36.264034,2.975,can0  204  [16]  6E 23 1C D2 24 99 E9 F1 28 23 30 75 30 75 00 00
2026-07-11T17:46:36.361161,3.072,can0  041  [04]  53 01 14 00
2026-07-11T17:46:36.361229,3.072,can0  040  [04]  04 00 1A 00
2026-07-11T17:46:36.361678,3.072,can0  204  [16]  6E 23 1C D2 24 99 E9 F1 28 23 30 75 30 75 00 00
2026-07-11T17:46:36.361726,3.072,can0  070  [20]  9D 2C 4D 08 81 B1 62 03 70 94 00 00 2E 00 00 00 43 00 00 00
2026-07-11T17:46:36.361979,3.073,can0  204  [16]  6E 23 1C D2 24 99 E9 F1 28 23 30 75 30 75 00 00
2026-07-11T17:46:36.463764,3.175,can0  204  [16]  6E 23 1C D2 24 99 E9 F1 28 23 30 75 30 75 00 00
2026-07-11T17:46:36.463836,3.175,can0  204  [16]  6E 23 1C D2 24 99 E9 F1 28 23 30 75 30 75 00 00
2026-07-11T17:46:36.560688,3.271,can0  204  [16]  6E 23 1C D2 24 99 E9 F1 28 23 30 75 30 75 00 00
2026-07-11T17:46:36.560756,3.272,can0  040  [04]  02 00 18 00
2026-07-11T17:46:36.564408,3.275,can0  041  [04]  52 01 16 00
2026-07-11T17:46:36.564467,3.275,can0  110  [02]  30 1B
2026-07-11T17:46:36.564509,3.275,can0  204  [16]  6E 23 1C D2 24 99 E9 F1 28 23 30 75 30 75 00 00
2026-07-11T17:46:36.564554,3.275,can0  040  [04]  02 00 18 00
2026-07-11T17:46:36.660317,3.371,can0  204  [16]  6E 23 1C D2 24 99 E9 F1 28 23 30 75 30 75 00 00
2026-07-11T17:46:36.660561,3.371,can0  060  [32]  D7 93 D6 02 60 E5 4D 08 DF 6F 62 03 46 01 97 0A 0E 01 80 00 00 00 00 00 01 00 00 00 00 00 00 00
2026-07-11T17:46:36.664676,3.375,can0  204  [16]  6E 23 1C D2 24 99 E9 F1 28 23 30 75 30 75 00 00
2026-07-11T17:46:36.763852,3.475,can0  204  [16]  6E 23 1C D2 24 99 E9 F1 28 23 30 75 30 75 00 00
2026-07-11T17:46:36.860746,3.571,can0  204  [16]  6E 23 1C D2 24 99 E9 F1 28 23 30 75 30 75 00 00
2026-07-11T17:46:36.861132,3.572,can0  040  [04]  64 01 17 00
2026-07-11T17:46:36.861181,3.572,can0  041  [04]  5B 01 15 00
2026-07-11T17:46:36.861387,3.572,can0  204  [16]  6E 23 1C D2 24 99 E9 F1 28 23 30 75 30 75 00 00
2026-07-11T17:46:36.861541,3.572,can0  040  [04]  64 01 17 00
2026-07-11T17:46:36.861724,3.572,can0  070  [20]  9D 2C 4D 08 81 B1 62 03 70 94 00 00 2E 00 00 00 43 00 00 00
2026-07-11T17:46:36.861928,3.573,can0  204  [16]  6E 23 1C D2 24 99 E9 F1 28 23 30 75 30 75 00 00
2026-07-11T17:46:36.960594,3.671,can0  204  [16]  6E 23 1C D2 24 99 E9 F1 28 23 30 75 30 75 00 00
2026-07-11T17:46:36.960841,3.672,can0  070  [20]  9D 2C 4D 08 81 B1 62 03 70 94 00 00 2E 00 00 00 43 00 00 00
2026-07-11T17:46:36.961204,3.672,can0  100  [03]  30 7F 04
2026-07-11T17:46:36.961250,3.672,can0  120  [04]  00 00 00 00
2026-07-11T17:46:36.961497,3.672,can0  204  [16]  6E 23 1C D2 24 99 E9 F1 28 23 30 75 30 75 00 00
2026-07-11T17:46:37.061047,3.772,can0  204  [16]  6E 23 1C D2 24 99 E9 F1 28 23 30 75 30 75 00 00
2026-07-11T17:46:37.061335,3.772,can0  040  [04]  61 01 18 00
2026-07-11T17:46:37.065937,3.777,can0  204  [16]  6E 23 1C D2 24 99 E9 F1 28 23 30 75 30 75 00 00
2026-07-11T17:46:37.160635,3.871,can0  041  [04]  5B 01 15 00
2026-07-11T17:46:37.160881,3.872,can0  060  [32]  00 00 00 00 00 00 00 00 00 00 00 00 00 00 00 00 00 00 00 00 00 00 00 00 00 00 00 00 00 00 00 00
2026-07-11T17:46:37.161055,3.872,can0  040  [04]  61 01 18 00
2026-07-11T17:46:37.161340,3.872,can0  204  [16]  6E 23 1C D2 24 99 E9 F1 28 23 30 75 30 75 00 00
2026-07-11T17:46:37.161611,3.872,can0  060  [32]  00 00 00 00 9D 2C 4D 08 D6 06 B8 10 00 00 10 0E FF 01 00 00 00 00 00 00 01 00 00 00 00 00 00 00
2026-07-11T17:46:37.260173,3.971,can0  204  [16]  6E 23 1C D2 24 99 E9 F1 28 23 30 75 30 75 00 00
2026-07-11T17:46:37.260945,3.972,can0  204  [16]  6E 23 1C D2 24 99 E9 F1 28 23 30 75 30 75 00 00
2026-07-11T17:46:37.260995,3.972,can0  070  [20]  9D 2C 4D 08 81 B1 62 03 58 98 00 00 2E 00 00 00 2C 00 00 00
2026-07-11T17:46:37.261216,3.972,can0  070  [20]  9D 2C 4D 08 81 B1 62 03 58 98 00 00 2E 00 00 00 2C 00 00 00
2026-07-11T17:46:37.360572,4.071,can0  204  [16]  6E 23 1C D2 24 99 E9 F1 28 23 30 75 30 75 00 00
2026-07-11T17:46:37.360941,4.072,can0  204  [16]  6E 23 1C D2 24 99 E9 F1 28 23 30 75 30 75 00 00
2026-07-11T17:46:37.364956,4.076,can0  040  [04]  5A 01 18 00
2026-07-11T17:46:37.365018,4.076,can0  041  [04]  5E 01 15 00
2026-07-11T17:46:37.365061,4.076,can0  070  [20]  9D 2C 4D 08 81 B1 62 03 58 98 00 00 2E 00 00 00 2C 00 00 00
2026-07-11T17:46:37.460906,4.172,can0  204  [16]  6E 23 1C D2 24 99 E9 F1 28 23 30 75 30 75 00 00
2026-07-11T17:46:37.461183,4.172,can0  040  [04]  5A 01 18 00
2026-07-11T17:46:37.465068,4.176,can0  204  [16]  6E 23 1C D2 24 99 E9 F1 28 23 30 75 30 75 00 00
2026-07-11T17:46:37.563409,4.274,can0  204  [16]  6E 23 1C D2 24 99 E9 F1 28 23 30 75 30 75 00 00
2026-07-11T17:46:37.563476,4.274,can0  204  [16]  6E 23 1C D2 24 99 E9 F1 28 23 30 75 30 75 00 00
2026-07-11T17:46:37.660205,4.371,can0  204  [16]  6E 23 1C D2 24 99 E9 F1 28 23 30 75 30 75 00 00
2026-07-11T17:46:37.660742,4.371,can0  040  [04]  58 01 14 00
2026-07-11T17:46:37.660792,4.372,can0  041  [04]  60 01 12 00
2026-07-11T17:46:37.660834,4.372,can0  204  [16]  6E 23 1C D2 24 99 E9 F1 28 23 30 75 30 75 00 00
2026-07-11T17:46:37.660988,4.372,can0  060  [32]  00 00 00 00 00 00 00 00 00 00 00 00 00 00 00 00 00 00 00 00 00 00 00 00 00 00 00 00 00 00 00 00
2026-07-11T17:46:37.661230,4.372,can0  040  [04]  58 01 14 00
2026-07-11T17:46:37.760537,4.471,can0  204  [16]  6E 23 1C D2 24 99 E9 F1 28 23 30 75 30 75 00 00
2026-07-11T17:46:37.763474,4.474,can0  204  [16]  6E 23 1C D2 24 99 E9 F1 28 23 30 75 30 75 00 00
2026-07-11T17:46:37.860459,4.571,can0  204  [16]  6E 23 1C D2 24 99 E9 F1 28 23 30 75 30 75 00 00
2026-07-11T17:46:37.860714,4.571,can0  204  [16]  6E 23 1C D2 24 99 E9 F1 28 23 30 75 30 75 00 00
2026-07-11T17:46:37.864697,4.575,can0  070  [20]  9D 2C 4D 08 81 B1 62 03 58 98 00 00 2E 00 00 00 2C 00 00 00
2026-07-11T17:46:37.864795,4.576,can0  040  [04]  4F 01 0F 00
2026-07-11T17:46:37.961173,4.672,can0  204  [16]  6E 23 1C D2 24 99 E9 F1 28 23 30 75 30 75 00 00
2026-07-11T17:46:37.961395,4.672,can0  041  [04]  56 01 0F 00
2026-07-11T17:46:37.961639,4.672,can0  040  [04]  4F 01 0F 00
2026-07-11T17:46:37.961876,4.673,can0  204  [16]  6E 23 1C D2 24 99 E9 F1 28 23 30 75 30 75 00 00
2026-07-11T17:46:38.061048,4.772,can0  070  [20]  9D 2C 4D 08 81 B1 62 03 58 98 00 00 2E 00 00 00 2C 00 00 00
2026-07-11T17:46:38.061114,4.772,can0  204  [16]  6E 23 1C D2 24 99 E9 F1 28 23 30 75 30 75 00 00
2026-07-11T17:46:38.061286,4.772,can0  204  [16]  6E 23 1C D2 24 99 E9 F1 28 23 30 75 30 75 00 00
2026-07-11T17:46:38.160716,4.871,can0  204  [16]  6E 23 1C D2 24 99 E9 F1 28 23 30 75 30 75 00 00
2026-07-11T17:46:38.160996,4.872,can0  040  [04]  54 01 0C 00
2026-07-11T17:46:38.161671,4.872,can0  204  [16]  6E 23 1C D2 24 99 E9 F1 28 23 30 75 30 75 00 00
2026-07-11T17:46:38.161736,4.872,can0  060  [32]  00 00 00 00 9D 2C 4D 08 D6 06 B8 10 00 00 10 0E FF 01 00 00 00 00 00 00 01 00 00 00 00 00 00 00
2026-07-11T17:46:38.161787,4.873,can0  041  [04]  45 01 0F 00
2026-07-11T17:46:38.161936,4.873,can0  100  [03]  34 7F 04
2026-07-11T17:46:38.162423,4.873,can0  110  [02]  30 1B
2026-07-11T17:46:38.162465,4.873,can0  120  [04]  00 00 00 00
2026-07-11T17:46:38.162503,4.873,can0  040  [04]  54 01 0C 00
2026-07-11T17:46:38.261067,4.972,can0  204  [16]  6E 23 1C D2 24 99 E9 F1 28 23 30 75 30 75 00 00
2026-07-11T17:46:38.261318,4.972,can0  204  [16]  6E 23 1C D2 24 99 E9 F1 28 23 30 75 30 75 00 00
2026-07-11T17:46:38.261855,4.973,can0  070  [20]  9D 2C 4D 08 81 B1 62 03 40 9C 00 00 2E 00 00 00 50 00 00 00
2026-07-11T17:46:38.262094,4.973,can0  070  [20]  9D 2C 4D 08 81 B1 62 03 40 9C 00 00 2E 00 00 00 4F 00 00 00
2026-07-11T17:46:38.360571,5.071,can0  204  [16]  6E 23 1C D2 24 99 E9 F1 28 23 30 75 30 75 00 00
2026-07-11T17:46:38.360851,5.072,can0  204  [16]  6E 23 1C D2 24 99 E9 F1 28 23 30 75 30 75 00 00
2026-07-11T17:46:38.361081,5.072,can0  070  [20]  9D 2C 4D 08 81 B1 62 03 40 9C 00 00 2E 00 00 00 4F 00 00 00
2026-07-11T17:46:38.460391,5.171,can0  040  [04]  52 01 0C 00
2026-07-11T17:46:38.460643,5.171,can0  204  [16]  6E 23 1C D2 24 99 E9 F1 28 23 30 75 30 75 00 00
2026-07-11T17:46:38.460875,5.172,can0  041  [04]  30 01 0E 00
2026-07-11T17:46:38.461123,5.172,can0  040  [04]  52 01 0C 00
2026-07-11T17:46:38.461446,5.172,can0  204  [16]  6E 23 1C D2 24 99 E9 F1 28 23 30 75 30 75 00 00
2026-07-11T17:46:38.561199,5.272,can0  204  [16]  6E 23 1C D2 24 99 E9 F1 28 23 30 75 30 75 00 00
2026-07-11T17:46:38.564975,5.276,can0  204  [16]  6E 23 1C D2 24 99 E9 F1 28 23 30 75 30 75 00 00
2026-07-11T17:46:38.660220,5.371,can0  204  [16]  6E 23 1C D2 24 99 E9 F1 28 23 30 75 30 75 00 00
2026-07-11T17:46:38.660718,5.371,can0  204  [16]  6E 23 1C D2 24 99 E9 F1 28 23 30 75 30 75 00 00
2026-07-11T17:46:38.660769,5.372,can0  040  [04]  53 01 0E 00
2026-07-11T17:46:38.760537,5.471,can0  041  [04]  2D 01 0E 00
2026-07-11T17:46:38.760881,5.472,can0  204  [16]  6E 23 1C D2 24 99 E9 F1 28 23 30 75 30 75 00 00
2026-07-11T17:46:38.764307,5.475,can0  040  [04]  53 01 0E 00
2026-07-11T17:46:38.764361,5.475,can0  204  [16]  6E 23 1C D2 24 99 E9 F1 28 23 30 75 30 75 00 00
2026-07-11T17:46:38.860359,5.571,can0  204  [16]  6E 23 1C D2 24 99 E9 F1 28 23 30 75 30 75 00 00
2026-07-11T17:46:38.860672,5.571,can0  204  [16]  6E 23 1C D2 24 99 E9 F1 28 23 30 75 30 75 00 00
2026-07-11T17:46:38.864408,5.575,can0  070  [20]  9D 2C 4D 08 81 B1 62 03 40 9C 00 00 2E 00 00 00 4F 00 00 00
2026-07-11T17:46:38.960710,5.671,can0  204  [16]  6E 23 1C D2 24 99 E9 F1 28 23 30 75 30 75 00 00
2026-07-11T17:46:38.960778,5.672,can0  040  [04]  56 01 12 00
2026-07-11T17:46:38.960822,5.672,can0  204  [16]  6E 23 1C D2 24 99 E9 F1 28 23 30 75 30 75 00 00
2026-07-11T17:46:38.961005,5.672,can0  041  [04]  37 01 0D 00
2026-07-11T17:46:38.961300,5.672,can0  070  [20]  9D 2C 4D 08 81 B1 62 03 40 9C 00 00 2E 00 00 00 4F 00 00 00
2026-07-11T17:46:39.060382,5.771,can0  040  [04]  56 01 12 00
2026-07-11T17:46:39.060688,5.771,can0  204  [16]  6E 23 1C D2 24 99 E9 F1 28 23 30 75 30 75 00 00
2026-07-11T17:46:39.064368,5.775,can0  204  [16]  6E 23 1C D2 24 99 E9 F1 28 23 30 75 30 75 00 00
2026-07-11T17:46:39.160207,5.871,can0  204  [16]  6E 23 1C D2 24 99 E9 F1 28 23 30 75 30 75 00 00
2026-07-11T17:46:39.160693,5.871,can0  204  [16]  6E 23 1C D2 24 99 E9 F1 28 23 30 75 30 75 00 00
2026-07-11T17:46:39.160747,5.871,can0  060  [32]  73 ED D5 02 AB B9 4D 08 54 1E 64 03 00 00 A5 07 FF 01 00 00 00 00 00 00 02 00 00 00 00 00 00 00
2026-07-11T17:46:39.160998,5.872,can0  060  [32]  00 00 00 00 9D 2C 4D 08 D6 06 B8 10 00 00 10 0E FF 01 00 00 00 00 00 01 02 00 00 00 00 00 00 00
2026-07-11T17:46:39.260310,5.971,can0  040  [04]  5B 01 13 00
2026-07-11T17:46:39.260612,5.971,can0  204  [16]  6E 23 1C D2 24 99 E9 F1 28 23 30 75 30 75 00 00
2026-07-11T17:46:39.261172,5.972,can0  041  [04]  3F 01 0D 00
2026-07-11T17:46:39.261245,5.972,can0  070  [20]  9D 2C 4D 08 83 B1 62 03 28 A0 00 00 2E 00 00 00 3F 00 00 00
2026-07-11T17:46:39.261306,5.972,can0  040  [04]  5B 01 13 00
2026-07-11T17:46:39.261387,5.972,can0  204  [16]  6E 23 1C D2 24 99 E9 F1 28 23 30 75 30 75 00 00
2026-07-11T17:46:39.360449,6.071,can0  070  [20]  9D 2C 4D 08 83 B1 62 03 28 A0 00 00 2E 00 00 00 3F 00 00 00
2026-07-11T17:46:39.360693,6.071,can0  204  [16]  6E 23 1C D2 24 99 E9 F1 28 23 30 75 30 75 00 00
2026-07-11T17:46:39.361084,6.072,can0  204  [16]  6E 23 1C D2 24 99 E9 F1 28 23 30 75 30 75 00 00
2026-07-11T17:46:39.361168,6.072,can0  100  [03]  39 7F 04
2026-07-11T17:46:39.361338,6.072,can0  120  [04]  00 00 00 00
2026-07-11T17:46:39.361529,6.072,can0  070  [20]  9D 2C 4D 08 83 B1 62 03 28 A0 00 00 2E 00 00 00 3F 00 00 00
2026-07-11T17:46:39.468154,6.179,can0  204  [16]  6E 23 1C D2 24 99 E9 F1 28 23 30 75 30 75 00 00
2026-07-11T17:46:39.468232,6.179,can0  040  [04]  5F 01 13 00
2026-07-11T17:46:39.468275,6.179,can0  204  [16]  6E 23 1C D2 24 99 E9 F1 28 23 30 75 30 75 00 00
2026-07-11T17:46:39.561158,6.272,can0  041  [04]  49 01 0E 00
2026-07-11T17:46:39.561605,6.272,can0  040  [04]  5F 01 13 00
2026-07-11T17:46:39.561663,6.272,can0  204  [16]  6E 23 1C D2 24 99 E9 F1 28 23 30 75 30 75 00 00
2026-07-11T17:46:39.565477,6.276,can0  204  [16]  6E 23 1C D2 24 99 E9 F1 28 23 30 75 30 75 00 00
2026-07-11T17:46:39.664738,6.375,can0  204  [16]  6E 23 1C D2 24 99 E9 F1 28 23 30 75 30 75 00 00
2026-07-11T17:46:39.664805,6.376,can0  204  [16]  6E 23 1C D2 24 99 E9 F1 28 23 30 75 30 75 00 00
2026-07-11T17:46:39.664849,6.376,can0  060  [32]  00 00 00 00 00 00 00 00 00 00 00 00 00 00 00 00 00 00 00 00 00 00 00 00 00 00 00 00 00 00 00 00
2026-07-11T17:46:39.761708,6.472,can0  204  [16]  6E 23 1C D2 24 99 E9 F1 28 23 30 75 30 75 00 00
2026-07-11T17:46:39.761774,6.473,can0  040  [04]  63 01 14 00
2026-07-11T17:46:39.765588,6.476,can0  041  [04]  56 01 0F 00
2026-07-11T17:46:39.765643,6.476,can0  204  [16]  6E 23 1C D2 24 99 E9 F1 28 23 30 75 30 75 00 00
2026-07-11T17:46:39.765708,6.476,can0  110  [02]  31 1B
2026-07-11T17:46:39.861074,6.572,can0  040  [04]  63 01 14 00
2026-07-11T17:46:39.861742,6.572,can0  204  [16]  6E 23 1C D2 24 99 E9 F1 28 23 30 75 30 75 00 00
2026-07-11T17:46:39.861794,6.573,can0  070  [20]  9D 2C 4D 08 83 B1 62 03 28 A0 00 00 2E 00 00 00 3F 00 00 00
2026-07-11T17:46:39.861836,6.573,can0  204  [16]  6E 23 1C D2 24 99 E9 F1 28 23 30 75 30 75 00 00
2026-07-11T17:46:39.960585,6.671,can0  204  [16]  6E 23 1C D2 24 99 E9 F1 28 23 30 75 30 75 00 00
2026-07-11T17:46:39.961008,6.672,can0  060  [32]  67 99 D6 02 BC 82 4D 08 E4 44 64 03 14 00 BB 04 54 01 FF 00 00 00 00 00 01 00 00 00 00 00 00 00
2026-07-11T17:46:39.961327,6.672,can0  204  [16]  6E 23 1C D2 24 99 E9 F1 28 23 30 75 30 75 00 00
2026-07-11T17:46:39.961535,6.672,can0  070  [20]  9D 2C 4D 08 83 B1 62 03 28 A0 00 00 2E 00 00 00 3F 00 00 00
2026-07-11T17:46:39.961771,6.673,can0  040  [04]  64 01 16 00
2026-07-11T17:46:40.060743,6.771,can0  204  [16]  6E 23 1C D2 24 99 E9 F1 28 23 30 75 30 75 00 00
2026-07-11T17:46:40.060970,6.772,can0  041  [04]  54 01 11 00
2026-07-11T17:46:40.061198,6.772,can0  040  [04]  64 01 16 00
2026-07-11T17:46:40.061491,6.772,can0  204  [16]  6E 23 1C D2 24 99 E9 F1 28 23 30 75 30 75 00 00
2026-07-11T17:46:40.160239,6.871,can0  204  [16]  6E 23 1C D2 24 99 E9 F1 28 23 30 75 30 75 00 00
2026-07-11T17:46:40.161266,6.872,can0  204  [16]  6E 23 1C D2 24 99 E9 F1 28 23 30 75 30 75 00 00
2026-07-11T17:46:40.260573,6.971,can0  204  [16]  6E 23 1C D2 24 99 E9 F1 28 23 30 75 30 75 00 00
2026-07-11T17:46:40.260642,6.971,can0  070  [20]  9D 2C 4D 08 83 B1 62 03 10 A4 00 00 2E 00 00 00 43 00 00 00
2026-07-11T17:46:40.261216,6.972,can0  040  [04]  63 01 13 00
2026-07-11T17:46:40.261262,6.972,can0  204  [16]  6E 23 1C D2 24 99 E9 F1 28 23 30 75 30 75 00 00
2026-07-11T17:46:40.261308,6.972,can0  070  [20]  9D 2C 4D 08 83 B1 62 03 10 A4 00 00 2E 00 00 00 44 00 00 00
2026-07-11T17:46:40.261499,6.972,can0  041  [04]  54 01 0E 00
2026-07-11T17:46:40.360961,7.072,can0  040  [04]  63 01 13 00
2026-07-11T17:46:40.361226,7.072,can0  204  [16]  6E 23 1C D2 24 99 E9 F1 28 23 30 75 30 75 00 00
2026-07-11T17:46:40.361953,7.073,can0  070  [20]  9D 2C 4D 08 83 B1 62 03 10 A4 00 00 2E 00 00 00 44 00 00 00
2026-07-11T17:46:40.362000,7.073,can0  204  [16]  6E 23 1C D2 24 99 E9 F1 28 23 30 75 30 75 00 00
2026-07-11T17:46:40.460499,7.171,can0  204  [16]  6E 23 1C D2 24 99 E9 F1 28 23 30 75 30 75 00 00
2026-07-11T17:46:40.460565,7.171,can0  132  [00]
2026-07-11T17:46:40.464589,7.175,can0  204  [16]  6E 23 1C D2 24 99 E9 F1 28 23 30 75 30 75 00 00
2026-07-11T17:46:40.560360,7.271,can0  204  [16]  6E 23 1C D2 24 99 E9 F1 28 23 30 75 30 75 00 00
2026-07-11T17:46:40.560428,7.271,can0  040  [04]  63 01 13 00
2026-07-11T17:46:40.560596,7.271,can0  041  [04]  54 01 0C 00
2026-07-11T17:46:40.560917,7.272,can0  100  [03]  41 7F 04
2026-07-11T17:46:40.560966,7.272,can0  120  [04]  00 00 00 00
2026-07-11T17:46:40.561231,7.272,can0  204  [16]  6E 23 1C D2 24 99 E9 F1 28 23 30 75 30 75 00 00
2026-07-11T17:46:40.561470,7.272,can0  040  [04]  63 01 13 00
2026-07-11T17:46:40.661075,7.372,can0  204  [16]  6E 23 1C D2 24 99 E9 F1 28 23 30 75 30 75 00 00
2026-07-11T17:46:40.661313,7.372,can0  060  [32]  00 00 00 00 9D 2C 4D 08 D7 06 B8 10 00 00 10 0E FF 01 00 00 00 00 00 00 03 00 00 00 00 00 00 00
2026-07-11T17:46:40.661528,7.372,can0  060  [32]  84 18 D6 02 79 B6 4D 08 87 1F 64 03 00 00 3F 04 66 01 80 00 00 00 00 01 03 00 00 00 00 00 00 00
2026-07-11T17:46:40.661747,7.372,can0  060  [32]  D7 93 D6 02 66 E5 4D 08 2A 6D 62 03 46 01 96 0A 0E 01 80 00 00 00 00 02 03 00 00 00 00 00 00 00
2026-07-11T17:46:40.662389,7.373,can0  204  [16]  6E 23 1C D2 24 99 E9 F1 28 23 30 75 30 75 00 00
2026-07-11T17:46:40.760174,7.471,can0  204  [16]  6E 23 1C D2 24 99 E9 F1 28 23 30 75 30 75 00 00
2026-07-11T17:46:40.760423,7.471,can0  204  [16]  6E 23 1C D2 24 99 E9 F1 28 23 30 75 30 75 00 00
2026-07-11T17:46:40.860779,7.572,can0  040  [04]  63 01 14 00
2026-07-11T17:46:40.860995,7.572,can0  041  [04]  4A 01 08 00
2026-07-11T17:46:40.861244,7.572,can0  204  [16]  6E 23 1C D2 24 99 E9 F1 28 23 30 75 30 75 00 00
2026-07-11T17:46:40.861491,7.572,can0  040  [04]  63 01 14 00
2026-07-11T17:46:40.861777,7.573,can0  070  [20]  9D 2C 4D 08 83 B1 62 03 10 A4 00 00 2E 00 00 00 44 00 00 00
2026-07-11T17:46:40.862084,7.573,can0  204  [16]  6E 23 1C D2 24 99 E9 F1 28 23 30 75 30 75 00 00
2026-07-11T17:46:40.960368,7.671,can0  204  [16]  6E 23 1C D2 24 99 E9 F1 28 23 30 75 30 75 00 00
2026-07-11T17:46:40.960596,7.671,can0  070  [20]  9D 2C 4D 08 83 B1 62 03 10 A4 00 00 2E 00 00 00 44 00 00 00
2026-07-11T17:46:40.960869,7.672,can0  204  [16]  6E 23 1C D2 24 99 E9 F1 28 23 30 75 30 75 00 00
2026-07-11T17:46:41.060434,7.771,can0  204  [16]  6E 23 1C D2 24 99 E9 F1 28 23 30 75 30 75 00 00
2026-07-11T17:46:41.060712,7.771,can0  040  [04]  5D 01 15 00
2026-07-11T17:46:41.060959,7.772,can0  204  [16]  6E 23 1C D2 24 99 E9 F1 28 23 30 75 30 75 00 00
2026-07-11T17:46:41.061172,7.772,can0  041  [04]  47 01 06 00
2026-07-11T17:46:41.160647,7.871,can0  040  [04]  5D 01 15 00
2026-07-11T17:46:41.160907,7.872,can0  204  [16]  6E 23 1C D2 24 99 E9 F1 28 23 30 75 30 75 00 00
2026-07-11T17:46:41.161154,7.872,can0  204  [16]  6E 23 1C D2 24 99 E9 F1 28 23 30 75 30 75 00 00
2026-07-11T17:46:41.260437,7.971,can0  060  [32]  6E DE D5 02 CA 6A 4D 08 57 DC 64 03 00 00 95 0C 39 00 80 00 00 00 00 00 02 00 00 00 00 00 00 00
2026-07-11T17:46:41.260635,7.971,can0  060  [32]  00 00 00 00 9D 2C 4D 08 D7 06 B8 10 00 00 10 0E FF 01 00 00 00 00 00 01 02 00 00 00 00 00 00 00
2026-07-11T17:46:41.261130,7.972,can0  204  [16]  6E 23 1C D2 24 99 E9 F1 28 23 30 75 30 75 00 00
2026-07-11T17:46:41.261386,7.972,can0  070  [20]  9C 2C 4D 08 83 B1 62 03 F8 A7 00 00 2E 00 00 00 2C 00 00 00
2026-07-11T17:46:41.261665,7.972,can0  070  [20]  9C 2C 4D 08 83 B1 62 03 F8 A7 00 00 2E 00 00 00 2D 00 00 00
2026-07-11T17:46:41.261983,7.973,can0  204  [16]  6E 23 1C D2 24 99 E9 F1 28 23 30 75 30 75 00 00
2026-07-11T17:46:41.360256,8.071,can0  040  [04]  61 01 18 00
2026-07-11T17:46:41.360513,8.071,can0  204  [16]  6E 23 1C D2 24 99 E9 F1 28 23 30 75 30 75 00 00
2026-07-11T17:46:41.360763,8.072,can0  041  [04]  24 01 07 00
2026-07-11T17:46:41.360955,8.072,can0  110  [02]  31 1B
2026-07-11T17:46:41.361263,8.072,can0  070  [20]  9C 2C 4D 08 83 B1 62 03 F8 A7 00 00 2E 00 00 00 2D 00 00 00
2026-07-11T17:46:41.361531,8.072,can0  204  [16]  6E 23 1C D2 24 99 E9 F1 28 23 30 75 30 75 00 00
2026-07-11T17:46:41.460480,8.171,can0  040  [04]  61 01 18 00
2026-07-11T17:46:41.460728,8.171,can0  204  [16]  6E 23 1C D2 24 99 E9 F1 28 23 30 75 30 75 00 00
2026-07-11T17:46:41.464948,8.176,can0  204  [16]  6E 23 1C D2 24 99 E9 F1 28 23 30 75 30 75 00 00
2026-07-11T17:46:41.561155,8.272,can0  204  [16]  6E 23 1C D2 24 99 E9 F1 28 23 30 75 30 75 00 00
2026-07-11T17:46:41.561717,8.272,can0  040  [04]  64 01 18 00
2026-07-11T17:46:41.561802,8.273,can0  204  [16]  6E 23 1C D2 24 99 E9 F1 28 23 30 75 30 75 00 00
2026-07-11T17:46:41.660206,8.371,can0  041  [04]  32 01 04 00
2026-07-11T17:46:41.660464,8.371,can0  204  [16]  6E 23 1C D2 24 99 E9 F1 28 23 30 75 30 75 00 00
2026-07-11T17:46:41.660733,8.371,can0  040  [04]  64 01 18 00
2026-07-11T17:46:41.660974,8.372,can0  204  [16]  6E 23 1C D2 24 99 E9 F1 28 23 30 75 30 75 00 00
2026-07-11T17:46:41.761141,8.472,can0  060  [32]  00 00 00 00 00 00 00 00 00 00 00 00 00 00 00 00 00 00 00 00 00 00 00 00 00 00 00 00 00 00 00 00
2026-07-11T17:46:41.761542,8.472,can0  204  [16]  6E 23 1C D2 24 99 E9 F1 28 23 30 75 30 75 00 00
2026-07-11T17:46:41.761795,8.473,can0  100  [03]  49 7F 04
2026-07-11T17:46:41.762012,8.473,can0  120  [04]  00 00 00 00
2026-07-11T17:46:41.762306,8.473,can0  204  [16]  6E 23 1C D2 24 99 E9 F1 28 23 30 75 30 75 00 00
2026-07-11T17:46:41.861324,8.572,can0  204  [16]  6E 23 1C D2 24 99 E9 F1 28 23 30 75 30 75 00 00
2026-07-11T17:46:41.861394,8.572,can0  070  [20]  9C 2C 4D 08 83 B1 62 03 F8 A7 00 00 2E 00 00 00 2D 00 00 00
2026-07-11T17:46:41.861949,8.573,can0  040  [04]  67 01 16 00
2026-07-11T17:46:41.861997,8.573,can0  041  [04]  4D 01 07 00
2026-07-11T17:46:41.862042,8.573,can0  204  [16]  6E 23 1C D2 24 99 E9 F1 28 23 30 75 30 75 00 00
2026-07-11T17:46:41.961115,8.672,can0  040  [04]  67 01 16 00
2026-07-11T17:46:41.961452,8.672,can0  204  [16]  6E 23 1C D2 24 99 E9 F1 28 23 30 75 30 75 00 00
2026-07-11T17:46:41.965602,8.676,can0  070  [20]  9C 2C 4D 08 83 B1 62 03 F8 A7 00 00 2E 00 00 00 2D 00 00 00
2026-07-11T17:46:41.965704,8.676,can0  204  [16]  6E 23 1C D2 24 99 E9 F1 28 23 30 75 30 75 00 00
2026-07-11T17:46:42.064697,8.775,can0  204  [16]  6E 23 1C D2 24 99 E9 F1 28 23 30 75 30 75 00 00
2026-07-11T17:46:42.064792,8.776,can0  204  [16]  6E 23 1C D2 24 99 E9 F1 28 23 30 75 30 75 00 00
2026-07-11T17:46:42.161534,8.872,can0  040  [04]  67 01 13 00
2026-07-11T17:46:42.161631,8.872,can0  204  [16]  6E 23 1C D2 24 99 E9 F1 28 23 30 75 30 75 00 00
2026-07-11T17:46:42.161736,8.872,can0  041  [04]  02 00 08 00
2026-07-11T17:46:42.161832,8.873,can0  040  [04]  67 01 13 00
2026-07-11T17:46:42.164809,8.876,can0  204  [16]  6E 23 1C D2 24 99 E9 F1 28 23 30 75 30 75 00 00
2026-07-11T17:46:42.260392,8.971,can0  060  [32]  00 00 00 00 00 00 00 00 00 00 00 00 00 00 00 00 00 00 00 00 00 00 00 00 00 00 00 00 00 00 00 00
2026-07-11T17:46:42.260545,8.971,can0  060  [32]  00 00 00 00 9C 2C 4D 08 D7 06 B8 10 00 00 10 0E FF 01 00 00 00 00 00 00 01 00 00 00 00 00 00 00
2026-07-11T17:46:42.264977,8.976,can0  204  [16]  6E 23 1C D2 24 99 E9 F1 28 23 30 75 30 75 00 00
2026-07-11T17:46:42.265068,8.976,can0  070  [20]  9C 2C 4D 08 84 B1 62 03 E0 AB 00 00 2E 00 00 00 36 00 00 00
2026-07-11T17:46:42.265156,8.976,can0  070  [20]  9C 2C 4D 08 84 B1 62 03 E0 AB 00 00 2E 00 00 00 36 00 00 00
2026-07-11T17:46:42.360648,9.071,can0  204  [16]  6E 23 1C D2 24 99 E9 F1 28 23 30 75 30 75 00 00
2026-07-11T17:46:42.361011,9.072,can0  204  [16]  6E 23 1C D2 24 99 E9 F1 28 23 30 75 30 75 00 00
2026-07-11T17:46:42.361094,9.072,can0  070  [20]  9C 2C 4D 08 84 B1 62 03 E0 AB 00 00 2E 00 00 00 36 00 00 00
2026-07-11T17:46:42.364185,9.075,can0  040  [04]  03 00 12 00
2026-07-11T17:46:42.460899,9.172,can0  204  [16]  6E 23 1C D2 24 99 E9 F1 28 23 30 75 30 75 00 00
2026-07-11T17:46:42.461145,9.172,can0  041  [04]  09 00 0C 00
2026-07-11T17:46:42.465251,9.176,can0  040  [04]  03 00 12 00
2026-07-11T17:46:42.465336,9.176,can0  204  [16]  6E 23 1C D2 24 99 E9 F1 28 23 30 75 30 75 00 00
2026-07-11T17:46:42.564513,9.275,can0  204  [16]  6E 23 1C D2 24 99 E9 F1 28 23 30 75 30 75 00 00
2026-07-11T17:46:42.564609,9.275,can0  204  [16]  6E 23 1C D2 24 99 E9 F1 28 23 30 75 30 75 00 00
2026-07-11T17:46:42.660696,9.371,can0  204  [16]  6E 23 1C D2 24 99 E9 F1 28 23 30 75 30 75 00 00
2026-07-11T17:46:42.660791,9.372,can0  204  [16]  6E 23 1C D2 24 99 E9 F1 28 23 30 75 30 75 00 00
2026-07-11T17:46:42.660879,9.372,can0  040  [04]  08 00 12 00
2026-07-11T17:46:42.664650,9.375,can0  041  [04]  02 00 0C 00
2026-07-11T17:46:42.760760,9.472,can0  204  [16]  6E 23 1C D2 24 99 E9 F1 28 23 30 75 30 75 00 00
2026-07-11T17:46:42.760997,9.472,can0  040  [04]  08 00 12 00
2026-07-11T17:46:42.761250,9.472,can0  060  [32]  00 00 00 00 00 00 00 00 00 00 00 00 00 00 00 00 00 00 00 00 00 00 00 00 00 00 00 00 00 00 00 00
2026-07-11T17:46:42.761495,9.472,can0  204  [16]  6E 23 1C D2 24 99 E9 F1 28 23 30 75 30 75 00 00
2026-07-11T17:46:42.761687,9.472,can0  060  [32]  59 84 D6 02 6B 8F 4D 08 22 78 64 03 32 00 A6 0B 24 01 01 00 00 00 00 00 01 00 00 00 00 00 00 00
2026-07-11T17:46:42.861035,9.572,can0  204  [16]  6E 23 1C D2 24 99 E9 F1 28 23 30 75 30 75 00 00
2026-07-11T17:46:42.861295,9.572,can0  204  [16]  6E 23 1C D2 24 99 E9 F1 28 23 30 75 30 75 00 00
2026-07-11T17:46:42.861831,9.573,can0  070  [20]  9C 2C 4D 08 84 B1 62 03 E0 AB 00 00 2E 00 00 00 36 00 00 00
2026-07-11T17:46:42.961119,9.672,can0  204  [16]  6E 23 1C D2 24 99 E9 F1 28 23 30 75 30 75 00 00
2026-07-11T17:46:42.961213,9.672,can0  040  [04]  0D 00 12 00
2026-07-11T17:46:42.961296,9.672,can0  204  [16]  6E 23 1C D2 24 99 E9 F1 28 23 30 75 30 75 00 00
2026-07-11T17:46:42.961387,9.672,can0  041  [04]  09 00 0D 00
2026-07-11T17:46:42.961615,9.672,can0  100  [03]  52 7F 04
2026-07-11T17:46:42.962159,9.673,can0  110  [02]  31 1B
2026-07-11T17:46:42.962244,9.673,can0  070  [20]  9C 2C 4D 08 84 B1 62 03 E0 AB 00 00 2E 00 00 00 36 00 00 00
2026-07-11T17:46:42.962329,9.673,can0  120  [04]  00 00 00 00
2026-07-11T17:46:42.962413,9.673,can0  040  [04]  0D 00 12 00
2026-07-11T17:46:43.060445,9.771,can0  204  [16]  6E 23 1C D2 24 99 E9 F1 28 23 30 75 30 75 00 00
2026-07-11T17:46:43.060696,9.771,can0  204  [16]  6E 23 1C D2 24 99 E9 F1 28 23 30 75 30 75 00 00
2026-07-11T17:46:43.160872,9.872,can0  204  [16]  6E 23 1C D2 24 99 E9 F1 28 23 30 75 30 75 00 00
2026-07-11T17:46:43.165770,9.877,can0  204  [16]  6E 23 1C D2 24 99 E9 F1 28 23 30 75 30 75 00 00
2026-07-11T17:46:43.260504,9.971,can0  040  [04]  08 00 11 00
2026-07-11T17:46:43.260781,9.972,can0  204  [16]  6E 23 1C D2 24 99 E9 F1 28 23 30 75 30 75 00 00
2026-07-11T17:46:43.261034,9.972,can0  041  [04]  02 00 0D 00
2026-07-11T17:46:43.261286,9.972,can0  070  [20]  9C 2C 4D 08 84 B1 62 03 C8 AF 00 00 2E 00 00 00 3B 00 00 00
2026-07-11T17:46:43.261458,9.972,can0  040  [04]  08 00 11 00
2026-07-11T17:46:43.261749,9.972,can0  204  [16]  6E 23 1C D2 24 99 E9 F1 28 23 30 75 30 75 00 00
2026-07-11T17:46:43.360359,10.071,can0  070  [20]  9C 2C 4D 08 84 B1 62 03 C8 AF 00 00 2E 00 00 00 3B 00 00 00
2026-07-11T17:46:43.364296,10.075,can0  204  [16]  6E 23 1C D2 24 99 E9 F1 28 23 30 75 30 75 00 00
2026-07-11T17:46:43.364383,10.075,can0  204  [16]  6E 23 1C D2 24 99 E9 F1 28 23 30 75 30 75 00 00
2026-07-11T17:46:43.364474,10.075,can0  070  [20]  9C 2C 4D 08 84 B1 62 03 C8 AF 00 00 2E 00 00 00 3B 00 00 00
2026-07-11T17:46:43.461082,10.172,can0  204  [16]  6E 23 1C D2 24 99 E9 F1 28 23 30 75 30 75 00 00
2026-07-11T17:46:43.461332,10.172,can0  204  [16]  6E 23 1C D2 24 99 E9 F1 28 23 30 75 30 75 00 00
2026-07-11T17:46:43.461566,10.172,can0  040  [04]  67 01 12 00
2026-07-11T17:46:43.461850,10.173,can0  041  [04]  02 00 0E 00
2026-07-11T17:46:43.560186,10.271,can0  204  [16]  6E 23 1C D2 24 99 E9 F1 28 23 30 75 30 75 00 00
2026-07-11T17:46:43.560395,10.271,can0  040  [04]  67 01 12 00
2026-07-11T17:46:43.560649,10.271,can0  204  [16]  6E 23 1C D2 24 99 E9 F1 28 23 30 75 30 75 00 00
2026-07-11T17:46:43.660842,10.372,can0  204  [16]  6E 23 1C D2 24 99 E9 F1 28 23 30 75 30 75 00 00
2026-07-11T17:46:43.661086,10.372,can0  204  [16]  6E 23 1C D2 24 99 E9 F1 28 23 30 75 30 75 00 00
2026-07-11T17:46:43.761083,10.472,can0  204  [16]  6E 23 1C D2 24 99 E9 F1 28 23 30 75 30 75 00 00
2026-07-11T17:46:43.761303,10.472,can0  040  [04]  06 00 13 00
2026-07-11T17:46:43.761530,10.472,can0  041  [04]  64 01 0A 00
2026-07-11T17:46:43.761834,10.473,can0  204  [16]  6E 23 1C D2 24 99 E9 F1 28 23 30 75 30 75 00 00
2026-07-11T17:46:43.762091,10.473,can0  040  [04]  06 00 13 00
2026-07-11T17:46:43.860285,10.571,can0  204  [16]  6E 23 1C D2 24 99 E9 F1 28 23 30 75 30 75 00 00
2026-07-11T17:46:43.860542,10.571,can0  204  [16]  6E 23 1C D2 24 99 E9 F1 28 23 30 75 30 75 00 00
2026-07-11T17:46:43.860810,10.572,can0  070  [20]  9C 2C 4D 08 84 B1 62 03 C8 AF 00 00 2E 00 00 00 3B 00 00 00
2026-07-11T17:46:43.960257,10.671,can0  204  [16]  6E 23 1C D2 24 99 E9 F1 28 23 30 75 30 75 00 00
2026-07-11T17:46:43.960495,10.671,can0  204  [16]  6E 23 1C D2 24 99 E9 F1 28 23 30 75 30 75 00 00
2026-07-11T17:46:43.961044,10.672,can0  070  [20]  9C 2C 4D 08 84 B1 62 03 C8 AF 00 00 2E 00 00 00 3B 00 00 00
2026-07-11T17:46:43.961332,10.672,can0  040  [04]  03 00 14 00
2026-07-11T17:46:44.060289,10.771,can0  204  [16]  6E 23 1C D2 24 99 E9 F1 28 23 30 75 30 75 00 00
2026-07-11T17:46:44.060491,10.771,can0  041  [04]  64 01 0A 00
2026-07-11T17:46:44.060756,10.772,can0  040  [04]  03 00 14 00
2026-07-11T17:46:44.061015,10.772,can0  204  [16]  6E 23 1C D2 24 99 E9 F1 28 23 30 75 30 75 00 00
2026-07-11T17:46:44.161083,10.872,can0  204  [16]  6E 23 1C D2 24 99 E9 F1 28 23 30 75 30 75 00 00
2026-07-11T17:46:44.161318,10.872,can0  100  [03]  57 7F 04
2026-07-11T17:46:44.161570,10.872,can0  120  [04]  00 00 00 00
2026-07-11T17:46:44.161910,10.873,can0  204  [16]  6E 23 1C D2 24 99 E9 F1 28 23 30 75 30 75 00 00
2026-07-11T17:46:44.260516,10.971,can0  204  [16]  6E 23 1C D2 24 99 E9 F1 28 23 30 75 30 75 00 00
2026-07-11T17:46:44.260717,10.971,can0  060  [32]  00 00 00 00 9C 2C 4D 08 D9 06 B8 10 00 00 10 0E FF 01 00 00 00 00 00 00 01 00 00 00 00 00 00 00
2026-07-11T17:46:44.261194,10.972,can0  040  [04]  67 01 19 00
2026-07-11T17:46:44.261532,10.972,can0  204  [16]  6E 23 1C D2 24 99 E9 F1 28 23 30 75 30 75 00 00
2026-07-11T17:46:44.261840,10.973,can0  070  [20]  9C 2C 4D 08 86 B1 62 03 B0 B3 00 00 2E 00 00 00 2C 00 00 00
2026-07-11T17:46:44.262097,10.973,can0  041  [04]  5F 01 0B 00
2026-07-11T17:46:44.360177,11.071,can0  070  [20]  9C 2C 4D 08 86 B1 62 03 B0 B3 00 00 2E 00 00 00 2D 00 00 00
2026-07-11T17:46:44.360438,11.071,can0  204  [16]  6E 23 1C D2 24 99 E9 F1 28 23 30 75 30 75 00 00
2026-07-11T17:46:44.360710,11.071,can0  040  [04]  67 01 19 00
2026-07-11T17:46:44.360957,11.072,can0  204  [16]  6E 23 1C D2 24 99 E9 F1 28 23 30 75 30 75 00 00
2026-07-11T17:46:44.361240,11.072,can0  070  [20]  9C 2C 4D 08 86 B1 62 03 B0 B3 00 00 2E 00 00 00 2D 00 00 00
2026-07-11T17:46:44.460741,11.171,can0  204  [16]  6E 23 1C D2 24 99 E9 F1 28 23 30 75 30 75 00 00
2026-07-11T17:46:44.460986,11.172,can0  204  [16]  6E 23 1C D2 24 99 E9 F1 28 23 30 75 30 75 00 00
2026-07-11T17:46:44.560344,11.271,can0  040  [04]  02 00 1D 00
2026-07-11T17:46:44.560698,11.271,can0  204  [16]  6E 23 1C D2 24 99 E9 F1 28 23 30 75 30 75 00 00
2026-07-11T17:46:44.560924,11.272,can0  041  [04]  55 01 08 00
2026-07-11T17:46:44.561127,11.272,can0  110  [02]  32 1B
2026-07-11T17:46:44.561458,11.272,can0  204  [16]  6E 23 1C D2 24 99 E9 F1 28 23 30 75 30 75 00 00
2026-07-11T17:46:44.561711,11.272,can0  040  [04]  02 00 1D 00
2026-07-11T17:46:44.660527,11.371,can0  204  [16]  6E 23 1C D2 24 99 E9 F1 28 23 30 75 30 75 00 00
2026-07-11T17:46:44.660789,11.372,can0  131  [00]
2026-07-11T17:46:44.661041,11.372,can0  204  [16]  6E 23 1C D2 24 99 E9 F1 28 23 30 75 30 75 00 00
2026-07-11T17:46:44.760446,11.471,can0  204  [16]  6E 23 1C D2 24 99 E9 F1 28 23 30 75 30 75 00 00
2026-07-11T17:46:44.760728,11.471,can0  060  [32]  00 00 00 00 00 00 00 00 00 00 00 00 00 00 00 00 00 00 00 00 00 00 00 00 00 00 00 00 00 00 00 00
2026-07-11T17:46:44.760989,11.472,can0  204  [16]  6E 23 1C D2 24 99 E9 F1 28 23 30 75 30 75 00 00
2026-07-11T17:46:44.761242,11.472,can0  040  [04]  03 00 1F 00
2026-07-11T17:46:44.761468,11.472,can0  133  [00]
2026-07-11T17:46:44.860915,11.572,can0  041  [04]  55 01 08 00
2026-07-11T17:46:44.861169,11.572,can0  204  [16]  6E 23 1C D2 24 99 E9 F1 28 23 30 75 30 75 00 00
2026-07-11T17:46:44.861394,11.572,can0  040  [04]  03 00 1F 00
2026-07-11T17:46:44.861674,11.572,can0  070  [20]  9C 2C 4D 08 86 B1 62 03 B0 B3 00 00 2E 00 00 00 2D 00 00 00
2026-07-11T17:46:44.861990,11.573,can0  204  [16]  6E 23 1C D2 24 99 E9 F1 28 23 30 75 30 75 00 00
2026-07-11T17:46:44.961109,11.672,can0  204  [16]  6E 23 1C D2 24 99 E9 F1 28 23 30 75 30 75 00 00
2026-07-11T17:46:44.961735,11.672,can0  070  [20]  9C 2C 4D 08 86 B1 62 03 B0 B3 00 00 2E 00 00 00 2D 00 00 00
2026-07-11T17:46:44.962000,11.673,can0  204  [16]  6E 23 1C D2 24 99 E9 F1 28 23 30 75 30 75 00 00
2026-07-11T17:46:45.060362,11.771,can0  204  [16]  6E 23 1C D2 24 99 E9 F1 28 23 30 75 30 75 00 00
2026-07-11T17:46:45.060590,11.771,can0  040  [04]  03 00 1F 00
2026-07-11T17:46:45.060852,11.772,can0  204  [16]  6E 23 1C D2 24 99 E9 F1 28 23 30 75 30 75 00 00
2026-07-11T17:46:45.061109,11.772,can0  041  [04]  55 01 08 00
2026-07-11T17:46:45.160513,11.871,can0  040  [04]  03 00 1F 00
2026-07-11T17:46:45.160827,11.872,can0  204  [16]  6E 23 1C D2 24 99 E9 F1 28 23 30 75 30 75 00 00
2026-07-11T17:46:45.161081,11.872,can0  204  [16]  6E 23 1C D2 24 99 E9 F1 28 23 30 75 30 75 00 00
2026-07-11T17:46:45.260496,11.971,can0  204  [16]  6E 23 1C D2 24 99 E9 F1 28 23 30 75 30 75 00 00
2026-07-11T17:46:45.260770,11.972,can0  070  [20]  9C 2C 4D 08 86 B1 62 03 98 B7 00 00 2E 00 00 00 25 00 00 00
2026-07-11T17:46:45.260988,11.972,can0  060  [32]  00 00 00 00 00 00 00 00 00 00 00 00 00 00 00 00 00 00 00 00 00 00 00 00 00 00 00 00 00 00 00 00
2026-07-11T17:46:45.261170,11.972,can0  060  [32]  00 00 00 00 9C 2C 4D 08 DB 06 B8 10 00 00 10 0E FF 01 00 00 00 00 00 00 01 00 00 00 00 00 00 00
2026-07-11T17:46:45.261816,11.973,can0  204  [16]  6E 23 1C D2 24 99 E9 F1 28 23 30 75 30 75 00 00
2026-07-11T17:46:45.262093,11.973,can0  070  [20]  9C 2C 4D 08 86 B1 62 03 98 B7 00 00 2E 00 00 00 25 00 00 00
2026-07-11T17:46:45.360720,12.071,can0  040  [04]  01 00 1E 00
2026-07-11T17:46:45.360787,12.072,can0  204  [16]  6E 23 1C D2 24 99 E9 F1 28 23 30 75 30 75 00 00
2026-07-11T17:46:45.361109,12.072,can0  041  [04]  44 01 09 00
2026-07-11T17:46:45.361152,12.072,can0  100  [03]  5A 7F 04
2026-07-11T17:46:45.361336,12.072,can0  120  [04]  00 00 00 00
2026-07-11T17:46:45.361512,12.072,can0  070  [20]  9C 2C 4D 08 86 B1 62 03 98 B7 00 00 2E 00 00 00 25 00 00 00
2026-07-11T17:46:45.361728,12.072,can0  040  [04]  01 00 1E 00
2026-07-11T17:46:45.365796,12.077,can0  204  [16]  6E 23 1C D2 24 99 E9 F1 28 23 30 75 30 75 00 00
2026-07-11T17:46:45.461131,12.172,can0  204  [16]  6E 23 1C D2 24 99 E9 F1 28 23 30 75 30 75 00 00
2026-07-11T17:46:45.461408,12.172,can0  204  [16]  6E 23 1C D2 24 99 E9 F1 28 23 30 75 30 75 00 00
2026-07-11T17:46:45.560760,12.272,can0  204  [16]  6E 23 1C D2 24 99 E9 F1 28 23 30 75 30 75 00 00
2026-07-11T17:46:45.564536,12.275,can0  040  [04]  64 01 1A 00
2026-07-11T17:46:45.564620,12.275,can0  204  [16]  6E 23 1C D2 24 99 E9 F1 28 23 30 75 30 75 00 00
2026-07-11T17:46:45.665216,12.376,can0  041  [04]  44 01 09 00
2026-07-11T17:46:45.665312,12.376,can0  204  [16]  6E 23 1C D2 24 99 E9 F1 28 23 30 75 30 75 00 00
2026-07-11T17:46:45.665405,12.376,can0  040  [04]  64 01 1A 00
2026-07-11T17:46:45.665488,12.376,can0  204  [16]  6E 23 1C D2 24 99 E9 F1 28 23 30 75 30 75 00 00
2026-07-11T17:46:45.760450,12.471,can0  204  [16]  6E 23 1C D2 24 99 E9 F1 28 23 30 75 30 75 00 00
2026-07-11T17:46:45.760705,12.471,can0  204  [16]  6E 23 1C D2 24 99 E9 F1 28 23 30 75 30 75 00 00
2026-07-11T17:46:45.861508,12.572,can0  204  [16]  6E 23 1C D2 24 99 E9 F1 28 23 30 75 30 75 00 00
2026-07-11T17:46:45.861576,12.572,can0  070  [20]  9C 2C 4D 08 86 B1 62 03 98 B7 00 00 2E 00 00 00 25 00 00 00
2026-07-11T17:46:45.861624,12.572,can0  040  [04]  5B 01 19 00
2026-07-11T17:46:45.861680,12.572,can0  041  [04]  02 00 06 00
2026-07-11T17:46:45.861798,12.573,can0  204  [16]  6E 23 1C D2 24 99 E9 F1 28 23 30 75 30 75 00 00
2026-07-11T17:46:45.960238,12.671,can0  040  [04]  5B 01 19 00
2026-07-11T17:46:45.960644,12.671,can0  204  [16]  6E 23 1C D2 24 99 E9 F1 28 23 30 75 30 75 00 00
2026-07-11T17:46:45.960742,12.671,can0  070  [20]  9C 2C 4D 08 86 B1 62 03 98 B7 00 00 2E 00 00 00 25 00 00 00
2026-07-11T17:46:45.964902,12.676,can0  204  [16]  6E 23 1C D2 24 99 E9 F1 28 23 30 75 30 75 00 00
2026-07-11T17:46:46.060710,12.771,can0  204  [16]  6E 23 1C D2 24 99 E9 F1 28 23 30 75 30 75 00 00
2026-07-11T17:46:46.060941,12.772,can0  060  [32]  26 6B D6 02 22 BD 4D 08 BA 1E 64 03 00 00 A0 0C 08 00 80 00 00 00 00 00 02 00 00 00 00 00 00 00
2026-07-11T17:46:46.061129,12.772,can0  060  [32]  74 ED D5 02 D2 69 4D 08 F9 23 66 03 00 00 FF 0D FF 01 00 00 00 00 00 01 02 00 00 00 00 00 00 00
2026-07-11T17:46:46.061670,12.772,can0  204  [16]  6E 23 1C D2 24 99 E9 F1 28 23 30 75 30 75 00 00
2026-07-11T17:46:46.160710,12.871,can0  040  [04]  55 01 15 00
2026-07-11T17:46:46.160777,12.872,can0  204  [16]  6E 23 1C D2 24 99 E9 F1 28 23 30 75 30 75 00 00
2026-07-11T17:46:46.160823,12.872,can0  041  [04]  02 00 06 00
2026-07-11T17:46:46.165452,12.876,can0  110  [02]  32 1B
2026-07-11T17:46:46.165515,12.876,can0  040  [04]  55 01 15 00
2026-07-11T17:46:46.165557,12.876,can0  204  [16]  6E 23 1C D2 24 99 E9 F1 28 23 30 75 30 75 00 00
2026-07-11T17:46:46.260862,12.972,can0  204  [16]  6E 23 1C D2 24 99 E9 F1 28 23 30 75 30 75 00 00
2026-07-11T17:46:46.261123,12.972,can0  204  [16]  6E 23 1C D2 24 99 E9 F1 28 23 30 75 30 75 00 00
2026-07-11T17:46:46.261673,12.972,can0  070  [20]  9C 2C 4D 08 88 B1 62 03 80 BB 00 00 2E 00 00 00 2B 00 00 00
2026-07-11T17:46:46.360733,13.071,can0  070  [20]  9C 2C 4D 08 88 B1 62 03 80 BB 00 00 2E 00 00 00 2B 00 00 00
2026-07-11T17:46:46.361099,13.072,can0  204  [16]  6E 23 1C D2 24 99 E9 F1 28 23 30 75 30 75 00 00
2026-07-11T17:46:46.361186,13.072,can0  204  [16]  6E 23 1C D2 24 99 E9 F1 28 23 30 75 30 75 00 00
2026-07-11T17:46:46.361367,13.072,can0  070  [20]  9C 2C 4D 08 88 B1 62 03 80 BB 00 00 2E 00 00 00 2B 00 00 00
2026-07-11T17:46:46.361623,13.072,can0  040  [04]  5A 01 11 00
2026-07-11T17:46:46.460910,13.172,can0  041  [04]  02 00 00 00
2026-07-11T17:46:46.461154,13.172,can0  040  [04]  5A 01 11 00
2026-07-11T17:46:46.461429,13.172,can0  204  [16]  6E 23 1C D2 24 99 E9 F1 28 23 30 75 30 75 00 00
2026-07-11T17:46:46.461708,13.172,can0  204  [16]  6E 23 1C D2 24 99 E9 F1 28 23 30 75 30 75 00 00
2026-07-11T17:46:46.561004,13.272,can0  204  [16]  6E 23 1C D2 24 99 E9 F1 28 23 30 75 30 75 00 00
2026-07-11T17:46:46.561238,13.272,can0  100  [03]  5F 7F 04
2026-07-11T17:46:46.561459,13.272,can0  120  [04]  00 00 00 00
2026-07-11T17:46:46.565578,13.276,can0  204  [16]  6E 23 1C D2 24 99 E9 F1 28 23 30 75 30 75 00 00
2026-07-11T17:46:46.660358,13.371,can0  060  [32]  00 00 00 00 9C 2C 4D 08 DB 06 B8 10 00 00 10 0E FF 01 00 00 00 00 00 00 02 00 00 00 00 00 00 00
2026-07-11T17:46:46.660754,13.372,can0  060  [32]  73 ED D5 02 9E B9 4D 08 54 1E 64 03 00 00 A5 07 FF 01 00 00 00 00 00 01 02 00 00 00 00 00 00 00
2026-07-11T17:46:46.661114,13.372,can0  204  [16]  6E 23 1C D2 24 99 E9 F1 28 23 30 75 30 75 00 00
2026-07-11T17:46:46.661727,13.372,can0  040  [04]  56 01 13 00
2026-07-11T17:46:46.661812,13.373,can0  041  [04]  10 01 06 00
2026-07-11T17:46:46.661894,13.373,can0  204  [16]  6E 23 1C D2 24 99 E9 F1 28 23 30 75 30 75 00 00
2026-07-11T17:46:46.661980,13.373,can0  040  [04]  56 01 13 00
2026-07-11T17:46:46.760771,13.472,can0  204  [16]  6E 23 1C D2 24 99 E9 F1 28 23 30 75 30 75 00 00
2026-07-11T17:46:46.764344,13.475,can0  204  [16]  6E 23 1C D2 24 99 E9 F1 28 23 30 75 30 75 00 00
2026-07-11T17:46:46.865326,13.576,can0  204  [16]  6E 23 1C D2 24 99 E9 F1 28 23 30 75 30 75 00 00
2026-07-11T17:46:46.865396,13.576,can0  070  [20]  9C 2C 4D 08 88 B1 62 03 80 BB 00 00 2E 00 00 00 2B 00 00 00
2026-07-11T17:46:46.865441,13.576,can0  204  [16]  6E 23 1C D2 24 99 E9 F1 28 23 30 75 30 75 00 00
2026-07-11T17:46:46.960372,13.671,can0  040  [04]  5C 01 15 00
2026-07-11T17:46:46.960624,13.671,can0  204  [16]  6E 23 1C D2 24 99 E9 F1 28 23 30 75 30 75 00 00
2026-07-11T17:46:46.961102,13.672,can0  041  [04]  10 01 0B 00
2026-07-11T17:46:46.961149,13.672,can0  040  [04]  5C 01 15 00
2026-07-11T17:46:46.961192,13.672,can0  070  [20]  9C 2C 4D 08 88 B1 62 03 80 BB 00 00 2E 00 00 00 2B 00 00 00
2026-07-11T17:46:46.965301,13.676,can0  204  [16]  6E 23 1C D2 24 99 E9 F1 28 23 30 75 30 75 00 00
2026-07-11T17:46:47.060707,13.771,can0  204  [16]  6E 23 1C D2 24 99 E9 F1 28 23 30 75 30 75 00 00
2026-07-11T17:46:47.064789,13.776,can0  204  [16]  6E 23 1C D2 24 99 E9 F1 28 23 30 75 30 75 00 00
2026-07-11T17:46:47.160629,13.871,can0  060  [32]  00 00 00 00 00 00 00 00 00 00 00 00 00 00 00 00 00 00 00 00 00 00 00 00 00 00 00 00 00 00 00 00
2026-07-11T17:46:47.160705,13.871,can0  204  [16]  6E 23 1C D2 24 99 E9 F1 28 23 30 75 30 75 00 00
2026-07-11T17:46:47.160903,13.872,can0  040  [04]  60 01 16 00
2026-07-11T17:46:47.161148,13.872,can0  204  [16]  6E 23 1C D2 24 99 E9 F1 28 23 30 75 30 75 00 00
2026-07-11T17:46:47.261120,13.972,can0  041  [04]  19 01 0A 00
2026-07-11T17:46:47.261615,13.972,can0  070  [20]  9C 2C 4D 08 89 B1 62 03 68 BF 00 00 2E 00 00 00 1C 00 00 00
2026-07-11T17:46:47.261996,13.973,can0  040  [04]  60 01 16 00
2026-07-11T17:46:47.262041,13.973,can0  204  [16]  6E 23 1C D2 24 99 E9 F1 28 23 30 75 30 75 00 00
2026-07-11T17:46:47.262213,13.973,can0  060  [32]  00 00 00 00 9C 2C 4D 08 DE 06 B8 10 00 00 10 0E FF 01 00 00 00 00 00 00 01 00 00 00 00 00 00 00
2026-07-11T17:46:47.361265,14.072,can0  204  [16]  6E 23 1C D2 24 99 E9 F1 28 23 30 75 30 75 00 00
2026-07-11T17:46:47.361333,14.072,can0  070  [20]  9C 2C 4D 08 89 B1 62 03 68 BF 00 00 2E 00 00 00 1C 00 00 00
2026-07-11T17:46:47.361391,14.072,can0  204  [16]  6E 23 1C D2 24 99 E9 F1 28 23 30 75 30 75 00 00
2026-07-11T17:46:47.365776,14.077,can0  070  [20]  9C 2C 4D 08 89 B1 62 03 68 BF 00 00 2E 00 00 00 1C 00 00 00
2026-07-11T17:46:47.460902,14.172,can0  204  [16]  6E 23 1C D2 24 99 E9 F1 28 23 30 75 30 75 00 00
2026-07-11T17:46:47.461186,14.172,can0  204  [16]  6E 23 1C D2 24 99 E9 F1 28 23 30 75 30 75 00 00
2026-07-11T17:46:47.461444,14.172,can0  040  [04]  5D 01 15 00
2026-07-11T17:46:47.461710,14.172,can0  041  [04]  28 01 08 00
2026-07-11T17:46:47.561149,14.272,can0  204  [16]  6E 23 1C D2 24 99 E9 F1 28 23 30 75 30 75 00 00
2026-07-11T17:46:47.561404,14.272,can0  040  [04]  5D 01 15 00
2026-07-11T17:46:47.561673,14.272,can0  204  [16]  6E 23 1C D2 24 99 E9 F1 28 23 30 75 30 75 00 00
2026-07-11T17:46:47.660294,14.371,can0  204  [16]  6E 23 1C D2 24 99 E9 F1 28 23 30 75 30 75 00 00
2026-07-11T17:46:47.660612,14.371,can0  204  [16]  6E 23 1C D2 24 99 E9 F1 28 23 30 75 30 75 00 00
2026-07-11T17:46:47.760210,14.471,can0  204  [16]  6E 23 1C D2 24 99 E9 F1 28 23 30 75 30 75 00 00
2026-07-11T17:46:47.760466,14.471,can0  040  [04]  55 01 15 00
2026-07-11T17:46:47.760711,14.471,can0  041  [04]  3F 01 06 00
2026-07-11T17:46:47.760912,14.472,can0  100  [03]  64 7F 04
2026-07-11T17:46:47.761100,14.472,can0  204  [16]  6E 23 1C D2 24 99 E9 F1 28 23 30 75 30 75 00 00
2026-07-11T17:46:47.761249,14.472,can0  110  [02]  33 1B
2026-07-11T17:46:47.761376,14.472,can0  120  [04]  00 00 00 00
2026-07-11T17:46:47.761508,14.472,can0  040  [04]  55 01 15 00
2026-07-11T17:46:47.761676,14.472,can0  060  [32]  00 00 00 00 00 00 00 00 00 00 00 00 00 00 00 00 00 00 00 00 00 00 00 00 00 00 00 00 00 00 00 00
2026-07-11T17:46:47.860759,14.572,can0  204  [16]  6E 23 1C D2 24 99 E9 F1 28 23 30 75 30 75 00 00
2026-07-11T17:46:47.861171,14.572,can0  204  [16]  6E 23 1C D2 24 99 E9 F1 28 23 30 75 30 75 00 00
2026-07-11T17:46:47.861254,14.572,can0  070  [20]  9C 2C 4D 08 89 B1 62 03 68 BF 00 00 2E 00 00 00 1C 00 00 00
2026-07-11T17:46:47.961156,14.672,can0  204  [16]  6E 23 1C D2 24 99 E9 F1 28 23 30 75 30 75 00 00
2026-07-11T17:46:47.961396,14.672,can0  204  [16]  6E 23 1C D2 24 99 E9 F1 28 23 30 75 30 75 00 00
2026-07-11T17:46:47.961672,14.672,can0  070  [20]  9C 2C 4D 08 89 B1 62 03 68 BF 00 00 2E 00 00 00 1C 00 00 00
2026-07-11T17:46:47.961889,14.673,can0  040  [04]  52 01 17 00
2026-07-11T17:46:48.060224,14.771,can0  204  [16]  6E 23 1C D2 24 99 E9 F1 28 23 30 75 30 75 00 00
2026-07-11T17:46:48.060453,14.771,can0  041  [04]  4D 01 07 00
2026-07-11T17:46:48.060740,14.771,can0  040  [04]  52 01 17 00
2026-07-11T17:46:48.061030,14.772,can0  204  [16]  6E 23 1C D2 24 99 E9 F1 28 23 30 75 30 75 00 00
2026-07-11T17:46:48.160925,14.872,can0  204  [16]  6E 23 1C D2 24 99 E9 F1 28 23 30 75 30 75 00 00
2026-07-11T17:46:48.161202,14.872,can0  204  [16]  6E 23 1C D2 24 99 E9 F1 28 23 30 75 30 75 00 00
2026-07-11T17:46:48.261120,14.972,can0  204  [16]  6E 23 1C D2 24 99 E9 F1 28 23 30 75 30 75 00 00
2026-07-11T17:46:48.261400,14.972,can0  070  [20]  9C 2C 4D 08 8B B1 62 03 50 C3 00 00 2E 00 00 00 2B 00 00 00
2026-07-11T17:46:48.261680,14.972,can0  040  [04]  55 01 19 00
2026-07-11T17:46:48.261901,14.973,can0  204  [16]  6E 23 1C D2 24 99 E9 F1 28 23 30 75 30 75 00 00
2026-07-11T17:46:48.262085,14.973,can0  070  [20]  9C 2C 4D 08 8B B1 62 03 50 C3 00 00 2E 00 00 00 2B 00 00 00
2026-07-11T17:46:48.262266,14.973,can0  041  [04]  57 01 06 00
2026-07-11T17:46:48.262420,14.973,can0  060  [32]  00 00 00 00 9C 2C 4D 08 E0 06 B8 10 00 00 10 0E FF 01 00 00 00 00 00 00 01 00 00 00 00 00 00 00
2026-07-11T17:46:48.262858,14.974,can0  040  [04]  55 01 19 00
2026-07-11T17:46:48.360700,15.071,can0  204  [16]  6E 23 1C D2 24 99 E9 F1 28 23 30 75 30 75 00 00
2026-07-11T17:46:48.360968,15.072,can0  204  [16]  6E 23 1C D2 24 99 E9 F1 28 23 30 75 30 75 00 00
2026-07-11T17:46:48.361501,15.072,can0  070  [20]  9C 2C 4D 08 8B B1 62 03 50 C3 00 00 2E 00 00 00 2B 00 00 00
2026-07-11T17:46:48.460817,15.172,can0  204  [16]  6E 23 1C D2 24 99 E9 F1 28 23 30 75 30 75 00 00
2026-07-11T17:46:48.461097,15.172,can0  204  [16]  6E 23 1C D2 24 99 E9 F1 28 23 30 75 30 75 00 00
2026-07-11T17:46:48.560471,15.271,can0  040  [04]  57 01 18 00
2026-07-11T17:46:48.560775,15.272,can0  204  [16]  6E 23 1C D2 24 99 E9 F1 28 23 30 75 30 75 00 00
2026-07-11T17:46:48.561026,15.272,can0  041  [04]  57 01 06 00
2026-07-11T17:46:48.561320,15.272,can0  204  [16]  6E 23 1C D2 24 99 E9 F1 28 23 30 75 30 75 00 00
2026-07-11T17:46:48.561565,15.272,can0  040  [04]  57 01 18 00
2026-07-11T17:46:48.660626,15.371,can0  204  [16]  6E 23 1C D2 24 99 E9 F1 28 23 30 75 30 75 00 00
2026-07-11T17:46:48.664013,15.375,can0  204  [16]  6E 23 1C D2 24 99 E9 F1 28 23 30 75 30 75 00 00
2026-07-11T17:46:48.760748,15.472,can0  204  [16]  6E 23 1C D2 24 99 E9 F1 28 23 30 75 30 75 00 00
2026-07-11T17:46:48.761039,15.472,can0  204  [16]  6E 23 1C D2 24 99 E9 F1 28 23 30 75 30 75 00 00
2026-07-11T17:46:48.761316,15.472,can0  040  [04]  5C 01 16 00
2026-07-11T17:46:48.860181,15.571,can0  041  [04]  3F 01 04 00
2026-07-11T17:46:48.860470,15.571,can0  204  [16]  6E 23 1C D2 24 99 E9 F1 28 23 30 75 30 75 00 00
2026-07-11T17:46:48.865018,15.576,can0  040  [04]  5C 01 16 00
2026-07-11T17:46:48.865076,15.576,can0  070  [20]  9C 2C 4D 08 8B B1 62 03 50 C3 00 00 2E 00 00 00 2B 00 00 00
2026-07-11T17:46:48.865118,15.576,can0  204  [16]  6E 23 1C D2 24 99 E9 F1 28 23 30 75 30 75 00 00
2026-07-11T17:46:48.960217,15.671,can0  204  [16]  6E 23 1C D2 24 99 E9 F1 28 23 30 75 30 75 00 00
2026-07-11T17:46:48.960719,15.671,can0  100  [03]  6E 7F 04
2026-07-11T17:46:48.960767,15.672,can0  120  [04]  00 00 00 00
2026-07-11T17:46:48.960808,15.672,can0  070  [20]  9C 2C 4D 08 8B B1 62 03 50 C3 00 00 2E 00 00 00 2B 00 00 00
2026-07-11T17:46:48.965004,15.676,can0  204  [16]  6E 23 1C D2 24 99 E9 F1 28 23 30 75 30 75 00 00
2026-07-11T17:46:49.060573,15.771,can0  204  [16]  6E 23 1C D2 24 99 E9 F1 28 23 30 75 30 75 00 00
2026-07-11T17:46:49.060640,15.771,can0  040  [04]  64 01 17 00
2026-07-11T17:46:49.064918,15.776,can0  204  [16]  6E 23 1C D2 24 99 E9 F1 28 23 30 75 30 75 00 00
2026-07-11T17:46:49.064976,15.776,can0  041  [04]  10 01 06 00
2026-07-11T17:46:49.161083,15.872,can0  040  [04]  64 01 17 00
2026-07-11T17:46:49.161332,15.872,can0  204  [16]  6E 23 1C D2 24 99 E9 F1 28 23 30 75 30 75 00 00
2026-07-11T17:46:49.165718,15.876,can0  204  [16]  6E 23 1C D2 24 99 E9 F1 28 23 30 75 30 75 00 00
2026-07-11T17:46:49.264363,15.975,can0  204  [16]  6E 23 1C D2 24 99 E9 F1 28 23 30 75 30 75 00 00
2026-07-11T17:46:49.264433,15.975,can0  070  [20]  9D 2C 4D 08 8D B1 62 03 38 C7 00 00 2E 00 00 00 34 00 00 00
2026-07-11T17:46:49.264478,15.975,can0  204  [16]  6E 23 1C D2 24 99 E9 F1 28 23 30 75 30 75 00 00
2026-07-11T17:46:49.264524,15.975,can0  070  [20]  9D 2C 4D 08 8D B1 62 03 38 C7 00 00 2E 00 00 00 33 00 00 00
2026-07-11T17:46:49.360930,16.072,can0  060  [32]  D7 93 D6 02 79 E5 4D 08 F0 65 62 03 46 01 95 0A 0E 01 FF 00 00 00 00 00 02 00 00 00 00 00 00 00
2026-07-11T17:46:49.361393,16.072,can0  060  [32]  00 00 00 00 9D 2C 4D 08 E1 06 B8 10 00 00 10 0E FF 01 00 00 00 00 00 01 02 00 00 00 00 00 00 00
2026-07-11T17:46:49.361639,16.072,can0  040  [04]  67 01 19 00
2026-07-11T17:46:49.361913,16.073,can0  204  [16]  6E 23 1C D2 24 99 E9 F1 28 23 30 75 30 75 00 00
2026-07-11T17:46:49.362108,16.073,can0  041  [04]  10 01 09 00
2026-07-11T17:46:49.362639,16.073,can0  110  [02]  32 1B
2026-07-11T17:46:49.362697,16.073,can0  040  [04]  67 01 19 00
2026-07-11T17:46:49.362742,16.073,can0  204  [16]  6E 23 1C D2 24 99 E9 F1 28 23 30 75 30 75 00 00
2026-07-11T17:46:49.363178,16.074,can0  070  [20]  9D 2C 4D 08 8D B1 62 03 38 C7 00 00 2E 00 00 00 33 00 00 00
2026-07-11T17:46:49.460877,16.172,can0  204  [16]  6E 23 1C D2 24 99 E9 F1 28 23 30 75 30 75 00 00
2026-07-11T17:46:49.461117,16.172,can0  204  [16]  6E 23 1C D2 24 99 E9 F1 28 23 30 75 30 75 00 00
2026-07-11T17:46:49.560785,16.272,can0  204  [16]  6E 23 1C D2 24 99 E9 F1 28 23 30 75 30 75 00 00
2026-07-11T17:46:49.561145,16.272,can0  204  [16]  6E 23 1C D2 24 99 E9 F1 28 23 30 75 30 75 00 00
2026-07-11T17:46:49.561419,16.272,can0  040  [04]  67 01 17 00
2026-07-11T17:46:49.661087,16.372,can0  041  [04]  21 01 08 00
2026-07-11T17:46:49.661353,16.372,can0  040  [04]  67 01 17 00
2026-07-11T17:46:49.661776,16.373,can0  204  [16]  6E 23 1C D2 24 99 E9 F1 28 23 30 75 30 75 00 00
2026-07-11T17:46:49.662188,16.373,can0  204  [16]  6E 23 1C D2 24 99 E9 F1 28 23 30 75 30 75 00 00
2026-07-11T17:46:49.760944,16.472,can0  204  [16]  6E 23 1C D2 24 99 E9 F1 28 23 30 75 30 75 00 00
2026-07-11T17:46:49.761248,16.472,can0  204  [16]  6E 23 1C D2 24 99 E9 F1 28 23 30 75 30 75 00 00
2026-07-11T17:46:49.860108,16.571,can0  060  [32]  00 00 00 00 00 00 00 00 00 00 00 00 00 00 00 00 00 00 00 00 00 00 00 00 00 00 00 00 00 00 00 00
2026-07-11T17:46:49.860430,16.571,can0  204  [16]  6E 23 1C D2 24 99 E9 F1 28 23 30 75 30 75 00 00
2026-07-11T17:46:49.860770,16.572,can0  040  [04]  67 01 14 00
2026-07-11T17:46:49.861047,16.572,can0  041  [04]  25 01 0A 00
2026-07-11T17:46:49.861326,16.572,can0  204  [16]  6E 23 1C D2 24 99 E9 F1 28 23 30 75 30 75 00 00
2026-07-11T17:46:49.861678,16.572,can0  070  [20]  9D 2C 4D 08 8D B1 62 03 38 C7 00 00 2E 00 00 00 33 00 00 00
2026-07-11T17:46:49.961074,16.672,can0  040  [04]  67 01 14 00
2026-07-11T17:46:49.961383,16.672,can0  204  [16]  6E 23 1C D2 24 99 E9 F1 28 23 30 75 30 75 00 00
2026-07-11T17:46:49.961763,16.673,can0  204  [16]  6E 23 1C D2 24 99 E9 F1 28 23 30 75 30 75 00 00
2026-07-11T17:46:49.962066,16.673,can0  070  [20]  9D 2C 4D 08 8D B1 62 03 38 C7 00 00 2E 00 00 00 33 00 00 00
2026-07-11T17:46:50.060165,16.771,can0  204  [16]  6E 23 1C D2 24 99 E9 F1 28 23 30 75 30 75 00 00
2026-07-11T17:46:50.060515,16.771,can0  204  [16]  6E 23 1C D2 24 99 E9 F1 28 23 30 75 30 75 00 00
2026-07-11T17:46:50.160254,16.871,can0  040  [04]  60 01 15 00
2026-07-11T17:46:50.160549,16.871,can0  204  [16]  6E 23 1C D2 24 99 E9 F1 28 23 30 75 30 75 00 00
2026-07-11T17:46:50.160773,16.872,can0  041  [04]  29 01 0C 00
2026-07-11T17:46:50.161068,16.872,can0  100  [03]  72 7F 04
2026-07-11T17:46:50.161236,16.872,can0  120  [04]  00 00 00 00
2026-07-11T17:46:50.161413,16.872,can0  040  [04]  60 01 15 00
2026-07-11T17:46:50.161620,16.872,can0  204  [16]  6E 23 1C D2 24 99 E9 F1 28 23 30 75 30 75 00 00
2026-07-11T17:46:50.260232,16.971,can0  204  [16]  6E 23 1C D2 24 99 E9 F1 28 23 30 75 30 75 00 00
2026-07-11T17:46:50.260496,16.971,can0  070  [20]  9D 2C 4D 08 8D B1 62 03 20 CB 00 00 2E 00 00 00 36 00 00 00
2026-07-11T17:46:50.260793,16.972,can0  070  [20]  9D 2C 4D 08 8D B1 62 03 20 CB 00 00 2E 00 00 00 35 00 00 00
2026-07-11T17:46:50.261105,16.972,can0  204  [16]  6E 23 1C D2 24 99 E9 F1 28 23 30 75 30 75 00 00
2026-07-11T17:46:50.361092,17.072,can0  060  [32]  00 00 00 00 9D 2C 4D 08 E1 06 B8 10 00 00 10 0E FF 01 00 00 00 00 00 00 01 00 00 00 00 00 00 00
2026-07-11T17:46:50.361621,17.072,can0  132  [00]
2026-07-11T17:46:50.361880,17.073,can0  204  [16]  6E 23 1C D2 24 99 E9 F1 28 23 30 75 30 75 00 00
2026-07-11T17:46:50.362411,17.073,can0  070  [20]  9D 2C 4D 08 8D B1 62 03 20 CB 00 00 2E 00 00 00 35 00 00 00
2026-07-11T17:46:50.362732,17.073,can0  204  [16]  6E 23 1C D2 24 99 E9 F1 28 23 30 75 30 75 00 00
2026-07-11T17:46:50.363044,17.074,can0  040  [04]  64 01 18 00
2026-07-11T17:46:50.461152,17.172,can0  041  [04]  29 01 0C 00
2026-07-11T17:46:50.461444,17.172,can0  204  [16]  6E 23 1C D2 24 99 E9 F1 28 23 30 75 30 75 00 00
2026-07-11T17:46:50.461717,17.172,can0  040  [04]  64 01 18 00
2026-07-11T17:46:50.462007,17.173,can0  204  [16]  6E 23 1C D2 24 99 E9 F1 28 23 30 75 30 75 00 00
2026-07-11T17:46:50.560169,17.271,can0  204  [16]  6E 23 1C D2 24 99 E9 F1 28 23 30 75 30 75 00 00
2026-07-11T17:46:50.560447,17.271,can0  204  [16]  6E 23 1C D2 24 99 E9 F1 28 23 30 75 30 75 00 00
2026-07-11T17:46:50.661046,17.372,can0  204  [16]  6E 23 1C D2 24 99 E9 F1 28 23 30 75 30 75 00 00
2026-07-11T17:46:50.661287,17.372,can0  040  [04]  64 01 18 00
2026-07-11T17:46:50.661586,17.372,can0  041  [04]  2B 01 0A 00
2026-07-11T17:46:50.661872,17.373,can0  204  [16]  6E 23 1C D2 24 99 E9 F1 28 23 30 75 30 75 00 00
2026-07-11T17:46:50.662072,17.373,can0  040  [04]  64 01 18 00
2026-07-11T17:46:50.760451,17.471,can0  204  [16]  6E 23 1C D2 24 99 E9 F1 28 23 30 75 30 75 00 00
2026-07-11T17:46:50.760739,17.471,can0  204  [16]  6E 23 1C D2 24 99 E9 F1 28 23 30 75 30 75 00 00
2026-07-11T17:46:50.860187,17.571,can0  204  [16]  6E 23 1C D2 24 99 E9 F1 28 23 30 75 30 75 00 00
2026-07-11T17:46:50.860444,17.571,can0  070  [20]  9D 2C 4D 08 8D B1 62 03 20 CB 00 00 2E 00 00 00 35 00 00 00
2026-07-11T17:46:50.860751,17.572,can0  204  [16]  6E 23 1C D2 24 99 E9 F1 28 23 30 75 30 75 00 00
2026-07-11T17:46:50.960669,17.671,can0  040  [04]  64 01 17 00
2026-07-11T17:46:50.960943,17.672,can0  204  [16]  6E 23 1C D2 24 99 E9 F1 28 23 30 75 30 75 00 00
2026-07-11T17:46:50.965409,17.676,can0  041  [04]  2E 01 09 00
2026-07-11T17:46:50.965776,17.677,can0  110  [02]  31 1B
2026-07-11T17:46:50.966149,17.677,can0  070  [20]  9D 2C 4D 08 8D B1 62 03 20 CB 00 00 2E 00 00 00 35 00 00 00
2026-07-11T17:46:50.966485,17.677,can0  040  [04]  64 01 17 00
2026-07-11T17:46:50.966696,17.677,can0  204  [16]  6E 23 1C D2 24 99 E9 F1 28 23 30 75 30 75 00 00
2026-07-11T17:46:51.061066,17.772,can0  204  [16]  6E 23 1C D2 24 99 E9 F1 28 23 30 75 30 75 00 00
2026-07-11T17:46:51.065262,17.776,can0  204  [16]  6E 23 1C D2 24 99 E9 F1 28 23 30 75 30 75 00 00
2026-07-11T17:46:51.160712,17.871,can0  204  [16]  6E 23 1C D2 24 99 E9 F1 28 23 30 75 30 75 00 00
2026-07-11T17:46:51.164445,17.875,can0  040  [04]  64 01 16 00
2026-07-11T17:46:51.164498,17.875,can0  204  [16]  6E 23 1C D2 24 99 E9 F1 28 23 30 75 30 75 00 00
2026-07-11T17:46:51.260578,17.971,can0  041  [04]  19 01 0A 00
2026-07-11T17:46:51.260745,17.971,can0  040  [04]  64 01 16 00
2026-07-11T17:46:51.261024,17.972,can0  204  [16]  6E 23 1C D2 24 99 E9 F1 28 23 30 75 30 75 00 00
2026-07-11T17:46:51.261272,17.972,can0  070  [20]  9D 2C 4D 08 8E B1 62 03 08 CF 00 00 2E 00 00 00 23 00 00 00
2026-07-11T17:46:51.261546,17.972,can0  070  [20]  9D 2C 4D 08 8E B1 62 03 08 CF 00 00 2E 00 00 00 24 00 00 00
2026-07-11T17:46:51.261895,17.973,can0  204  [16]  6E 23 1C D2 24 99 E9 F1 28 23 30 75 30 75 00 00
2026-07-11T17:46:51.361141,18.072,can0  060  [32]  D7 93 D6 02 7C E5 4D 08 21 64 62 03 46 01 95 0A 0E 01 80 00 00 00 00 00 02 00 00 00 00 00 00 00
2026-07-11T17:46:51.361331,18.072,can0  060  [32]  00 00 00 00 9D 2C 4D 08 E3 06 B8 10 00 00 10 0E FF 01 00 00 00 00 00 01 02 00 00 00 00 00 00 00
2026-07-11T17:46:51.361974,18.073,can0  204  [16]  6E 23 1C D2 24 99 E9 F1 28 23 30 75 30 75 00 00
2026-07-11T17:46:51.362261,18.073,can0  100  [03]  76 7F 04
2026-07-11T17:46:51.362523,18.073,can0  120  [04]  00 00 00 00
2026-07-11T17:46:51.363159,18.074,can0  070  [20]  9D 2C 4D 08 8E B1 62 03 08 CF 00 00 2E 00 00 00 24 00 00 00
2026-07-11T17:46:51.363492,18.074,can0  204  [16]  6E 23 1C D2 24 99 E9 F1 28 23 30 75 30 75 00 00
2026-07-11T17:46:51.460700,18.171,can0  040  [04]  67 01 17 00
2026-07-11T17:46:51.461049,18.172,can0  204  [16]  6E 23 1C D2 24 99 E9 F1 28 23 30 75 30 75 00 00
2026-07-11T17:46:51.465585,18.176,can0  041  [04]  10 01 09 00
2026-07-11T17:46:51.465696,18.176,can0  204  [16]  6E 23 1C D2 24 99 E9 F1 28 23 30 75 30 75 00 00
2026-07-11T17:46:51.560526,18.271,can0  040  [04]  67 01 17 00
2026-07-11T17:46:51.560839,18.272,can0  204  [16]  6E 23 1C D2 24 99 E9 F1 28 23 30 75 30 75 00 00
2026-07-11T17:46:51.561111,18.272,can0  204  [16]  6E 23 1C D2 24 99 E9 F1 28 23 30 75 30 75 00 00
2026-07-11T17:46:51.660713,18.371,can0  204  [16]  6E 23 1C D2 24 99 E9 F1 28 23 30 75 30 75 00 00
2026-07-11T17:46:51.664468,18.375,can0  204  [16]  6E 23 1C D2 24 99 E9 F1 28 23 30 75 30 75 00 00
2026-07-11T17:46:51.760851,18.472,can0  040  [04]  67 01 14 00
2026-07-11T17:46:51.760918,18.472,can0  041  [04]  18 01 0A 00
2026-07-11T17:46:51.765873,18.477,can0  204  [16]  6E 23 1C D2 24 99 E9 F1 28 23 30 75 30 75 00 00
2026-07-11T17:46:51.765944,18.477,can0  040  [04]  67 01 14 00
2026-07-11T17:46:51.765986,18.477,can0  204  [16]  6E 23 1C D2 24 99 E9 F1 28 23 30 75 30 75 00 00
2026-07-11T17:46:51.860190,18.571,can0  060  [32]  00 00 00 00 00 00 00 00 00 00 00 00 00 00 00 00 00 00 00 00 00 00 00 00 00 00 00 00 00 00 00 00
2026-07-11T17:46:51.860504,18.571,can0  204  [16]  6E 23 1C D2 24 99 E9 F1 28 23 30 75 30 75 00 00
2026-07-11T17:46:51.860819,18.572,can0  070  [20]  9D 2C 4D 08 8E B1 62 03 08 CF 00 00 2E 00 00 00 24 00 00 00
2026-07-11T17:46:51.865798,18.577,can0  204  [16]  6E 23 1C D2 24 99 E9 F1 28 23 30 75 30 75 00 00
2026-07-11T17:46:51.960845,18.672,can0  070  [20]  9D 2C 4D 08 8E B1 62 03 08 CF 00 00 2E 00 00 00 24 00 00 00
2026-07-11T17:46:51.961706,18.672,can0  204  [16]  6E 23 1C D2 24 99 E9 F1 28 23 30 75 30 75 00 00
2026-07-11T17:46:51.961756,18.673,can0  040  [04]  63 01 14 00
2026-07-11T17:46:51.961800,18.673,can0  204  [16]  6E 23 1C D2 24 99 E9 F1 28 23 30 75 30 75 00 00
2026-07-11T17:46:51.961843,18.673,can0  041  [04]  1D 01 0B 00
2026-07-11T17:46:52.060768,18.772,can0  040  [04]  63 01 14 00
2026-07-11T17:46:52.065672,18.776,can0  204  [16]  6E 23 1C D2 24 99 E9 F1 28 23 30 75 30 75 00 00
2026-07-11T17:46:52.065750,18.776,can0  204  [16]  6E 23 1C D2 24 99 E9 F1 28 23 30 75 30 75 00 00
2026-07-11T17:46:52.160716,18.871,can0  204  [16]  6E 23 1C D2 24 99 E9 F1 28 23 30 75 30 75 00 00
2026-07-11T17:46:52.160785,18.872,can0  204  [16]  6E 23 1C D2 24 99 E9 F1 28 23 30 75 30 75 00 00
2026-07-11T17:46:52.260253,18.971,can0  070  [20]  9D 2C 4D 08 90 B1 62 03 F0 D2 00 00 2E 00 00 00 45 00 00 00
2026-07-11T17:46:52.260648,18.971,can0  040  [04]  60 01 14 00
2026-07-11T17:46:52.260706,18.971,can0  204  [16]  6E 23 1C D2 24 99 E9 F1 28 23 30 75 30 75 00 00
2026-07-11T17:46:52.260933,18.972,can0  070  [20]  9D 2C 4D 08 90 B1 62 03 F0 D2 00 00 2E 00 00 00 45 00 00 00
2026-07-11T17:46:52.261203,18.972,can0  041  [04]  27 01 0D 00
2026-07-11T17:46:52.261420,18.972,can0  040  [04]  60 01 14 00
2026-07-11T17:46:52.261613,18.972,can0  204  [16]  6E 23 1C D2 24 99 E9 F1 28 23 30 75 30 75 00 00
2026-07-11T17:46:52.360510,19.071,can0  060  [32]  00 00 00 00 00 00 00 00 00 00 00 00 00 00 00 00 00 00 00 00 00 00 00 00 00 00 00 00 00 00 00 00
2026-07-11T17:46:52.360827,19.072,can0  204  [16]  6E 23 1C D2 24 99 E9 F1 28 23 30 75 30 75 00 00
2026-07-11T17:46:52.361051,19.072,can0  060  [32]  00 00 00 00 9D 2C 4D 08 E5 06 B8 10 00 00 10 0E FF 01 00 00 00 00 00 00 01 00 00 00 00 00 00 00
2026-07-11T17:46:52.366629,19.077,can0  070  [20]  9D 2C 4D 08 90 B1 62 03 F0 D2 00 00 2E 00 00 00 45 00 00 00
2026-07-11T17:46:52.366717,19.077,can0  204  [16]  6E 23 1C D2 24 99 E9 F1 28 23 30 75 30 75 00 00
2026-07-11T17:46:52.460635,19.171,can0  204  [16]  6E 23 1C D2 24 99 E9 F1 28 23 30 75 30 75 00 00
2026-07-11T17:46:52.464914,19.176,can0  204  [16]  6E 23 1C D2 24 99 E9 F1 28 23 30 75 30 75 00 00
2026-07-11T17:46:52.560691,19.271,can0  040  [04]  5B 01 13 00
2026-07-11T17:46:52.561301,19.272,can0  041  [04]  2D 01 0E 00
2026-07-11T17:46:52.561352,19.272,can0  100  [03]  75 7F 04
2026-07-11T17:46:52.561394,19.272,can0  110  [02]  32 1B
2026-07-11T17:46:52.561462,19.272,can0  120  [04]  00 00 00 00
2026-07-11T17:46:52.561556,19.272,can0  040  [04]  5B 01 13 00
2026-07-11T17:46:52.561790,19.273,can0  204  [16]  6E 23 1C D2 24 99 E9 F1 28 23 30 75 30 75 00 00
2026-07-11T17:46:52.660558,19.371,can0  204  [16]  6E 23 1C D2 24 99 E9 F1 28 23 30 75 30 75 00 00
2026-07-11T17:46:52.660776,19.372,can0  204  [16]  6E 23 1C D2 24 99 E9 F1 28 23 30 75 30 75 00 00
2026-07-11T17:46:52.760278,19.471,can0  204  [16]  6E 23 1C D2 24 99 E9 F1 28 23 30 75 30 75 00 00
2026-07-11T17:46:52.760589,19.471,can0  204  [16]  6E 23 1C D2 24 99 E9 F1 28 23 30 75 30 75 00 00
2026-07-11T17:46:52.763813,19.475,can0  040  [04]  59 01 10 00
2026-07-11T17:46:52.763871,19.475,can0  041  [04]  30 01 0E 00
2026-07-11T17:46:52.860441,19.571,can0  204  [16]  6E 23 1C D2 24 99 E9 F1 28 23 30 75 30 75 00 00
2026-07-11T17:46:52.860621,19.571,can0  040  [04]  59 01 10 00
2026-07-11T17:46:52.864988,19.576,can0  204  [16]  6E 23 1C D2 24 99 E9 F1 28 23 30 75 30 75 00 00
2026-07-11T17:46:52.865080,19.576,can0  070  [20]  9D 2C 4D 08 90 B1 62 03 F0 D2 00 00 2E 00 00 00 45 00 00 00
2026-07-11T17:46:52.965768,19.677,can0  204  [16]  6E 23 1C D2 24 99 E9 F1 28 23 30 75 30 75 00 00
2026-07-11T17:46:52.965853,19.677,can0  070  [20]  9D 2C 4D 08 90 B1 62 03 F0 D2 00 00 2E 00 00 00 45 00 00 00
2026-07-11T17:46:52.965898,19.677,can0  204  [16]  6E 23 1C D2 24 99 E9 F1 28 23 30 75 30 75 00 00
2026-07-11T17:46:53.061183,19.772,can0  204  [16]  6E 23 1C D2 24 99 E9 F1 28 23 30 75 30 75 00 00
2026-07-11T17:46:53.061253,19.772,can0  040  [04]  53 01 10 00
2026-07-11T17:46:53.061515,19.772,can0  204  [16]  6E 23 1C D2 24 99 E9 F1 28 23 30 75 30 75 00 00
2026-07-11T17:46:53.066787,19.778,can0  041  [04]  29 01 0E 00
2026-07-11T17:46:53.066857,19.778,can0  040  [04]  53 01 10 00
2026-07-11T17:46:53.161051,19.872,can0  204  [16]  6E 23 1C D2 24 99 E9 F1 28 23 30 75 30 75 00 00
2026-07-11T17:46:53.164538,19.875,can0  204  [16]  6E 23 1C D2 24 99 E9 F1 28 23 30 75 30 75 00 00
2026-07-11T17:46:53.260965,19.972,can0  204  [16]  6E 23 1C D2 24 99 E9 F1 28 23 30 75 30 75 00 00
2026-07-11T17:46:53.261074,19.972,can0  070  [20]  9D 2C 4D 08 92 B1 62 03 D8 D6 00 00 2E 00 00 00 30 00 00 00
2026-07-11T17:46:53.261139,19.972,can0  204  [16]  6E 23 1C D2 24 99 E9 F1 28 23 30 75 30 75 00 00
2026-07-11T17:46:53.266489,19.977,can0  070  [20]  9D 2C 4D 08 92 B1 62 03 D8 D6 00 00 2E 00 00 00 30 00 00 00
2026-07-11T17:46:53.360919,20.072,can0  040  [04]  54 01 10 00
2026-07-11T17:46:53.361201,20.072,can0  204  [16]  6E 23 1C D2 24 99 E9 F1 28 23 30 75 30 75 00 00
2026-07-11T17:46:53.361404,20.072,can0  041  [04]  2D 01 0E 00
2026-07-11T17:46:53.361695,20.072,can0  060  [32]  67 99 D6 02 71 82 4D 08 6E 45 64 03 10 00 A2 05 57 01 FF 00 00 00 00 00 03 00 00 00 00 00 00 00
2026-07-11T17:46:53.361927,20.073,can0  060  [32]  59 84 D6 02 C6 8F 4D 08 E9 76 64 03 30 00 63 0B 1D 01 01 00 00 00 00 01 03 00 00 00 00 00 00 00
2026-07-11T17:46:53.362102,20.073,can0  060  [32]  00 00 00 00 9D 2C 4D 08 E6 06 B8 10 00 00 10 0E FF 01 00 00 00 00 00 02 03 00 00 00 00 00 00 00
2026-07-11T17:46:53.362929,20.074,can0  204  [16]  6E 23 1C D2 24 99 E9 F1 28 23 30 75 30 75 00 00
2026-07-11T17:46:53.362981,20.074,can0  070  [20]  9D 2C 4D 08 92 B1 62 03 D8 D6 00 00 2E 00 00 00 30 00 00 00
2026-07-11T17:46:53.461104,20.172,can0  204  [16]  6E 23 1C D2 24 99 E9 F1 28 23 30 75 30 75 00 00
2026-07-11T17:46:53.466761,20.178,can0  204  [16]  6E 23 1C D2 24 99 E9 F1 28 23 30 75 30 75 00 00
2026-07-11T17:46:53.561032,20.272,can0  204  [16]  6E 23 1C D2 24 99 E9 F1 28 23 30 75 30 75 00 00
2026-07-11T17:46:53.561325,20.272,can0  204  [16]  6E 23 1C D2 24 99 E9 F1 28 23 30 75 30 75 00 00
2026-07-11T17:46:53.561583,20.272,can0  040  [04]  63 01 11 00
2026-07-11T17:46:53.566728,20.277,can0  041  [04]  3C 01 0F 00
2026-07-11T17:46:53.660711,20.371,can0  204  [16]  6E 23 1C D2 24 99 E9 F1 28 23 30 75 30 75 00 00
2026-07-11T17:46:53.661008,20.372,can0  040  [04]  63 01 11 00
2026-07-11T17:46:53.665660,20.376,can0  204  [16]  6E 23 1C D2 24 99 E9 F1 28 23 30 75 30 75 00 00
2026-07-11T17:46:53.760838,20.472,can0  204  [16]  6E 23 1C D2 24 99 E9 F1 28 23 30 75 30 75 00 00
2026-07-11T17:46:53.761048,20.472,can0  100  [03]  72 7F 04
2026-07-11T17:46:53.761268,20.472,can0  120  [04]  00 00 00 00
2026-07-11T17:46:53.761588,20.472,can0  204  [16]  6E 23 1C D2 24 99 E9 F1 28 23 30 75 30 75 00 00
2026-07-11T17:46:53.860199,20.571,can0  204  [16]  6E 23 1C D2 24 99 E9 F1 28 23 30 75 30 75 00 00
2026-07-11T17:46:53.860425,20.571,can0  040  [04]  5F 01 11 00
2026-07-11T17:46:53.860644,20.571,can0  060  [32]  00 00 00 00 00 00 00 00 00 00 00 00 00 00 00 00 00 00 00 00 00 00 00 00 00 00 00 00 00 00 00 00
2026-07-11T17:46:53.860840,20.572,can0  041  [04]  3F 01 0F 00
2026-07-11T17:46:53.861142,20.572,can0  204  [16]  6E 23 1C D2 24 99 E9 F1 28 23 30 75 30 75 00 00
2026-07-11T17:46:53.861369,20.572,can0  070  [20]  9D 2C 4D 08 92 B1 62 03 D8 D6 00 00 2E 00 00 00 30 00 00 00
2026-07-11T17:46:53.861581,20.572,can0  040  [04]  5F 01 11 00
2026-07-11T17:46:53.961659,20.672,can0  204  [16]  6E 23 1C D2 24 99 E9 F1 28 23 30 75 30 75 00 00
2026-07-11T17:46:53.961726,20.672,can0  070  [20]  9D 2C 4D 08 92 B1 62 03 D8 D6 00 00 2E 00 00 00 30 00 00 00
2026-07-11T17:46:53.961771,20.673,can0  204  [16]  6E 23 1C D2 24 99 E9 F1 28 23 30 75 30 75 00 00
2026-07-11T17:46:54.061084,20.772,can0  204  [16]  6E 23 1C D2 24 99 E9 F1 28 23 30 75 30 75 00 00
2026-07-11T17:46:54.061344,20.772,can0  204  [16]  6E 23 1C D2 24 99 E9 F1 28 23 30 75 30 75 00 00
2026-07-11T17:46:54.061627,20.772,can0  040  [04]  5E 01 11 00
2026-07-11T17:46:54.160732,20.871,can0  204  [16]  6E 23 1C D2 24 99 E9 F1 28 23 30 75 30 75 00 00
2026-07-11T17:46:54.160802,20.872,can0  041  [04]  3F 01 0D 00
2026-07-11T17:46:54.160846,20.872,can0  110  [02]  31 1B
2026-07-11T17:46:54.164387,20.875,can0  040  [04]  5E 01 11 00
2026-07-11T17:46:54.164477,20.875,can0  204  [16]  6E 23 1C D2 24 99 E9 F1 28 23 30 75 30 75 00 00
2026-07-11T17:46:54.264231,20.975,can0  204  [16]  6E 23 1C D2 24 99 E9 F1 28 23 30 75 30 75 00 00
2026-07-11T17:46:54.264341,20.975,can0  070  [20]  9D 2C 4D 08 92 B1 62 03 C0 DA 00 00 2E 00 00 00 23 00 00 00
2026-07-11T17:46:54.264390,20.975,can0  070  [20]  9D 2C 4D 08 92 B1 62 03 C0 DA 00 00 2E 00 00 00 23 00 00 00
2026-07-11T17:46:54.264437,20.975,can0  204  [16]  6E 23 1C D2 24 99 E9 F1 28 23 30 75 30 75 00 00
2026-07-11T17:46:54.360973,21.072,can0  204  [16]  6E 23 1C D2 24 99 E9 F1 28 23 30 75 30 75 00 00
2026-07-11T17:46:54.361041,21.072,can0  070  [20]  9D 2C 4D 08 92 B1 62 03 C0 DA 00 00 2E 00 00 00 23 00 00 00
2026-07-11T17:46:54.361281,21.072,can0  060  [32]  00 00 00 00 00 00 00 00 00 00 00 00 00 00 00 00 00 00 00 00 00 00 00 00 00 00 00 00 00 00 00 00
2026-07-11T17:46:54.361865,21.073,can0  040  [04]  51 01 0D 00
2026-07-11T17:46:54.361919,21.073,can0  204  [16]  6E 23 1C D2 24 99 E9 F1 28 23 30 75 30 75 00 00
2026-07-11T17:46:54.362055,21.073,can0  060  [32]  00 00 00 00 9D 2C 4D 08 E6 06 B8 10 00 00 10 0E FF 01 00 00 00 00 00 00 01 00 00 00 00 00 00 00
2026-07-11T17:46:54.362727,21.073,can0  041  [04]  46 01 0D 00
2026-07-11T17:46:54.460253,21.171,can0  204  [16]  6E 23 1C D2 24 99 E9 F1 28 23 30 75 30 75 00 00
2026-07-11T17:46:54.460472,21.171,can0  040  [04]  51 01 0D 00
2026-07-11T17:46:54.460811,21.172,can0  204  [16]  6E 23 1C D2 24 99 E9 F1 28 23 30 75 30 75 00 00
2026-07-11T17:46:54.560632,21.271,can0  204  [16]  6E 23 1C D2 24 99 E9 F1 28 23 30 75 30 75 00 00
2026-07-11T17:46:54.565854,21.277,can0  131  [00]
2026-07-11T17:46:54.565926,21.277,can0  204  [16]  6E 23 1C D2 24 99 E9 F1 28 23 30 75 30 75 00 00
2026-07-11T17:46:54.661149,21.372,can0  204  [16]  6E 23 1C D2 24 99 E9 F1 28 23 30 75 30 75 00 00
2026-07-11T17:46:54.661726,21.372,can0  040  [04]  4A 01 0E 00
2026-07-11T17:46:54.661777,21.373,can0  041  [04]  5A 01 0C 00
2026-07-11T17:46:54.661821,21.373,can0  204  [16]  6E 23 1C D2 24 99 E9 F1 28 23 30 75 30 75 00 00
2026-07-11T17:46:54.760319,21.471,can0  040  [04]  4A 01 0E 00
2026-07-11T17:46:54.760863,21.472,can0  133  [00]
2026-07-11T17:46:54.760912,21.472,can0  204  [16]  6E 23 1C D2 24 99 E9 F1 28 23 30 75 30 75 00 00
2026-07-11T17:46:54.763983,21.475,can0  204  [16]  6E 23 1C D2 24 99 E9 F1 28 23 30 75 30 75 00 00
2026-07-11T17:46:54.861145,21.572,can0  204  [16]  6E 23 1C D2 24 99 E9 F1 28 23 30 75 30 75 00 00
2026-07-11T17:46:54.861425,21.572,can0  070  [20]  9D 2C 4D 08 92 B1 62 03 C0 DA 00 00 2E 00 00 00 23 00 00 00
2026-07-11T17:46:54.861822,21.573,can0  204  [16]  6E 23 1C D2 24 99 E9 F1 28 23 30 75 30 75 00 00
2026-07-11T17:46:54.867077,21.578,can0  040  [04]  4A 01 0F 00
2026-07-11T17:46:54.961457,21.672,can0  204  [16]  6E 23 1C D2 24 99 E9 F1 28 23 30 75 30 75 00 00
2026-07-11T17:46:54.961524,21.672,can0  070  [20]  9D 2C 4D 08 92 B1 62 03 C0 DA 00 00 2E 00 00 00 23 00 00 00
2026-07-11T17:46:54.961573,21.672,can0  041  [04]  5F 01 0B 00
2026-07-11T17:46:54.961617,21.672,can0  100  [03]  70 7F 04
2026-07-11T17:46:54.961704,21.672,can0  120  [04]  00 00 00 00
2026-07-11T17:46:54.961919,21.673,can0  040  [04]  4A 01 0F 00
2026-07-11T17:46:54.962255,21.673,can0  204  [16]  6E 23 1C D2 24 99 E9 F1 28 23 30 75 30 75 00 00
2026-07-11T17:46:55.063177,21.774,can0  204  [16]  6E 23 1C D2 24 99 E9 F1 28 23 30 75 30 75 00 00
2026-07-11T17:46:55.063251,21.774,can0  204  [16]  6E 23 1C D2 24 99 E9 F1 28 23 30 75 30 75 00 00
2026-07-11T17:46:55.160724,21.871,can0  204  [16]  6E 23 1C D2 24 99 E9 F1 28 23 30 75 30 75 00 00
2026-07-11T17:46:55.166298,21.877,can0  040  [04]  50 01 11 00
2026-07-11T17:46:55.166373,21.877,can0  204  [16]  6E 23 1C D2 24 99 E9 F1 28 23 30 75 30 75 00 00
2026-07-11T17:46:55.166417,21.877,can0  041  [04]  02 00 0A 00
2026-07-11T17:46:55.260661,21.971,can0  040  [04]  50 01 11 00
2026-07-11T17:46:55.261770,21.973,can0  204  [16]  6E 23 1C D2 24 99 E9 F1 28 23 30 75 30 75 00 00
2026-07-11T17:46:55.261827,21.973,can0  070  [20]  9D 2C 4D 08 90 B1 62 03 A8 DE 00 00 2E 00 00 00 4C 00 00 00
2026-07-11T17:46:55.261873,21.973,can0  204  [16]  6E 23 1C D2 24 99 E9 F1 28 23 30 75 30 75 00 00
2026-07-11T17:46:55.265898,21.977,can0  070  [20]  9D 2C 4D 08 90 B1 62 03 A8 DE 00 00 2E 00 00 00 4C 00 00 00
2026-07-11T17:46:55.360744,22.071,can0  204  [16]  6E 23 1C D2 24 99 E9 F1 28 23 30 75 30 75 00 00
2026-07-11T17:46:55.361240,22.072,can0  070  [20]  9D 2C 4D 08 90 B1 62 03 A8 DE 00 00 2E 00 00 00 4C 00 00 00
2026-07-11T17:46:55.361288,22.072,can0  204  [16]  6E 23 1C D2 24 99 E9 F1 28 23 30 75 30 75 00 00
2026-07-11T17:46:55.361536,22.072,can0  060  [32]  C0 E0 E8 05 26 78 4D 08 A6 71 62 03 00 00 06 00 F0 00 80 00 00 00 00 00 04 00 00 00 00 00 00 00
2026-07-11T17:46:55.361865,22.073,can0  060  [32]  D7 93 D6 02 89 E5 4D 08 85 60 62 03 46 01 96 0A 0E 01 80 00 00 00 00 01 04 00 00 00 00 00 00 00
2026-07-11T17:46:55.366935,22.078,can0  060  [32]  A8 A7 D6 02 59 29 4D 08 D8 3E B8 10 00 00 AC 00 FF 01 00 00 00 00 00 02 04 00 00 00 00 00 00 00
2026-07-11T17:46:55.461197,22.172,can0  060  [32]  00 00 00 00 00 00 00 00 00 00 00 00 00 00 00 00 00 00 00 00 00 00 00 00 00 00 00 00 00 00 00 00
2026-07-11T17:46:55.461302,22.172,can0  040  [04]  50 01 10 00
2026-07-11T17:46:55.461993,22.173,can0  204  [16]  6E 23 1C D2 24 99 E9 F1 28 23 30 75 30 75 00 00
2026-07-11T17:46:55.462042,22.173,can0  041  [04]  60 01 07 00
2026-07-11T17:46:55.462082,22.173,can0  040  [04]  50 01 10 00
2026-07-11T17:46:55.462352,22.173,can0  204  [16]  6E 23 1C D2 24 99 E9 F1 28 23 30 75 30 75 00 00
2026-07-11T17:46:55.560430,22.271,can0  204  [16]  6E 23 1C D2 24 99 E9 F1 28 23 30 75 30 75 00 00
2026-07-11T17:46:55.560719,22.271,can0  204  [16]  6E 23 1C D2 24 99 E9 F1 28 23 30 75 30 75 00 00
2026-07-11T17:46:55.660835,22.372,can0  204  [16]  6E 23 1C D2 24 99 E9 F1 28 23 30 75 30 75 00 00
2026-07-11T17:46:55.660904,22.372,can0  204  [16]  6E 23 1C D2 24 99 E9 F1 28 23 30 75 30 75 00 00
2026-07-11T17:46:55.663455,22.374,can0  040  [04]  48 01 0F 00
2026-07-11T17:46:55.761553,22.472,can0  041  [04]  57 01 06 00
2026-07-11T17:46:55.761620,22.472,can0  204  [16]  6E 23 1C D2 24 99 E9 F1 28 23 30 75 30 75 00 00
2026-07-11T17:46:55.761684,22.472,can0  110  [02]  30 1B
2026-07-11T17:46:55.761819,22.473,can0  040  [04]  48 01 0F 00
2026-07-11T17:46:55.762076,22.473,can0  204  [16]  6E 23 1C D2 24 99 E9 F1 28 23 30 75 30 75 00 00
2026-07-11T17:46:55.860502,22.571,can0  204  [16]  6E 23 1C D2 24 99 E9 F1 28 23 30 75 30 75 00 00
2026-07-11T17:46:55.860569,22.571,can0  070  [20]  9D 2C 4D 08 90 B1 62 03 A8 DE 00 00 2E 00 00 00 4C 00 00 00
2026-07-11T17:46:55.866401,22.577,can0  204  [16]  6E 23 1C D2 24 99 E9 F1 28 23 30 75 30 75 00 00
2026-07-11T17:46:55.960593,22.671,can0  070  [20]  9D 2C 4D 08 90 B1 62 03 A8 DE 00 00 2E 00 00 00 4C 00 00 00
2026-07-11T17:46:55.960879,22.672,can0  204  [16]  6E 23 1C D2 24 99 E9 F1 28 23 30 75 30 75 00 00
2026-07-11T17:46:55.965086,22.676,can0  040  [04]  45 01 12 00
2026-07-11T17:46:55.965369,22.676,can0  204  [16]  6E 23 1C D2 24 99 E9 F1 28 23 30 75 30 75 00 00
2026-07-11T17:46:55.965677,22.676,can0  041  [04]  52 01 08 00
2026-07-11T17:46:56.060144,22.771,can0  040  [04]  45 01 12 00
2026-07-11T17:46:56.060397,22.771,can0  204  [16]  6E 23 1C D2 24 99 E9 F1 28 23 30 75 30 75 00 00
2026-07-11T17:46:56.060733,22.771,can0  204  [16]  6E 23 1C D2 24 99 E9 F1 28 23 30 75 30 75 00 00
2026-07-11T17:46:56.160521,22.871,can0  100  [03]  70 7F 04
2026-07-11T17:46:56.160822,22.872,can0  204  [16]  6E 23 1C D2 24 99 E9 F1 28 23 30 75 30 75 00 00
2026-07-11T17:46:56.161028,22.872,can0  120  [04]  00 00 00 00
2026-07-11T17:46:56.161387,22.872,can0  204  [16]  6E 23 1C D2 24 99 E9 F1 28 23 30 75 30 75 00 00
2026-07-11T17:46:56.260521,22.971,can0  070  [20]  9F 2C 4D 08 90 B1 62 03 90 E2 00 00 2E 00 00 00 45 00 00 00
2026-07-11T17:46:56.260770,22.972,can0  040  [04]  4B 01 15 00
2026-07-11T17:46:56.261028,22.972,can0  204  [16]  6E 23 1C D2 24 99 E9 F1 28 23 30 75 30 75 00 00
2026-07-11T17:46:56.261285,22.972,can0  041  [04]  52 01 08 00
2026-07-11T17:46:56.261563,22.972,can0  070  [20]  9F 2C 4D 08 90 B1 62 03 90 E2 00 00 2E 00 00 00 44 00 00 00
2026-07-11T17:46:56.261820,22.973,can0  040  [04]  4B 01 15 00
2026-07-11T17:46:56.262127,22.973,can0  204  [16]  6E 23 1C D2 24 99 E9 F1 28 23 30 75 30 75 00 00
2026-07-11T17:46:56.360268,23.071,can0  204  [16]  6E 23 1C D2 24 99 E9 F1 28 23 30 75 30 75 00 00
2026-07-11T17:46:56.360840,23.072,can0  070  [20]  9F 2C 4D 08 90 B1 62 03 90 E2 00 00 2E 00 00 00 44 00 00 00
2026-07-11T17:46:56.361101,23.072,can0  204  [16]  6E 23 1C D2 24 99 E9 F1 28 23 30 75 30 75 00 00
2026-07-11T17:46:56.460321,23.171,can0  060  [32]  3B AD D6 02 64 55 4D 08 5B 38 64 03 00 00 10 0E FF 01 00 00 00 00 00 00 02 00 00 00 00 00 00 00
2026-07-11T17:46:56.460519,23.171,can0  060  [32]  00 00 00 00 9F 2C 4D 08 E5 06 B8 10 00 00 10 0E FF 01 00 00 00 00 00 01 02 00 00 00 00 00 00 00
2026-07-11T17:46:56.461159,23.172,can0  204  [16]  6E 23 1C D2 24 99 E9 F1 28 23 30 75 30 75 00 00
2026-07-11T17:46:56.461516,23.172,can0  204  [16]  6E 23 1C D2 24 99 E9 F1 28 23 30 75 30 75 00 00
2026-07-11T17:46:56.461810,23.173,can0  040  [04]  4F 01 16 00
2026-07-11T17:46:56.560835,23.272,can0  041  [04]  4D 01 07 00
2026-07-11T17:46:56.561093,23.272,can0  204  [16]  6E 23 1C D2 24 99 E9 F1 28 23 30 75 30 75 00 00
2026-07-11T17:46:56.561303,23.272,can0  040  [04]  4F 01 16 00
2026-07-11T17:46:56.561621,23.272,can0  204  [16]  6E 23 1C D2 24 99 E9 F1 28 23 30 75 30 75 00 00
2026-07-11T17:46:56.660605,23.371,can0  204  [16]  6E 23 1C D2 24 99 E9 F1 28 23 30 75 30 75 00 00
2026-07-11T17:46:56.660864,23.372,can0  204  [16]  6E 23 1C D2 24 99 E9 F1 28 23 30 75 30 75 00 00
2026-07-11T17:46:56.760422,23.471,can0  204  [16]  6E 23 1C D2 24 99 E9 F1 28 23 30 75 30 75 00 00
2026-07-11T17:46:56.760713,23.471,can0  040  [04]  56 01 13 00
2026-07-11T17:46:56.760943,23.472,can0  041  [04]  3F 01 07 00
2026-07-11T17:46:56.761190,23.472,can0  204  [16]  6E 23 1C D2 24 99 E9 F1 28 23 30 75 30 75 00 00
2026-07-11T17:46:56.860545,23.571,can0  040  [04]  56 01 13 00
2026-07-11T17:46:56.860838,23.572,can0  204  [16]  6E 23 1C D2 24 99 E9 F1 28 23 30 75 30 75 00 00
2026-07-11T17:46:56.861070,23.572,can0  070  [20]  9F 2C 4D 08 90 B1 62 03 90 E2 00 00 2E 00 00 00 44 00 00 00
2026-07-11T17:46:56.861397,23.572,can0  204  [16]  6E 23 1C D2 24 99 E9 F1 28 23 30 75 30 75 00 00
2026-07-11T17:46:56.861706,23.572,can0  060  [32]  00 00 00 00 00 00 00 00 00 00 00 00 00 00 00 00 00 00 00 00 00 00 00 00 00 00 00 00 00 00 00 00
2026-07-11T17:46:56.960710,23.671,can0  070  [20]  9F 2C 4D 08 90 B1 62 03 90 E2 00 00 2E 00 00 00 44 00 00 00
2026-07-11T17:46:56.961057,23.672,can0  204  [16]  6E 23 1C D2 24 99 E9 F1 28 23 30 75 30 75 00 00
2026-07-11T17:46:56.961313,23.672,can0  060  [32]  8A 36 D6 02 32 76 4D 08 D0 3B 64 03 75 00 11 09 E9 00 80 00 00 00 00 00 01 00 00 00 00 00 00 00
2026-07-11T17:46:56.961995,23.673,can0  204  [16]  6E 23 1C D2 24 99 E9 F1 28 23 30 75 30 75 00 00
2026-07-11T17:46:57.060700,23.771,can0  040  [04]  4F 01 0F 00
2026-07-11T17:46:57.061485,23.772,can0  204  [16]  6E 23 1C D2 24 99 E9 F1 28 23 30 75 30 75 00 00
2026-07-11T17:46:57.061534,23.772,can0  041  [04]  23 01 08 00
2026-07-11T17:46:57.061577,23.772,can0  040  [04]  4F 01 0F 00
2026-07-11T17:46:57.061619,23.772,can0  204  [16]  6E 23 1C D2 24 99 E9 F1 28 23 30 75 30 75 00 00
2026-07-11T17:46:57.160521,23.871,can0  204  [16]  6E 23 1C D2 24 99 E9 F1 28 23 30 75 30 75 00 00
2026-07-11T17:46:57.165554,23.876,can0  204  [16]  6E 23 1C D2 24 99 E9 F1 28 23 30 75 30 75 00 00
2026-07-11T17:46:57.260161,23.971,can0  070  [20]  9F 2C 4D 08 90 B1 62 03 78 E6 00 00 2E 00 00 00 27 00 00 00
2026-07-11T17:46:57.260488,23.971,can0  204  [16]  6E 23 1C D2 24 99 E9 F1 28 23 30 75 30 75 00 00
2026-07-11T17:46:57.260933,23.972,can0  070  [20]  9F 2C 4D 08 90 B1 62 03 78 E6 00 00 2E 00 00 00 26 00 00 00
2026-07-11T17:46:57.260984,23.972,can0  204  [16]  6E 23 1C D2 24 99 E9 F1 28 23 30 75 30 75 00 00
2026-07-11T17:46:57.261271,23.972,can0  040  [04]  4D 01 10 00
2026-07-11T17:46:57.360482,24.071,can0  041  [04]  29 01 0B 00
2026-07-11T17:46:57.360904,24.072,can0  100  [03]  6F 7F 04
2026-07-11T17:46:57.360981,24.072,can0  110  [02]  30 1B
2026-07-11T17:46:57.361179,24.072,can0  120  [04]  00 00 00 00
2026-07-11T17:46:57.361478,24.072,can0  040  [04]  4D 01 10 00
2026-07-11T17:46:57.362271,24.073,can0  204  [16]  6E 23 1C D2 24 99 E9 F1 28 23 30 75 30 75 00 00
2026-07-11T17:46:57.362318,24.073,can0  070  [20]  9F 2C 4D 08 90 B1 62 03 78 E6 00 00 2E 00 00 00 26 00 00 00
2026-07-11T17:46:57.362627,24.073,can0  204  [16]  6E 23 1C D2 24 99 E9 F1 28 23 30 75 30 75 00 00
2026-07-11T17:46:57.460304,24.171,can0  204  [16]  6E 23 1C D2 24 99 E9 F1 28 23 30 75 30 75 00 00
2026-07-11T17:46:57.468317,24.179,can0  204  [16]  6E 23 1C D2 24 99 E9 F1 28 23 30 75 30 75 00 00
2026-07-11T17:46:57.560646,24.271,can0  204  [16]  6E 23 1C D2 24 99 E9 F1 28 23 30 75 30 75 00 00
2026-07-11T17:46:57.566388,24.277,can0  040  [04]  4D 01 10 00
2026-07-11T17:46:57.566478,24.277,can0  041  [04]  37 01 0E 00
2026-07-11T17:46:57.661155,24.372,can0  204  [16]  6E 23 1C D2 24 99 E9 F1 28 23 30 75 30 75 00 00
2026-07-11T17:46:57.661222,24.372,can0  040  [04]  4D 01 10 00
2026-07-11T17:46:57.666818,24.378,can0  204  [16]  6E 23 1C D2 24 99 E9 F1 28 23 30 75 30 75 00 00
2026-07-11T17:46:57.760575,24.471,can0  204  [16]  6E 23 1C D2 24 99 E9 F1 28 23 30 75 30 75 00 00
2026-07-11T17:46:57.764628,24.475,can0  204  [16]  6E 23 1C D2 24 99 E9 F1 28 23 30 75 30 75 00 00
2026-07-11T17:46:57.860265,24.571,can0  204  [16]  6E 23 1C D2 24 99 E9 F1 28 23 30 75 30 75 00 00
2026-07-11T17:46:57.860640,24.571,can0  040  [04]  3A 01 10 00
2026-07-11T17:46:57.860702,24.571,can0  041  [04]  35 01 10 00
2026-07-11T17:46:57.860891,24.572,can0  204  [16]  6E 23 1C D2 24 99 E9 F1 28 23 30 75 30 75 00 00
2026-07-11T17:46:57.861164,24.572,can0  070  [20]  9F 2C 4D 08 90 B1 62 03 78 E6 00 00 2E 00 00 00 26 00 00 00
2026-07-11T17:46:57.861470,24.572,can0  040  [04]  3A 01 10 00
2026-07-11T17:46:57.960405,24.671,can0  204  [16]  6E 23 1C D2 24 99 E9 F1 28 23 30 75 30 75 00 00
2026-07-11T17:46:57.960713,24.671,can0  070  [20]  9F 2C 4D 08 90 B1 62 03 78 E6 00 00 2E 00 00 00 26 00 00 00
2026-07-11T17:46:57.960947,24.672,can0  060  [32]  26 6B D6 02 22 BD 4D 08 B1 1E 64 03 00 00 A8 0D 07 00 80 00 00 00 00 00 04 00 00 00 00 00 00 00
2026-07-11T17:46:57.961172,24.672,can0  060  [32]  73 ED D5 02 8D B9 4D 08 47 1E 64 03 00 00 A5 07 FF 01 00 00 00 00 00 01 04 00 00 00 00 00 00 00
2026-07-11T17:46:57.961441,24.672,can0  060  [32]  00 00 00 00 9F 2C 4D 08 E5 06 B8 10 00 00 10 0E FF 01 00 00 00 00 00 02 04 00 00 00 00 00 00 00
2026-07-11T17:46:57.961778,24.673,can0  204  [16]  6E 23 1C D2 24 99 E9 F1 28 23 30 75 30 75 00 00
2026-07-11T17:46:57.962032,24.673,can0  060  [32]  00 00 00 00 00 00 00 00 00 00 00 00 00 00 00 00 00 00 00 00 00 00 00 00 00 00 00 00 00 00 00 00
2026-07-11T17:46:58.060264,24.771,can0  204  [16]  6E 23 1C D2 24 99 E9 F1 28 23 30 75 30 75 00 00
2026-07-11T17:46:58.060511,24.771,can0  204  [16]  6E 23 1C D2 24 99 E9 F1 28 23 30 75 30 75 00 00
2026-07-11T17:46:58.060776,24.772,can0  040  [04]  30 01 11 00
2026-07-11T17:46:58.166106,24.877,can0  204  [16]  6E 23 1C D2 24 99 E9 F1 28 23 30 75 30 75 00 00
2026-07-11T17:46:58.166183,24.877,can0  041  [04]  27 01 0F 00
2026-07-11T17:46:58.166227,24.877,can0  040  [04]  30 01 11 00
2026-07-11T17:46:58.166270,24.877,can0  204  [16]  6E 23 1C D2 24 99 E9 F1 28 23 30 75 30 75 00 00
2026-07-11T17:46:58.260618,24.971,can0  204  [16]  6E 23 1C D2 24 99 E9 F1 28 23 30 75 30 75 00 00
2026-07-11T17:46:58.261046,24.972,can0  070  [20]  9F 2C 4D 08 90 B1 62 03 00 00 00 00 2F 00 00 00 2B 00 00 00
2026-07-11T17:46:58.261096,24.972,can0  070  [20]  9F 2C 4D 08 90 B1 62 03 00 00 00 00 2F 00 00 00 2A 00 00 00
2026-07-11T17:46:58.267853,24.979,can0  204  [16]  6E 23 1C D2 24 99 E9 F1 28 23 30 75 30 75 00 00
2026-07-11T17:46:58.360596,25.071,can0  204  [16]  6E 23 1C D2 24 99 E9 F1 28 23 30 75 30 75 00 00
2026-07-11T17:46:58.361109,25.072,can0  070  [20]  9F 2C 4D 08 90 B1 62 03 00 00 00 00 2F 00 00 00 2A 00 00 00
2026-07-11T17:46:58.361623,25.072,can0  040  [04]  2E 01 0E 00
2026-07-11T17:46:58.361680,25.072,can0  204  [16]  6E 23 1C D2 24 99 E9 F1 28 23 30 75 30 75 00 00
2026-07-11T17:46:58.361726,25.072,can0  041  [04]  19 01 10 00
2026-07-11T17:46:58.361822,25.073,can0  040  [04]  2E 01 0E 00
2026-07-11T17:46:58.460937,25.172,can0  204  [16]  6E 23 1C D2 24 99 E9 F1 28 23 30 75 30 75 00 00
2026-07-11T17:46:58.461185,25.172,can0  204  [16]  6E 23 1C D2 24 99 E9 F1 28 23 30 75 30 75 00 00
2026-07-11T17:46:58.560924,25.272,can0  204  [16]  6E 23 1C D2 24 99 E9 F1 28 23 30 75 30 75 00 00
2026-07-11T17:46:58.561175,25.272,can0  100  [03]  6E 7F 04
2026-07-11T17:46:58.561574,25.272,can0  120  [04]  00 00 00 00
2026-07-11T17:46:58.561619,25.272,can0  204  [16]  6E 23 1C D2 24 99 E9 F1 28 23 30 75 30 75 00 00
2026-07-11T17:46:58.561806,25.273,can0  060  [32]  00 00 00 00 9F 2C 4D 08 E5 06 B8 10 00 00 10 0E FF 01 00 00 00 00 00 00 02 00 00 00 00 00 00 00
2026-07-11T17:46:58.562048,25.273,can0  060  [32]  D7 93 D6 02 95 E5 4D 08 EA 5C 62 03 46 01 96 0A 0E 01 80 00 00 00 00 01 02 00 00 00 00 00 00 00
2026-07-11T17:46:58.660835,25.372,can0  040  [04]  29 01 0E 00
2026-07-11T17:46:58.661129,25.372,can0  204  [16]  6E 23 1C D2 24 99 E9 F1 28 23 30 75 30 75 00 00
2026-07-11T17:46:58.661610,25.372,can0  041  [04]  1B 01 0D 00
2026-07-11T17:46:58.661670,25.372,can0  204  [16]  6E 23 1C D2 24 99 E9 F1 28 23 30 75 30 75 00 00
2026-07-11T17:46:58.661810,25.373,can0  040  [04]  29 01 0E 00
2026-07-11T17:46:58.760471,25.471,can0  204  [16]  6E 23 1C D2 24 99 E9 F1 28 23 30 75 30 75 00 00
2026-07-11T17:46:58.760715,25.471,can0  204  [16]  6E 23 1C D2 24 99 E9 F1 28 23 30 75 30 75 00 00
2026-07-11T17:46:58.860542,25.571,can0  204  [16]  6E 23 1C D2 24 99 E9 F1 28 23 30 75 30 75 00 00
2026-07-11T17:46:58.860611,25.571,can0  070  [20]  9F 2C 4D 08 90 B1 62 03 00 00 00 00 2F 00 00 00 2A 00 00 00
2026-07-11T17:46:58.866645,25.577,can0  204  [16]  6E 23 1C D2 24 99 E9 F1 28 23 30 75 30 75 00 00
2026-07-11T17:46:58.866734,25.577,can0  040  [04]  18 01 0E 00
2026-07-11T17:46:58.961090,25.672,can0  204  [16]  6E 23 1C D2 24 99 E9 F1 28 23 30 75 30 75 00 00
2026-07-11T17:46:58.961315,25.672,can0  041  [04]  1B 01 0D 00
2026-07-11T17:46:58.961742,25.672,can0  070  [20]  9F 2C 4D 08 90 B1 62 03 00 00 00 00 2F 00 00 00 2A 00 00 00
2026-07-11T17:46:58.961796,25.673,can0  110  [02]  31 1B
2026-07-11T17:46:58.961990,25.673,can0  040  [04]  18 01 0E 00
2026-07-11T17:46:58.962270,25.673,can0  204  [16]  6E 23 1C D2 24 99 E9 F1 28 23 30 75 30 75 00 00
2026-07-11T17:46:59.060218,25.771,can0  204  [16]  6E 23 1C D2 24 99 E9 F1 28 23 30 75 30 75 00 00
2026-07-11T17:46:59.065361,25.776,can0  204  [16]  6E 23 1C D2 24 99 E9 F1 28 23 30 75 30 75 00 00
2026-07-11T17:46:59.160508,25.871,can0  204  [16]  6E 23 1C D2 24 99 E9 F1 28 23 30 75 30 75 00 00
2026-07-11T17:46:59.160600,25.871,can0  040  [04]  12 01 10 00
2026-07-11T17:46:59.161016,25.872,can0  204  [16]  6E 23 1C D2 24 99 E9 F1 28 23 30 75 30 75 00 00
2026-07-11T17:46:59.161098,25.872,can0  041  [04]  22 01 0C 00
2026-07-11T17:46:59.161178,25.872,can0  040  [04]  12 01 10 00
2026-07-11T17:46:59.261017,25.972,can0  204  [16]  6E 23 1C D2 24 99 E9 F1 28 23 30 75 30 75 00 00
2026-07-11T17:46:59.261335,25.972,can0  070  [20]  9F 2C 4D 08 92 B1 62 03 E8 03 00 00 2F 00 00 00 2B 00 00 00
2026-07-11T17:46:59.261693,25.972,can0  204  [16]  6E 23 1C D2 24 99 E9 F1 28 23 30 75 30 75 00 00
2026-07-11T17:46:59.266723,25.977,can0  070  [20]  9F 2C 4D 08 92 B1 62 03 E8 03 00 00 2F 00 00 00 2B 00 00 00
2026-07-11T17:46:59.361524,26.072,can0  204  [16]  6E 23 1C D2 24 99 E9 F1 28 23 30 75 30 75 00 00
2026-07-11T17:46:59.361606,26.072,can0  060  [32]  30 7B D6 02 0E B5 4D 08 06 1E 64 03 00 00 31 0D 57 00 80 00 00 00 00 00 01 00 00 00 00 00 00 00
2026-07-11T17:46:59.361689,26.072,can0  070  [20]  9F 2C 4D 08 92 B1 62 03 E8 03 00 00 2F 00 00 00 2B 00 00 00
2026-07-11T17:46:59.366755,26.078,can0  204  [16]  6E 23 1C D2 24 99 E9 F1 28 23 30 75 30 75 00 00
2026-07-11T17:46:59.460494,26.171,can0  040  [04]  0C 01 05 00
2026-07-11T17:46:59.460840,26.172,can0  204  [16]  6E 23 1C D2 24 99 E9 F1 28 23 30 75 30 75 00 00
2026-07-11T17:46:59.461112,26.172,can0  041  [04]  1D 01 0B 00
2026-07-11T17:46:59.461308,26.172,can0  040  [04]  0C 01 05 00
2026-07-11T17:46:59.461570,26.172,can0  204  [16]  6E 23 1C D2 24 99 E9 F1 28 23 30 75 30 75 00 00
2026-07-11T17:46:59.560422,26.271,can0  204  [16]  6E 23 1C D2 24 99 E9 F1 28 23 30 75 30 75 00 00
2026-07-11T17:46:59.560698,26.271,can0  204  [16]  6E 23 1C D2 24 99 E9 F1 28 23 30 75 30 75 00 00
2026-07-11T17:46:59.660503,26.371,can0  204  [16]  6E 23 1C D2 24 99 E9 F1 28 23 30 75 30 75 00 00
2026-07-11T17:46:59.660828,26.372,can0  204  [16]  6E 23 1C D2 24 99 E9 F1 28 23 30 75 30 75 00 00
2026-07-11T17:46:59.666203,26.377,can0  040  [04]  26 01 00 00
2026-07-11T17:46:59.760988,26.472,can0  041  [04]  10 01 0A 00
2026-07-11T17:46:59.761231,26.472,can0  204  [16]  6E 23 1C D2 24 99 E9 F1 28 23 30 75 30 75 00 00
2026-07-11T17:46:59.761638,26.472,can0  100  [03]  6C 7F 04
2026-07-11T17:46:59.761707,26.472,can0  120  [04]  00 00 00 00
2026-07-11T17:46:59.762933,26.474,can0  040  [04]  26 01 00 00
2026-07-11T17:46:59.763023,26.474,can0  204  [16]  6E 23 1C D2 24 99 E9 F1 28 23 30 75 30 75 00 00
2026-07-11T17:46:59.860479,26.571,can0  204  [16]  6E 23 1C D2 24 99 E9 F1 28 23 30 75 30 75 00 00
2026-07-11T17:46:59.860724,26.571,can0  070  [20]  9F 2C 4D 08 92 B1 62 03 E8 03 00 00 2F 00 00 00 2B 00 00 00
2026-07-11T17:46:59.866802,26.578,can0  204  [16]  6E 23 1C D2 24 99 E9 F1 28 23 30 75 30 75 00 00
2026-07-11T17:46:59.960321,26.671,can0  070  [20]  9F 2C 4D 08 92 B1 62 03 E8 03 00 00 2F 00 00 00 2B 00 00 00
2026-07-11T17:46:59.961095,26.672,can0  204  [16]  6E 23 1C D2 24 99 E9 F1 28 23 30 75 30 75 00 00
2026-07-11T17:46:59.961145,26.672,can0  040  [04]  19 01 05 00
2026-07-11T17:46:59.961189,26.672,can0  204  [16]  6E 23 1C D2 24 99 E9 F1 28 23 30 75 30 75 00 00
2026-07-11T17:46:59.961231,26.672,can0  041  [04]  19 01 08 00
2026-07-11T17:47:00.078785,26.790,can0  040  [04]  19 01 05 00
2026-07-11T17:47:00.078906,26.790,can0  204  [16]  6E 23 1C D2 24 99 E9 F1 28 23 30 75 30 75 00 00
2026-07-11T17:47:00.079173,26.790,can0  204  [16]  6E 23 1C D2 24 99 E9 F1 28 23 30 75 30 75 00 00
2026-07-11T17:47:00.166678,26.877,can0  204  [16]  6E 23 1C D2 24 99 E9 F1 28 23 30 75 30 75 00 00
2026-07-11T17:47:00.166757,26.878,can0  204  [16]  6E 23 1C D2 24 99 E9 F1 28 23 30 75 30 75 00 00
2026-07-11T17:47:00.260858,26.972,can0  132  [00]
2026-07-11T17:47:00.260926,26.972,can0  204  [16]  6E 23 1C D2 24 99 E9 F1 28 23 30 75 30 75 00 00
2026-07-11T17:47:00.261169,26.972,can0  070  [20]  9F 2C 4D 08 92 B1 62 03 D0 07 00 00 2F 00 00 00 34 00 00 00
2026-07-11T17:47:00.261671,26.972,can0  040  [04]  4D 01 02 00
2026-07-11T17:47:00.261721,26.972,can0  041  [04]  32 01 08 00
2026-07-11T17:47:00.262182,26.973,can0  070  [20]  9F 2C 4D 08 92 B1 62 03 D0 07 00 00 2F 00 00 00 33 00 00 00
2026-07-11T17:47:00.262225,26.973,can0  040  [04]  4D 01 02 00
2026-07-11T17:47:00.262271,26.973,can0  204  [16]  6E 23 1C D2 24 99 E9 F1 28 23 30 75 30 75 00 00
2026-07-11T17:47:00.361512,27.072,can0  060  [32]  00 00 00 00 9F 2C 4D 08 E6 06 B8 10 00 00 10 0E FF 01 00 00 00 00 00 00 02 00 00 00 00 00 00 00
2026-07-11T17:47:00.361587,27.072,can0  060  [32]  D7 93 D6 02 9D E5 4D 08 1C 5B 62 03 46 01 97 0A 0E 01 01 00 00 00 00 01 02 00 00 00 00 00 00 00
2026-07-11T17:47:00.362347,27.073,can0  204  [16]  6E 23 1C D2 24 99 E9 F1 28 23 30 75 30 75 00 00
2026-07-11T17:47:00.362428,27.073,can0  070  [20]  9F 2C 4D 08 92 B1 62 03 D0 07 00 00 2F 00 00 00 33 00 00 00
2026-07-11T17:47:00.362644,27.073,can0  204  [16]  6E 23 1C D2 24 99 E9 F1 28 23 30 75 30 75 00 00
2026-07-11T17:47:00.461093,27.172,can0  204  [16]  6E 23 1C D2 24 99 E9 F1 28 23 30 75 30 75 00 00
2026-07-11T17:47:00.461536,27.172,can0  204  [16]  6E 23 1C D2 24 99 E9 F1 28 23 30 75 30 75 00 00
2026-07-11T17:47:00.473392,27.184,can0  040  [04]  32 01 05 00
2026-07-11T17:47:00.561004,27.272,can0  041  [04]  2E 01 09 00
2026-07-11T17:47:00.561076,27.272,can0  110  [02]  30 1B
2026-07-11T17:47:00.561253,27.272,can0  204  [16]  6E 23 1C D2 24 99 E9 F1 28 23 30 75 30 75 00 00
2026-07-11T17:47:00.561574,27.272,can0  040  [04]  32 01 05 00
2026-07-11T17:47:00.561765,27.273,can0  204  [16]  6E 23 1C D2 24 99 E9 F1 28 23 30 75 30 75 00 00
2026-07-11T17:47:00.664803,27.376,can0  204  [16]  6E 23 1C D2 24 99 E9 F1 28 23 30 75 30 75 00 00
2026-07-11T17:47:00.664871,27.376,can0  204  [16]  6E 23 1C D2 24 99 E9 F1 28 23 30 75 30 75 00 00
2026-07-11T17:47:00.760590,27.471,can0  204  [16]  6E 23 1C D2 24 99 E9 F1 28 23 30 75 30 75 00 00
2026-07-11T17:47:00.760857,27.472,can0  040  [04]  3A 01 02 00
2026-07-11T17:47:00.761074,27.472,can0  041  [04]  2E 01 09 00
2026-07-11T17:47:00.761327,27.472,can0  204  [16]  6E 23 1C D2 24 99 E9 F1 28 23 30 75 30 75 00 00
2026-07-11T17:47:00.761579,27.472,can0  040  [04]  3A 01 02 00
2026-07-11T17:47:00.861011,27.572,can0  204  [16]  6E 23 1C D2 24 99 E9 F1 28 23 30 75 30 75 00 00
2026-07-11T17:47:00.861248,27.572,can0  070  [20]  9F 2C 4D 08 92 B1 62 03 D0 07 00 00 2F 00 00 00 33 00 00 00
2026-07-11T17:47:00.861514,27.572,can0  204  [16]  6E 23 1C D2 24 99 E9 F1 28 23 30 75 30 75 00 00
2026-07-11T17:47:00.960624,27.671,can0  070  [20]  9F 2C 4D 08 92 B1 62 03 D0 07 00 00 2F 00 00 00 33 00 00 00
2026-07-11T17:47:00.960878,27.672,can0  100  [03]  68 7F 04
2026-07-11T17:47:00.969562,27.680,can0  120  [04]  00 00 00 00
2026-07-11T17:47:00.969634,27.680,can0  204  [16]  6E 23 1C D2 24 99 E9 F1 28 23 30 75 30 75 00 00
2026-07-11T17:47:00.969689,27.680,can0  204  [16]  6E 23 1C D2 24 99 E9 F1 28 23 30 75 30 75 00 00
2026-07-11T17:47:01.060545,27.771,can0  040  [04]  1E 01 02 00
2026-07-11T17:47:01.060852,27.772,can0  204  [16]  6E 23 1C D2 24 99 E9 F1 28 23 30 75 30 75 00 00
2026-07-11T17:47:01.061092,27.772,can0  041  [04]  19 01 0A 00
2026-07-11T17:47:01.061280,27.772,can0  040  [04]  1E 01 02 00
2026-07-11T17:47:01.061619,27.772,can0  204  [16]  6E 23 1C D2 24 99 E9 F1 28 23 30 75 30 75 00 00
2026-07-11T17:47:01.161184,27.872,can0  204  [16]  6E 23 1C D2 24 99 E9 F1 28 23 30 75 30 75 00 00
2026-07-11T17:47:01.165526,27.876,can0  204  [16]  6E 23 1C D2 24 99 E9 F1 28 23 30 75 30 75 00 00
2026-07-11T17:47:01.260556,27.971,can0  070  [20]  9F 2C 4D 08 92 B1 62 03 B8 0B 00 00 2F 00 00 00 62 00 00 00
2026-07-11T17:47:01.261136,27.972,can0  204  [16]  6E 23 1C D2 24 99 E9 F1 28 23 30 75 30 75 00 00
2026-07-11T17:47:01.261191,27.972,can0  070  [20]  9F 2C 4D 08 92 B1 62 03 B8 0B 00 00 2F 00 00 00 63 00 00 00
2026-07-11T17:47:01.261233,27.972,can0  040  [04]  1D 01 07 00
2026-07-11T17:47:01.265583,27.976,can0  204  [16]  6E 23 1C D2 24 99 E9 F1 28 23 30 75 30 75 00 00
2026-07-11T17:47:01.360179,28.071,can0  041  [04]  10 01 0C 00
2026-07-11T17:47:01.360485,28.071,can0  204  [16]  6E 23 1C D2 24 99 E9 F1 28 23 30 75 30 75 00 00
2026-07-11T17:47:01.360788,28.072,can0  040  [04]  1D 01 07 00
2026-07-11T17:47:01.361513,28.072,can0  070  [20]  9F 2C 4D 08 92 B1 62 03 B8 0B 00 00 2F 00 00 00 63 00 00 00
2026-07-11T17:47:01.361568,28.072,can0  204  [16]  6E 23 1C D2 24 99 E9 F1 28 23 30 75 30 75 00 00
2026-07-11T17:47:01.361614,28.072,can0  060  [32]  00 00 00 00 9F 2C 4D 08 E6 06 B8 10 00 00 10 0E FF 01 00 00 00 00 00 00 02 00 00 00 00 00 00 00
2026-07-11T17:47:01.362088,28.073,can0  060  [32]  72 32 D6 02 75 2B 4D 08 23 38 B8 10 01 00 8A 06 FF 01 00 00 00 00 00 01 02 00 00 00 00 00 00 00
2026-07-11T17:47:01.460526,28.171,can0  204  [16]  6E 23 1C D2 24 99 E9 F1 28 23 30 75 30 75 00 00
2026-07-11T17:47:01.466023,28.177,can0  204  [16]  6E 23 1C D2 24 99 E9 F1 28 23 30 75 30 75 00 00
2026-07-11T17:47:01.561501,28.272,can0  040  [04]  3E 01 0A 00
2026-07-11T17:47:01.561574,28.272,can0  204  [16]  6E 23 1C D2 24 99 E9 F1 28 23 30 75 30 75 00 00
2026-07-11T17:47:01.561664,28.272,can0  041  [04]  FE 00 0C 00
2026-07-11T17:47:01.562032,28.273,can0  204  [16]  6E 23 1C D2 24 99 E9 F1 28 23 30 75 30 75 00 00
2026-07-11T17:47:01.562106,28.273,can0  040  [04]  3E 01 0A 00
2026-07-11T17:47:01.665742,28.376,can0  204  [16]  6E 23 1C D2 24 99 E9 F1 28 23 30 75 30 75 00 00
2026-07-11T17:47:01.761275,28.472,can0  204  [16]  6E 23 1C D2 24 99 E9 F1 28 23 30 75 30 75 00 00
2026-07-11T17:47:01.761732,28.472,can0  204  [16]  6E 23 1C D2 24 99 E9 F1 28 23 30 75 30 75 00 00
2026-07-11T17:47:01.761787,28.473,can0  204  [16]  6E 23 1C D2 24 99 E9 F1 28 23 30 75 30 75 00 00
2026-07-11T17:47:01.861176,28.572,can0  040  [04]  3E 01 0C 00
2026-07-11T17:47:01.861461,28.572,can0  041  [04]  FA 00 0D 00
2026-07-11T17:47:01.861821,28.573,can0  204  [16]  6E 23 1C D2 24 99 E9 F1 28 23 30 75 30 75 00 00
2026-07-11T17:47:01.862396,28.573,can0  070  [20]  9F 2C 4D 08 92 B1 62 03 B8 0B 00 00 2F 00 00 00 63 00 00 00
2026-07-11T17:47:01.862646,28.573,can0  040  [04]  3E 01 0C 00
2026-07-11T17:47:01.862928,28.574,can0  204  [16]  6E 23 1C D2 24 99 E9 F1 28 23 30 75 30 75 00 00
2026-07-11T17:47:01.960953,28.672,can0  070  [20]  9F 2C 4D 08 92 B1 62 03 B8 0B 00 00 2F 00 00 00 63 00 00 00
2026-07-11T17:47:01.966153,28.677,can0  204  [16]  6E 23 1C D2 24 99 E9 F1 28 23 30 75 30 75 00 00
2026-07-11T17:47:01.966220,28.677,can0  204  [16]  6E 23 1C D2 24 99 E9 F1 28 23 30 75 30 75 00 00
2026-07-11T17:47:02.060990,28.772,can0  204  [16]  6E 23 1C D2 24 99 E9 F1 28 23 30 75 30 75 00 00
2026-07-11T17:47:02.066263,28.777,can0  040  [04]  43 01 0C 00
2026-07-11T17:47:02.066332,28.777,can0  204  [16]  6E 23 1C D2 24 99 E9 F1 28 23 30 75 30 75 00 00
2026-07-11T17:47:02.160191,28.871,can0  041  [04]  FE 00 0F 00
2026-07-11T17:47:02.160614,28.871,can0  100  [03]  6C 7F 04
2026-07-11T17:47:02.166321,28.877,can0  110  [02]  31 1B
2026-07-11T17:47:02.166386,28.877,can0  120  [04]  00 00 00 00
2026-07-11T17:47:02.166428,28.877,can0  040  [04]  43 01 0C 00
2026-07-11T17:47:02.166469,28.877,can0  204  [16]  6E 23 1C D2 24 99 E9 F1 28 23 30 75 30 75 00 00
2026-07-11T17:47:02.166513,28.877,can0  204  [16]  6E 23 1C D2 24 99 E9 F1 28 23 30 75 30 75 00 00
2026-07-11T17:47:02.260205,28.971,can0  070  [20]  9F 2C 4D 08 92 B1 62 03 A0 0F 00 00 2F 00 00 00 3F 00 00 00
2026-07-11T17:47:02.260709,28.971,can0  204  [16]  6E 23 1C D2 24 99 E9 F1 28 23 30 75 30 75 00 00
2026-07-11T17:47:02.266426,28.977,can0  070  [20]  9F 2C 4D 08 92 B1 62 03 A0 0F 00 00 2F 00 00 00 3E 00 00 00
2026-07-11T17:47:02.266492,28.977,can0  204  [16]  6E 23 1C D2 24 99 E9 F1 28 23 30 75 30 75 00 00
2026-07-11T17:47:02.360956,29.072,can0  070  [20]  9F 2C 4D 08 92 B1 62 03 A0 0F 00 00 2F 00 00 00 3E 00 00 00
2026-07-11T17:47:02.361230,29.072,can0  040  [04]  49 01 0E 00
