Timestamp,Elapsed_Time_s,CAN_Message
2026-07-11T17:55:28.311092,2.753,can0  070  [20]  97 2C 4D 08 86 B1 62 03 30 75 00 00 37 00 00 00 06 00 00 00
2026-07-11T17:55:28.311466,2.753,can0  204  [16]  E1 22 1C D3 24 99 E9 F1 28 23 30 75 30 75 00 00
2026-07-11T17:55:28.311733,2.753,can0  070  [20]  97 2C 4D 08 86 B1 62 03 30 75 00 00 37 00 00 00 06 00 00 00
2026-07-11T17:55:28.318407,2.760,can0  204  [16]  E1 22 1C D3 24 99 E9 F1 28 23 30 75 30 75 00 00
2026-07-11T17:55:28.410778,2.852,can0  204  [16]  E1 22 1C D3 24 99 E9 F1 28 23 30 75 30 75 00 00
2026-07-11T17:55:28.412396,2.854,can0  041  [04]  10 01 08 00
2026-07-11T17:55:28.412450,2.854,can0  206  [24]  B6 0C 71 09 CF 0C 99 C6 83 0A C1 0C D5 0C 00 00 00 00 00 00 00 00 00 00
2026-07-11T17:55:28.418472,2.860,can0  070  [20]  97 2C 4D 08 86 B1 62 03 30 75 00 00 37 00 00 00 06 00 00 00
2026-07-11T17:55:28.418533,2.860,can0  204  [16]  E1 22 1C D3 24 99 E9 F1 28 23 30 75 30 75 00 00
2026-07-11T17:55:28.518871,2.961,can0  040  [04]  60 01 14 00
2026-07-11T17:55:28.518940,2.961,can0  204  [16]  E1 22 1C D3 24 99 E9 F1 28 23 30 75 30 75 00 00
2026-07-11T17:55:28.518986,2.961,can0  040  [04]  60 01 14 00
2026-07-11T17:55:28.519318,2.961,can0  204  [16]  E1 22 1C D3 24 99 E9 F1 28 23 30 75 30 75 00 00
2026-07-11T17:55:28.616345,3.058,can0  206  [24]  C0 0C 71 09 CA 0C 99 C6 83 0A C6 0C D0 0C 00 00 00 00 00 00 00 00 00 00
2026-07-11T17:55:28.616412,3.058,can0  110  [02]  31 1B
2026-07-11T17:55:28.616684,3.058,can0  204  [16]  E1 22 1C D3 24 99 E9 F1 28 23 30 75 30 75 00 00
2026-07-11T17:55:28.618920,3.061,can0  204  [16]  E1 22 1C D3 24 99 E9 F1 28 23 30 75 30 75 00 00
2026-07-11T17:55:28.710738,3.152,can0  041  [04]  10 01 00 00
2026-07-11T17:55:28.711041,3.153,can0  204  [16]  E1 22 1C D3 24 99 E9 F1 28 23 30 75 30 75 00 00
2026-07-11T17:55:28.711316,3.153,can0  040  [04]  5F 01 1B 00
2026-07-11T17:55:28.711624,3.153,can0  204  [16]  E1 22 1C D3 24 99 E9 F1 28 23 30 75 30 75 00 00
2026-07-11T17:55:28.719128,3.161,can0  206  [24]  C0 0C 73 09 CF 0C 99 C6 83 0A C1 0C D0 0C 00 00 00 00 00 00 00 00 00 00
2026-07-11T17:55:28.811071,3.253,can0  040  [04]  5F 01 1B 00
2026-07-11T17:55:28.811357,3.253,can0  204  [16]  E1 22 1C D3 24 99 E9 F1 28 23 30 75 30 75 00 00
2026-07-11T17:55:28.811642,3.253,can0  204  [16]  E1 22 1C D3 24 99 E9 F1 28 23 30 75 30 75 00 00
2026-07-11T17:55:28.911177,3.353,can0  204  [16]  E1 22 1C D3 24 99 E9 F1 28 23 30 75 30 75 00 00
2026-07-11T17:55:28.912059,3.354,can0  206  [24]  C0 0C 73 09 CB 0C 99 C6 83 0A C1 0C D5 0C 00 00 00 00 00 00 00 00 00 00
2026-07-11T17:55:28.918803,3.360,can0  070  [20]  97 2C 4D 08 86 B1 62 03 30 75 00 00 37 00 00 00 06 00 00 00
2026-07-11T17:55:28.918897,3.361,can0  041  [04]  97 00 05 00
2026-07-11T17:55:28.918986,3.361,can0  204  [16]  E1 22 1C D3 24 99 E9 F1 28 23 30 75 30 75 00 00
2026-07-11T17:55:29.010748,3.452,can0  100  [03]  4F 82 04
2026-07-11T17:55:29.011003,3.453,can0  120  [04]  00 00 00 00
2026-07-11T17:55:29.011278,3.453,can0  040  [04]  4E 01 20 00
2026-07-11T17:55:29.011584,3.453,can0  204  [16]  E1 22 1C D3 24 99 E9 F1 28 23 30 75 30 75 00 00
2026-07-11T17:55:29.011822,3.453,can0  070  [20]  97 2C 4D 08 86 B1 62 03 30 75 00 00 37 00 00 00 06 00 00 00
2026-07-11T17:55:29.012046,3.454,can0  204  [16]  E1 22 1C D3 24 99 E9 F1 28 23 30 75 30 75 00 00
2026-07-11T17:55:29.110259,3.552,can0  040  [04]  4E 01 20 00
2026-07-11T17:55:29.111960,3.554,can0  206  [24]  C5 0C 74 09 CB 0C 99 C6 7E 0A C1 0C D0 0C 00 00 00 00 00 00 00 00 00 00
2026-07-11T17:55:29.113318,3.555,can0  204  [16]  E1 22 1C D3 24 99 E9 F1 28 23 30 75 30 75 00 00
2026-07-11T17:55:29.113583,3.555,can0  204  [16]  E1 22 1C D3 24 99 E9 F1 28 23 30 75 30 75 00 00
2026-07-11T17:55:29.211156,3.653,can0  060  [32]  44 DA D5 02 B9 AB 4D 08 F9 87 64 03 21 00 0D 00 05 00 FF 00 00 00 00 00 03 00 00 00 00 00 00 00
2026-07-11T17:55:29.211224,3.653,can0  060  [32]  6C EC 8F 01 47 68 4D 08 F8 DF 62 03 02 00 26 0C 1C 00 80 00 00 00 00 01 03 00 00 00 00 00 00 00
2026-07-11T17:55:29.211268,3.653,can0  060  [32]  00 00 00 00 97 2C 4D 08 DB 06 B8 10 00 00 10 0E FF 01 00 00 00 00 00 02 03 00 00 00 00 00 00 00
2026-07-11T17:55:29.211436,3.653,can0  204  [16]  E1 22 1C D3 24 99 E9 F1 28 23 30 75 30 75 00 00
2026-07-11T17:55:29.211737,3.653,can0  041  [04]  9A 00 10 00
2026-07-11T17:55:29.214315,3.656,can0  206  [24]  D4 0C 74 09 C6 0C 99 C6 7F 0A C6 0C C0 0C 00 00 00 00 00 00 00 00 00 00
2026-07-11T17:55:29.214604,3.656,can0  204  [16]  E1 22 1C D3 24 99 E9 F1 28 23 30 75 30 75 00 00
2026-07-11T17:55:29.310755,3.752,can0  040  [04]  40 01 1A 00
2026-07-11T17:55:29.311375,3.753,can0  070  [20]  97 2C 4D 08 86 B1 62 03 18 79 00 00 37 00 00 00 1C 00 00 00
2026-07-11T17:55:29.311671,3.753,can0  204  [16]  E1 22 1C D3 24 99 E9 F1 28 23 30 75 30 75 00 00
2026-07-11T17:55:29.311943,3.754,can0  070  [20]  97 2C 4D 08 86 B1 62 03 18 79 00 00 37 00 00 00 1B 00 00 00
2026-07-11T17:55:29.312211,3.754,can0  040  [04]  40 01 1A 00
2026-07-11T17:55:29.312512,3.754,can0  204  [16]  E1 22 1C D3 24 99 E9 F1 28 23 30 75 30 75 00 00
2026-07-11T17:55:29.410679,3.852,can0  204  [16]  E1 22 1C D3 24 99 E9 F1 28 23 30 75 30 75 00 00
2026-07-11T17:55:29.413139,3.855,can0  206  [24]  D4 0C 74 09 C6 0C 99 C6 7E 0A C1 0C C0 0C 00 00 00 00 00 00 00 00 00 00
2026-07-11T17:55:29.416851,3.858,can0  070  [20]  97 2C 4D 08 86 B1 62 03 18 79 00 00 37 00 00 00 1B 00 00 00
2026-07-11T17:55:29.510761,3.952,can0  204  [16]  E1 22 1C D3 24 99 E9 F1 28 23 30 75 30 75 00 00
2026-07-11T17:55:29.511044,3.953,can0  041  [04]  96 00 15 00
2026-07-11T17:55:29.511320,3.953,can0  204  [16]  E1 22 1C D3 24 99 E9 F1 28 23 30 75 30 75 00 00
2026-07-11T17:55:29.511545,3.953,can0  040  [04]  2D 01 16 00
2026-07-11T17:55:29.613544,4.055,can0  204  [16]  E1 22 1C D3 24 99 E9 F1 28 23 30 75 30 75 00 00
2026-07-11T17:55:29.616260,4.058,can0  206  [24]  D4 0C 73 09 C6 0C 99 C6 7E 0A C1 0C C0 0C 00 00 00 00 00 00 00 00 00 00
2026-07-11T17:55:29.616702,4.058,can0  040  [04]  2D 01 16 00
2026-07-11T17:55:29.616975,4.059,can0  204  [16]  E1 22 1C D3 24 99 E9 F1 28 23 30 75 30 75 00 00
2026-07-11T17:55:29.617206,4.059,can0  132  [00]
2026-07-11T17:55:29.710661,4.152,can0  204  [16]  E1 22 1C D3 24 99 E9 F1 28 23 30 75 30 75 00 00
2026-07-11T17:55:29.710904,4.153,can0  204  [16]  E1 22 1C D3 24 99 E9 F1 28 23 30 75 30 75 00 00
2026-07-11T17:55:29.711186,4.153,can0  041  [04]  95 00 16 00
2026-07-11T17:55:29.713718,4.155,can0  206  [24]  D4 0C 73 09 CB 0C 99 C6 7F 0A C1 0C C0 0C 00 00 00 00 00 00 00 00 00 00
2026-07-11T17:55:29.811064,4.253,can0  204  [16]  E1 22 1C D3 24 99 E9 F1 28 23 30 75 30 75 00 00
2026-07-11T17:55:29.811329,4.253,can0  040  [04]  2E 01 0D 00
2026-07-11T17:55:29.811604,4.253,can0  204  [16]  E1 22 1C D3 24 99 E9 F1 28 23 30 75 30 75 00 00
2026-07-11T17:55:29.816064,4.258,can0  040  [04]  2E 01 0D 00
2026-07-11T17:55:29.910451,4.352,can0  204  [16]  E1 22 1C D3 24 99 E9 F1 28 23 30 75 30 75 00 00
2026-07-11T17:55:29.913114,4.355,can0  206  [24]  D4 0C 73 09 CB 0C 99 C6 84 0A BC 0C C0 0C 00 00 00 00 00 00 00 00 00 00
2026-07-11T17:55:29.913173,4.355,can0  204  [16]  E1 22 1C D3 24 99 E9 F1 28 23 30 75 30 75 00 00
2026-07-11T17:55:29.913351,4.355,can0  070  [20]  97 2C 4D 08 86 B1 62 03 18 79 00 00 37 00 00 00 1B 00 00 00
2026-07-11T17:55:30.010637,4.452,can0  204  [16]  E1 22 1C D3 24 99 E9 F1 28 23 30 75 30 75 00 00
2026-07-11T17:55:30.010958,4.453,can0  041  [04]  AA 00 10 00
2026-07-11T17:55:30.011254,4.453,can0  204  [16]  E1 22 1C D3 24 99 E9 F1 28 23 30 75 30 75 00 00
2026-07-11T17:55:30.011531,4.453,can0  070  [20]  97 2C 4D 08 86 B1 62 03 18 79 00 00 37 00 00 00 1B 00 00 00
2026-07-11T17:55:30.110224,4.552,can0  040  [04]  2E 01 0D 00
2026-07-11T17:55:30.110519,4.552,can0  204  [16]  E1 22 1C D3 24 99 E9 F1 28 23 30 75 30 75 00 00
2026-07-11T17:55:30.114778,4.556,can0  206  [24]  C5 0C 73 09 CB 0C 99 C6 83 0A C1 0C D0 0C 00 00 00 00 00 00 00 00 00 00
2026-07-11T17:55:30.115000,4.557,can0  040  [04]  2E 01 0D 00
2026-07-11T17:55:30.120603,4.562,can0  204  [16]  E1 22 1C D3 24 99 E9 F1 28 23 30 75 30 75 00 00
2026-07-11T17:55:30.210780,4.652,can0  204  [16]  E1 22 1C D3 24 99 E9 F1 28 23 30 75 30 75 00 00
2026-07-11T17:55:30.210858,4.652,can0  100  [03]  45 82 04
2026-07-11T17:55:30.211097,4.653,can0  060  [32]  74 0C 7C 0C B4 8F 4D 08 40 28 64 03 40 00 BA 0B 2C 01 80 00 00 00 00 00 02 00 00 00 00 00 00 00
2026-07-11T17:55:30.211299,4.653,can0  060  [32]  00 00 00 00 97 2C 4D 08 DB 06 B8 10 00 00 10 0E FF 01 00 00 00 00 00 01 02 00 00 00 00 00 00 00
2026-07-11T17:55:30.211897,4.654,can0  110  [02]  30 1B
2026-07-11T17:55:30.211948,4.654,can0  120  [04]  00 00 00 00
2026-07-11T17:55:30.212183,4.654,can0  204  [16]  E1 22 1C D3 24 99 E9 F1 28 23 30 75 30 75 00 00
2026-07-11T17:55:30.213527,4.655,can0  206  [24]  BC 0C 73 09 CF 0C 99 C6 83 0A C1 0C D5 0C 00 00 00 00 00 00 00 00 00 00
2026-07-11T17:55:30.311709,4.753,can0  204  [16]  E1 22 1C D3 24 99 E9 F1 28 23 30 75 30 75 00 00
2026-07-11T17:55:30.311776,4.753,can0  041  [04]  C8 00 0C 00
2026-07-11T17:55:30.311820,4.753,can0  070  [20]  97 2C 4D 08 86 B1 62 03 00 7D 00 00 37 00 00 00 0B 00 00 00
2026-07-11T17:55:30.311987,4.754,can0  131  [00]
2026-07-11T17:55:30.312300,4.754,can0  204  [16]  E1 22 1C D3 24 99 E9 F1 28 23 30 75 30 75 00 00
2026-07-11T17:55:30.312572,4.754,can0  070  [20]  97 2C 4D 08 86 B1 62 03 00 7D 00 00 37 00 00 00 0B 00 00 00
2026-07-11T17:55:30.312769,4.754,can0  040  [04]  2C 01 0B 00
2026-07-11T17:55:30.411214,4.853,can0  204  [16]  E1 22 1C D3 24 99 E9 F1 28 23 30 75 30 75 00 00
2026-07-11T17:55:30.411480,4.853,can0  040  [04]  2C 01 0B 00
2026-07-11T17:55:30.414000,4.856,can0  206  [24]  BC 0C 73 09 CF 0C 99 C6 82 0A C1 0C D5 0C 00 00 00 00 00 00 00 00 00 00
2026-07-11T17:55:30.419237,4.861,can0  204  [16]  E1 22 1C D3 24 99 E9 F1 28 23 30 75 30 75 00 00
2026-07-11T17:55:30.419295,4.861,can0  070  [20]  97 2C 4D 08 86 B1 62 03 00 7D 00 00 37 00 00 00 0B 00 00 00
2026-07-11T17:55:30.514867,4.957,can0  204  [16]  E1 22 1C D3 24 99 E9 F1 28 23 30 75 30 75 00 00
2026-07-11T17:55:30.514938,4.957,can0  204  [16]  E1 22 1C D3 24 99 E9 F1 28 23 30 75 30 75 00 00
2026-07-11T17:55:30.514984,4.957,can0  041  [04]  DB 00 11 00
2026-07-11T17:55:30.610801,5.052,can0  204  [16]  E1 22 1C D3 24 99 E9 F1 28 23 30 75 30 75 00 00
2026-07-11T17:55:30.613354,5.055,can0  206  [24]  BC 0C 72 09 C6 0C 99 C6 83 0A CA 0C D5 0C 00 00 00 00 00 00 00 00 00 00
2026-07-11T17:55:30.613731,5.055,can0  040  [04]  41 01 0D 00
2026-07-11T17:55:30.614023,5.056,can0  204  [16]  E1 22 1C D3 24 99 E9 F1 28 23 30 75 30 75 00 00
2026-07-11T17:55:30.711097,5.153,can0  040  [04]  41 01 0D 00
2026-07-11T17:55:30.711407,5.153,can0  204  [16]  E1 22 1C D3 24 99 E9 F1 28 23 30 75 30 75 00 00
2026-07-11T17:55:30.711636,5.153,can0  133  [00]
2026-07-11T17:55:30.711884,5.154,can0  204  [16]  E1 22 1C D3 24 99 E9 F1 28 23 30 75 30 75 00 00
2026-07-11T17:55:30.714365,5.156,can0  206  [24]  C0 0C 72 09 CA 0C 99 C6 83 0A C6 0C D0 0C 00 00 00 00 00 00 00 00 00 00
2026-07-11T17:55:30.815947,5.258,can0  204  [16]  E1 22 1C D3 24 99 E9 F1 28 23 30 75 30 75 00 00
2026-07-11T17:55:30.816014,5.258,can0  041  [04]  E0 00 0D 00
2026-07-11T17:55:30.816092,5.258,can0  204  [16]  E1 22 1C D3 24 99 E9 F1 28 23 30 75 30 75 00 00
2026-07-11T17:55:30.910660,5.352,can0  204  [16]  E1 22 1C D3 24 99 E9 F1 28 23 30 75 30 75 00 00
2026-07-11T17:55:30.913269,5.355,can0  040  [04]  52 01 0E 00
2026-07-11T17:55:30.913342,5.355,can0  206  [24]  BB 0C 70 09 CB 0C 99 C6 84 0A CA 0C D0 0C 00 00 00 00 00 00 00 00 00 00
2026-07-11T17:55:30.913534,5.355,can0  070  [20]  97 2C 4D 08 86 B1 62 03 00 7D 00 00 37 00 00 00 0B 00 00 00
2026-07-11T17:55:30.913741,5.355,can0  040  [04]  52 01 0E 00
2026-07-11T17:55:30.918771,5.360,can0  204  [16]  E1 22 1C D3 24 99 E9 F1 28 23 30 75 30 75 00 00
2026-07-11T17:55:31.010527,5.452,can0  060  [32]  30 7B D6 02 0E B5 4D 08 2E 1E 64 03 00 00 0D 03 58 00 80 00 00 00 00 00 03 00 00 00 00 00 00 00
2026-07-11T17:55:31.011328,5.453,can0  060  [32]  77 D9 D5 02 F9 57 4D 08 51 41 64 03 00 00 10 0E FF 01 00 00 00 00 00 01 03 00 00 00 00 00 00 00
2026-07-11T17:55:31.011414,5.453,can0  060  [32]  C8 A5 66 02 34 8B 4D 08 A8 05 63 03 00 00 C4 02 14 01 7E 00 00 00 00 02 03 00 00 00 00 00 00 00
2026-07-11T17:55:31.011512,5.453,can0  204  [16]  E1 22 1C D3 24 99 E9 F1 28 23 30 75 30 75 00 00
2026-07-11T17:55:31.011586,5.453,can0  130  [00]
2026-07-11T17:55:31.011801,5.453,can0  204  [16]  E1 22 1C D3 24 99 E9 F1 28 23 30 75 30 75 00 00
2026-07-11T17:55:31.016589,5.458,can0  070  [20]  97 2C 4D 08 86 B1 62 03 00 7D 00 00 37 00 00 00 0B 00 00 00
2026-07-11T17:55:31.110375,5.552,can0  041  [04]  E7 00 0F 00
2026-07-11T17:55:31.112967,5.555,can0  206  [24]  C6 0C 71 09 CA 0C 99 C6 86 0A C1 0C CA 0C 00 00 00 00 00 00 00 00 00 00
2026-07-11T17:55:31.113245,5.555,can0  204  [16]  E1 22 1C D3 24 99 E9 F1 28 23 30 75 30 75 00 00
2026-07-11T17:55:31.113443,5.555,can0  204  [16]  E1 22 1C D3 24 99 E9 F1 28 23 30 75 30 75 00 00
2026-07-11T17:55:31.113643,5.555,can0  040  [04]  62 01 10 00
2026-07-11T17:55:31.210703,5.652,can0  204  [16]  E1 22 1C D3 24 99 E9 F1 28 23 30 75 30 75 00 00
2026-07-11T17:55:31.210917,5.653,can0  040  [04]  62 01 10 00
2026-07-11T17:55:31.213664,5.655,can0  204  [16]  E1 22 1C D3 24 99 E9 F1 28 23 30 75 30 75 00 00
2026-07-11T17:55:31.213740,5.655,can0  206  [24]  C6 0C 72 09 CA 0C 99 C6 87 0A C1 0C CA 0C 00 00 00 00 00 00 00 00 00 00
2026-07-11T17:55:31.310390,5.752,can0  204  [16]  E1 22 1C D3 24 99 E9 F1 28 23 30 75 30 75 00 00
2026-07-11T17:55:31.310499,5.752,can0  070  [20]  97 2C 4D 08 86 B1 62 03 E8 80 00 00 37 00 00 00 1F 00 00 00
2026-07-11T17:55:31.310746,5.752,can0  204  [16]  E1 22 1C D3 24 99 E9 F1 28 23 30 75 30 75 00 00
2026-07-11T17:55:31.311101,5.753,can0  041  [04]  F5 00 10 00
2026-07-11T17:55:31.320121,5.762,can0  070  [20]  97 2C 4D 08 86 B1 62 03 E8 80 00 00 37 00 00 00 20 00 00 00
2026-07-11T17:55:31.413328,5.855,can0  204  [16]  E1 22 1C D3 24 99 E9 F1 28 23 30 75 30 75 00 00
2026-07-11T17:55:31.413642,5.855,can0  100  [03]  3A 82 04
2026-07-11T17:55:31.413907,5.856,can0  120  [04]  00 00 00 00
2026-07-11T17:55:31.414141,5.856,can0  040  [04]  56 01 10 00
2026-07-11T17:55:31.417678,5.859,can0  206  [24]  C6 0C 71 09 CF 0C 99 C6 88 0A BC 0C CA 0C 00 00 00 00 00 00 00 00 00 00
2026-07-11T17:55:31.418451,5.860,can0  070  [20]  97 2C 4D 08 86 B1 62 03 E8 80 00 00 37 00 00 00 20 00 00 00
2026-07-11T17:55:31.418526,5.860,can0  204  [16]  E1 22 1C D3 24 99 E9 F1 28 23 30 75 30 75 00 00
2026-07-11T17:55:31.418751,5.860,can0  040  [04]  56 01 10 00
2026-07-11T17:55:31.511180,5.953,can0  204  [16]  E1 22 1C D3 24 99 E9 F1 28 23 30 75 30 75 00 00
2026-07-11T17:55:31.514262,5.956,can0  204  [16]  E1 22 1C D3 24 99 E9 F1 28 23 30 75 30 75 00 00
2026-07-11T17:55:31.613168,6.055,can0  206  [24]  C0 0C 71 09 CF 0C 99 C6 87 0A C1 0C D0 0C 00 00 00 00 00 00 00 00 00 00
2026-07-11T17:55:31.613786,6.055,can0  204  [16]  E1 22 1C D3 24 99 E9 F1 28 23 30 75 30 75 00 00
2026-07-11T17:55:31.616353,6.058,can0  041  [04]  E0 00 0C 00
2026-07-11T17:55:31.616404,6.058,can0  204  [16]  E1 22 1C D3 24 99 E9 F1 28 23 30 75 30 75 00 00
2026-07-11T17:55:31.616445,6.058,can0  040  [04]  44 01 10 00
2026-07-11T17:55:31.711041,6.153,can0  204  [16]  E1 22 1C D3 24 99 E9 F1 28 23 30 75 30 75 00 00
2026-07-11T17:55:31.711250,6.153,can0  040  [04]  44 01 10 00
2026-07-11T17:55:31.711700,6.153,can0  204  [16]  E1 22 1C D3 24 99 E9 F1 28 23 30 75 30 75 00 00
2026-07-11T17:55:31.714986,6.157,can0  206  [24]  C0 0C 72 09 CF 0C 99 C6 86 0A C5 0C D0 0C 00 00 00 00 00 00 00 00 00 00
2026-07-11T17:55:31.810569,6.252,can0  204  [16]  E1 22 1C D3 24 99 E9 F1 28 23 30 75 30 75 00 00
2026-07-11T17:55:31.810636,6.252,can0  110  [02]  31 1B
2026-07-11T17:55:31.810900,6.253,can0  204  [16]  E1 22 1C D3 24 99 E9 F1 28 23 30 75 30 75 00 00
2026-07-11T17:55:31.910917,6.353,can0  041  [04]  DF 00 09 00
2026-07-11T17:55:31.911222,6.353,can0  204  [16]  E1 22 1C D3 24 99 E9 F1 28 23 30 75 30 75 00 00
2026-07-11T17:55:31.914736,6.356,can0  206  [24]  C0 0C 72 09 CF 0C 99 C6 85 0A CA 0C D0 0C 00 00 00 00 00 00 00 00 00 00
2026-07-11T17:55:31.914816,6.356,can0  070  [20]  97 2C 4D 08 86 B1 62 03 E8 80 00 00 37 00 00 00 20 00 00 00
2026-07-11T17:55:31.914874,6.357,can0  040  [04]  31 01 11 00
2026-07-11T17:55:31.914919,6.357,can0  204  [16]  E1 22 1C D3 24 99 E9 F1 28 23 30 75 30 75 00 00
2026-07-11T17:55:32.010702,6.452,can0  204  [16]  E1 22 1C D3 24 99 E9 F1 28 23 30 75 30 75 00 00
2026-07-11T17:55:32.010776,6.452,can0  040  [04]  31 01 11 00
2026-07-11T17:55:32.011044,6.453,can0  070  [20]  97 2C 4D 08 86 B1 62 03 E8 80 00 00 37 00 00 00 20 00 00 00
2026-07-11T17:55:32.018498,6.460,can0  204  [16]  E1 22 1C D3 24 99 E9 F1 28 23 30 75 30 75 00 00
2026-07-11T17:55:32.113723,6.555,can0  206  [24]  C0 0C 71 09 CF 0C 99 C6 84 0A CA 0C D0 0C 00 00 00 00 00 00 00 00 00 00
2026-07-11T17:55:32.113793,6.555,can0  204  [16]  E1 22 1C D3 24 99 E9 F1 28 23 30 75 30 75 00 00
2026-07-11T17:55:32.113836,6.555,can0  041  [04]  D7 00 0B 00
2026-07-11T17:55:32.119127,6.561,can0  204  [16]  E1 22 1C D3 24 99 E9 F1 28 23 30 75 30 75 00 00
2026-07-11T17:55:32.210725,6.652,can0  040  [04]  1D 01 11 00
2026-07-11T17:55:32.211071,6.653,can0  204  [16]  E1 22 1C D3 24 99 E9 F1 28 23 30 75 30 75 00 00
2026-07-11T17:55:32.211371,6.653,can0  060  [32]  00 00 00 00 97 2C 4D 08 DB 06 B8 10 00 00 10 0E FF 01 00 00 00 00 00 00 03 00 00 00 00 00 00 00
2026-07-11T17:55:32.211705,6.653,can0  060  [32]  48 40 D6 02 BB 72 4D 08 C7 96 64 03 6C 00 E5 03 65 00 80 00 00 00 00 01 03 00 00 00 00 00 00 00
2026-07-11T17:55:32.211903,6.654,can0  060  [32]  68 34 D6 02 6B 99 4D 08 C3 84 64 03 61 00 D2 0B FF 01 00 00 00 00 00 02 03 00 00 00 00 00 00 00
2026-07-11T17:55:32.213636,6.655,can0  206  [24]  C0 0C 71 09 CF 0C 99 C6 82 0A C5 0C D0 0C 00 00 00 00 00 00 00 00 00 00
2026-07-11T17:55:32.220582,6.662,can0  204  [16]  E1 22 1C D3 24 99 E9 F1 28 23 30 75 30 75 00 00
2026-07-11T17:55:32.220640,6.662,can0  040  [04]  1D 01 11 00
2026-07-11T17:55:32.316046,6.758,can0  070  [20]  95 2C 4D 08 84 B1 62 03 D0 84 00 00 37 00 00 00 1A 00 00 00
2026-07-11T17:55:32.316117,6.758,can0  204  [16]  E1 22 1C D3 24 99 E9 F1 28 23 30 75 30 75 00 00
2026-07-11T17:55:32.316161,6.758,can0  070  [20]  95 2C 4D 08 84 B1 62 03 D0 84 00 00 37 00 00 00 1A 00 00 00
2026-07-11T17:55:32.316231,6.758,can0  204  [16]  E1 22 1C D3 24 99 E9 F1 28 23 30 75 30 75 00 00
2026-07-11T17:55:32.411028,6.853,can0  204  [16]  E1 22 1C D3 24 99 E9 F1 28 23 30 75 30 75 00 00
2026-07-11T17:55:32.413688,6.855,can0  206  [24]  C0 0C 71 09 CA 0C 99 C6 81 0A CA 0C D0 0C 00 00 00 00 00 00 00 00 00 00
2026-07-11T17:55:32.413990,6.856,can0  041  [04]  D7 00 0B 00
2026-07-11T17:55:32.414236,6.856,can0  070  [20]  95 2C 4D 08 84 B1 62 03 D0 84 00 00 37 00 00 00 1A 00 00 00
2026-07-11T17:55:32.414500,6.856,can0  204  [16]  E1 22 1C D3 24 99 E9 F1 28 23 30 75 30 75 00 00
2026-07-11T17:55:32.510602,6.952,can0  040  [04]  10 01 13 00
2026-07-11T17:55:32.510956,6.953,can0  204  [16]  E1 22 1C D3 24 99 E9 F1 28 23 30 75 30 75 00 00
2026-07-11T17:55:32.516650,6.958,can0  040  [04]  10 01 13 00
2026-07-11T17:55:32.516731,6.958,can0  204  [16]  E1 22 1C D3 24 99 E9 F1 28 23 30 75 30 75 00 00
2026-07-11T17:55:32.618300,7.060,can0  206  [24]  C0 0C 71 09 CA 0C 99 C6 81 0A C6 0C D0 0C 00 00 00 00 00 00 00 00 00 00
2026-07-11T17:55:32.618371,7.060,can0  100  [03]  30 82 04
2026-07-11T17:55:32.618414,7.060,can0  120  [04]  00 00 00 00
2026-07-11T17:55:32.618485,7.060,can0  204  [16]  E1 22 1C D3 24 99 E9 F1 28 23 30 75 30 75 00 00
2026-07-11T17:55:32.618564,7.060,can0  204  [16]  E1 22 1C D3 24 99 E9 F1 28 23 30 75 30 75 00 00
2026-07-11T17:55:32.710191,7.152,can0  041  [04]  E4 00 05 00
2026-07-11T17:55:32.710465,7.152,can0  204  [16]  E1 22 1C D3 24 99 E9 F1 28 23 30 75 30 75 00 00
2026-07-11T17:55:32.710767,7.152,can0  060  [32]  00 00 00 00 00 00 00 00 00 00 00 00 00 00 00 00 00 00 00 00 00 00 00 00 00 00 00 00 00 00 00 00
2026-07-11T17:55:32.711007,7.153,can0  040  [04]  1F 01 11 00
2026-07-11T17:55:32.714160,7.156,can0  206  [24]  C1 0C 71 09 CF 0C 99 C6 82 0A C1 0C CA 0C 00 00 00 00 00 00 00 00 00 00
2026-07-11T17:55:32.714531,7.156,can0  204  [16]  E1 22 1C D3 24 99 E9 F1 28 23 30 75 30 75 00 00
2026-07-11T17:55:32.810699,7.252,can0  040  [04]  1F 01 11 00
2026-07-11T17:55:32.811004,7.253,can0  204  [16]  E1 22 1C D3 24 99 E9 F1 28 23 30 75 30 75 00 00
2026-07-11T17:55:32.816533,7.258,can0  204  [16]  E1 22 1C D3 24 99 E9 F1 28 23 30 75 30 75 00 00
2026-07-11T17:55:32.910964,7.353,can0  204  [16]  E1 22 1C D3 24 99 E9 F1 28 23 30 75 30 75 00 00
2026-07-11T17:55:32.913541,7.355,can0  206  [24]  B7 0C 71 09 D4 0C 99 C6 83 0A C1 0C D0 0C 00 00 00 00 00 00 00 00 00 00
2026-07-11T17:55:32.919345,7.361,can0  070  [20]  95 2C 4D 08 84 B1 62 03 D0 84 00 00 37 00 00 00 1A 00 00 00
2026-07-11T17:55:32.919407,7.361,can0  041  [04]  36 01 06 00
2026-07-11T17:55:32.919449,7.361,can0  204  [16]  E1 22 1C D3 24 99 E9 F1 28 23 30 75 30 75 00 00
2026-07-11T17:55:33.011017,7.453,can0  040  [04]  12 01 0E 00
2026-07-11T17:55:33.011553,7.453,can0  204  [16]  E1 22 1C D3 24 99 E9 F1 28 23 30 75 30 75 00 00
2026-07-11T17:55:33.011632,7.453,can0  070  [20]  95 2C 4D 08 84 B1 62 03 D0 84 00 00 37 00 00 00 1A 00 00 00
2026-07-11T17:55:33.011721,7.453,can0  040  [04]  12 01 0E 00
2026-07-11T17:55:33.016665,7.458,can0  204  [16]  E1 22 1C D3 24 99 E9 F1 28 23 30 75 30 75 00 00
2026-07-11T17:55:33.112406,7.554,can0  206  [24]  BC 0C 72 09 D4 0C 99 C6 84 0A C1 0C CA 0C 00 00 00 00 00 00 00 00 00 00
2026-07-11T17:55:33.117678,7.559,can0  204  [16]  E1 22 1C D3 24 99 E9 F1 28 23 30 75 30 75 00 00
2026-07-11T17:55:33.117735,7.559,can0  204  [16]  E1 22 1C D3 24 99 E9 F1 28 23 30 75 30 75 00 00
2026-07-11T17:55:33.210257,7.652,can0  204  [16]  E1 22 1C D3 24 99 E9 F1 28 23 30 75 30 75 00 00
2026-07-11T17:55:33.210643,7.652,can0  041  [04]  10 01 06 00
2026-07-11T17:55:33.210700,7.652,can0  060  [32]  00 00 00 00 95 2C 4D 08 D9 06 B8 10 00 00 10 0E FF 01 00 00 00 00 00 00 01 00 00 00 00 00 00 00
2026-07-11T17:55:33.213571,7.655,can0  206  [24]  BC 0C 72 09 D4 0C 99 C6 82 0A C6 0C CA 0C 00 00 00 00 00 00 00 00 00 00
2026-07-11T17:55:33.213837,7.655,can0  204  [16]  E1 22 1C D3 24 99 E9 F1 28 23 30 75 30 75 00 00
2026-07-11T17:55:33.214082,7.656,can0  040  [04]  0C 01 10 00
2026-07-11T17:55:33.311052,7.753,can0  070  [20]  95 2C 4D 08 84 B1 62 03 B8 88 00 00 37 00 00 00 18 00 00 00
2026-07-11T17:55:33.312439,7.754,can0  204  [16]  E1 22 1C D3 24 99 E9 F1 28 23 30 75 30 75 00 00
2026-07-11T17:55:33.312636,7.754,can0  070  [20]  95 2C 4D 08 84 B1 62 03 B8 88 00 00 37 00 00 00 17 00 00 00
2026-07-11T17:55:33.312871,7.755,can0  040  [04]  0C 01 10 00
2026-07-11T17:55:33.313135,7.755,can0  204  [16]  E1 22 1C D3 24 99 E9 F1 28 23 30 75 30 75 00 00
2026-07-11T17:55:33.410245,7.852,can0  110  [02]  31 1B
2026-07-11T17:55:33.412878,7.855,can0  206  [24]  BC 0C 72 09 D9 0C 99 C6 83 0A C1 0C CA 0C 00 00 00 00 00 00 00 00 00 00
2026-07-11T17:55:33.413169,7.855,can0  204  [16]  E1 22 1C D3 24 99 E9 F1 28 23 30 75 30 75 00 00
2026-07-11T17:55:33.413385,7.855,can0  070  [20]  95 2C 4D 08 84 B1 62 03 B8 88 00 00 37 00 00 00 17 00 00 00
2026-07-11T17:55:33.413608,7.855,can0  204  [16]  E1 22 1C D3 24 99 E9 F1 28 23 30 75 30 75 00 00
2026-07-11T17:55:33.511444,7.953,can0  041  [04]  10 01 09 00
2026-07-11T17:55:33.511532,7.953,can0  204  [16]  E1 22 1C D3 24 99 E9 F1 28 23 30 75 30 75 00 00
2026-07-11T17:55:33.511609,7.953,can0  040  [04]  0C 01 12 00
2026-07-11T17:55:33.511700,7.953,can0  204  [16]  E1 22 1C D3 24 99 E9 F1 28 23 30 75 30 75 00 00
2026-07-11T17:55:33.513925,7.956,can0  206  [24]  C0 0C 72 09 CF 0C 99 C6 82 0A C1 0C D0 0C 00 00 00 00 00 00 00 00 00 00
2026-07-11T17:55:33.611133,8.053,can0  040  [04]  0C 01 12 00
2026-07-11T17:55:33.611473,8.053,can0  204  [16]  E1 22 1C D3 24 99 E9 F1 28 23 30 75 30 75 00 00
2026-07-11T17:55:33.611726,8.053,can0  204  [16]  E1 22 1C D3 24 99 E9 F1 28 23 30 75 30 75 00 00
2026-07-11T17:55:33.710622,8.152,can0  060  [32]  00 00 00 00 00 00 00 00 00 00 00 00 00 00 00 00 00 00 00 00 00 00 00 00 00 00 00 00 00 00 00 00
2026-07-11T17:55:33.710933,8.153,can0  204  [16]  E1 22 1C D3 24 99 E9 F1 28 23 30 75 30 75 00 00
2026-07-11T17:55:33.713560,8.155,can0  206  [24]  CA 0C 72 09 CB 0C 99 C6 82 0A C1 0C CA 0C 00 00 00 00 00 00 00 00 00 00
2026-07-11T17:55:33.713627,8.155,can0  041  [04]  ED 00 07 00
2026-07-11T17:55:33.718762,8.160,can0  204  [16]  E1 22 1C D3 24 99 E9 F1 28 23 30 75 30 75 00 00
2026-07-11T17:55:33.810647,8.252,can0  100  [03]  27 82 04
2026-07-11T17:55:33.810980,8.253,can0  120  [04]  00 00 00 00
2026-07-11T17:55:33.811268,8.253,can0  040  [04]  FE 00 0B 00
2026-07-11T17:55:33.811528,8.253,can0  204  [16]  E1 22 1C D3 24 99 E9 F1 28 23 30 75 30 75 00 00
2026-07-11T17:55:33.811728,8.253,can0  040  [04]  FE 00 0B 00
2026-07-11T17:55:33.811970,8.254,can0  204  [16]  E1 22 1C D3 24 99 E9 F1 28 23 30 75 30 75 00 00
2026-07-11T17:55:33.912579,8.354,can0  206  [24]  CA 0C 71 09 C6 0C 99 C6 82 0A C6 0C CA 0C 00 00 00 00 00 00 00 00 00 00
2026-07-11T17:55:33.912865,8.355,can0  204  [16]  E1 22 1C D3 24 99 E9 F1 28 23 30 75 30 75 00 00
2026-07-11T17:55:33.913065,8.355,can0  070  [20]  95 2C 4D 08 84 B1 62 03 B8 88 00 00 37 00 00 00 17 00 00 00
2026-07-11T17:55:33.913263,8.355,can0  204  [16]  E1 22 1C D3 24 99 E9 F1 28 23 30 75 30 75 00 00
2026-07-11T17:55:34.013524,8.455,can0  041  [04]  D7 00 0B 00
2026-07-11T17:55:34.013625,8.455,can0  204  [16]  E1 22 1C D3 24 99 E9 F1 28 23 30 75 30 75 00 00
2026-07-11T17:55:34.013724,8.455,can0  070  [20]  95 2C 4D 08 84 B1 62 03 B8 88 00 00 37 00 00 00 17 00 00 00
2026-07-11T17:55:34.013800,8.455,can0  206  [24]  CA 0C 73 09 C6 0C 99 C6 82 0A C6 0C CA 0C 00 00 00 00 00 00 00 00 00 00
2026-07-11T17:55:34.013892,8.456,can0  204  [16]  E1 22 1C D3 24 99 E9 F1 28 23 30 75 30 75 00 00
2026-07-11T17:55:34.014103,8.456,can0  040  [04]  FF 00 0D 00
2026-07-11T17:55:34.110788,8.552,can0  040  [04]  FF 00 0D 00
2026-07-11T17:55:34.111119,8.553,can0  204  [16]  E1 22 1C D3 24 99 E9 F1 28 23 30 75 30 75 00 00
2026-07-11T17:55:34.114374,8.556,can0  204  [16]  E1 22 1C D3 24 99 E9 F1 28 23 30 75 30 75 00 00
2026-07-11T17:55:34.210893,8.653,can0  204  [16]  E1 22 1C D3 24 99 E9 F1 28 23 30 75 30 75 00 00
2026-07-11T17:55:34.213450,8.655,can0  206  [24]  CA 0C 74 09 CB 0C 99 C6 81 0A C1 0C CA 0C 00 00 00 00 00 00 00 00 00 00
2026-07-11T17:55:34.213639,8.655,can0  060  [32]  00 00 00 00 95 2C 4D 08 D9 06 B8 10 00 00 10 0E FF 01 00 00 00 00 00 00 01 00 00 00 00 00 00 00
2026-07-11T17:55:34.310208,8.752,can0  204  [16]  E1 22 1C D3 24 99 E9 F1 28 23 30 75 30 75 00 00
2026-07-11T17:55:34.316496,8.758,can0  041  [04]  D3 00 12 00
2026-07-11T17:55:34.316584,8.758,can0  070  [20]  95 2C 4D 08 83 B1 62 03 A0 8C 00 00 37 00 00 00 2C 00 00 00
2026-07-11T17:55:34.316683,8.758,can0  204  [16]  E1 22 1C D3 24 99 E9 F1 28 23 30 75 30 75 00 00
2026-07-11T17:55:34.316764,8.758,can0  070  [20]  95 2C 4D 08 83 B1 62 03 A0 8C 00 00 37 00 00 00 2C 00 00 00
2026-07-11T17:55:34.316844,8.758,can0  040  [04]  0C 01 0E 00
2026-07-11T17:55:34.413616,8.855,can0  204  [16]  E1 22 1C D3 24 99 E9 F1 28 23 30 75 30 75 00 00
2026-07-11T17:55:34.413718,8.855,can0  040  [04]  0C 01 0E 00
2026-07-11T17:55:34.413782,8.855,can0  206  [24]  CA 0C 74 09 C6 0C 99 C6 81 0A C6 0C CA 0C 00 00 00 00 00 00 00 00 00 00
2026-07-11T17:55:34.418640,8.860,can0  204  [16]  E1 22 1C D3 24 99 E9 F1 28 23 30 75 30 75 00 00
2026-07-11T17:55:34.418705,8.860,can0  070  [20]  95 2C 4D 08 83 B1 62 03 A0 8C 00 00 37 00 00 00 2C 00 00 00
2026-07-11T17:55:34.511120,8.953,can0  204  [16]  E1 22 1C D3 24 99 E9 F1 28 23 30 75 30 75 00 00
2026-07-11T17:55:34.511406,8.953,can0  204  [16]  E1 22 1C D3 24 99 E9 F1 28 23 30 75 30 75 00 00
2026-07-11T17:55:34.511647,8.953,can0  041  [04]  DC 00 18 00
2026-07-11T17:55:34.519415,8.961,can0  206  [24]  CA 0C 74 09 C6 0C 99 C6 81 0A C6 0C CA 0C 00 00 00 00 00 00 00 00 00 00
2026-07-11T17:55:34.610180,9.052,can0  204  [16]  E1 22 1C D3 24 99 E9 F1 28 23 30 75 30 75 00 00
2026-07-11T17:55:34.610457,9.052,can0  040  [04]  0C 01 0D 00
2026-07-11T17:55:34.610740,9.052,can0  204  [16]  E1 22 1C D3 24 99 E9 F1 28 23 30 75 30 75 00 00
2026-07-11T17:55:34.611043,9.053,can0  040  [04]  0C 01 0D 00
2026-07-11T17:55:34.711071,9.153,can0  204  [16]  E1 22 1C D3 24 99 E9 F1 28 23 30 75 30 75 00 00
2026-07-11T17:55:34.711385,9.153,can0  204  [16]  E1 22 1C D3 24 99 E9 F1 28 23 30 75 30 75 00 00
2026-07-11T17:55:34.713943,9.156,can0  206  [24]  D0 0C 74 09 C0 0C 99 C6 82 0A C6 0C CA 0C 00 00 00 00 00 00 00 00 00 00
2026-07-11T17:55:34.719225,9.161,can0  060  [32]  00 00 00 00 00 00 00 00 00 00 00 00 00 00 00 00 00 00 00 00 00 00 00 00 00 00 00 00 00 00 00 00
2026-07-11T17:55:34.810304,9.252,can0  204  [16]  E1 22 1C D3 24 99 E9 F1 28 23 30 75 30 75 00 00
2026-07-11T17:55:34.810603,9.252,can0  041  [04]  E4 00 1A 00
2026-07-11T17:55:34.810903,9.253,can0  204  [16]  E1 22 1C D3 24 99 E9 F1 28 23 30 75 30 75 00 00
2026-07-11T17:55:34.816423,9.258,can0  040  [04]  16 01 08 00
2026-07-11T17:55:34.913618,9.355,can0  204  [16]  E1 22 1C D3 24 99 E9 F1 28 23 30 75 30 75 00 00
2026-07-11T17:55:34.913702,9.355,can0  206  [24]  CA 0C 73 09 BC 0C 99 C6 82 0A CF 0C D0 0C 00 00 00 00 00 00 00 00 00 00
2026-07-11T17:55:34.914017,9.356,can0  204  [16]  E1 22 1C D3 24 99 E9 F1 28 23 30 75 30 75 00 00
2026-07-11T17:55:34.914067,9.356,can0  070  [20]  95 2C 4D 08 83 B1 62 03 A0 8C 00 00 37 00 00 00 2C 00 00 00
2026-07-11T17:55:34.914257,9.356,can0  040  [04]  16 01 08 00
2026-07-11T17:55:35.010590,9.452,can0  204  [16]  E1 22 1C D3 24 99 E9 F1 28 23 30 75 30 75 00 00
2026-07-11T17:55:35.010668,9.452,can0  100  [03]  1A 82 04
2026-07-11T17:55:35.013726,9.455,can0  110  [02]  31 1B
2026-07-11T17:55:35.013800,9.455,can0  120  [04]  00 00 00 00
2026-07-11T17:55:35.013868,9.456,can0  070  [20]  95 2C 4D 08 83 B1 62 03 A0 8C 00 00 37 00 00 00 2C 00 00 00
2026-07-11T17:55:35.013917,9.456,can0  204  [16]  E1 22 1C D3 24 99 E9 F1 28 23 30 75 30 75 00 00
2026-07-11T17:55:35.013959,9.456,can0  206  [24]  CA 0C 72 09 BC 0C 99 C6 83 0A CF 0C D0 0C 00 00 00 00 00 00 00 00 00 00
2026-07-11T17:55:35.110625,9.552,can0  041  [04]  E4 00 1C 00
2026-07-11T17:55:35.116489,9.558,can0  204  [16]  E1 22 1C D3 24 99 E9 F1 28 23 30 75 30 75 00 00
2026-07-11T17:55:35.116552,9.558,can0  204  [16]  E1 22 1C D3 24 99 E9 F1 28 23 30 75 30 75 00 00
2026-07-11T17:55:35.116595,9.558,can0  040  [04]  DF 00 02 00
2026-07-11T17:55:35.211076,9.653,can0  204  [16]  E1 22 1C D3 24 99 E9 F1 28 23 30 75 30 75 00 00
2026-07-11T17:55:35.211363,9.653,can0  040  [04]  DF 00 02 00
2026-07-11T17:55:35.214156,9.656,can0  206  [24]  CA 0C 72 09 BC 0C 99 C6 83 0A CA 0C D0 0C 00 00 00 00 00 00 00 00 00 00
2026-07-11T17:55:35.214207,9.656,can0  204  [16]  E1 22 1C D3 24 99 E9 F1 28 23 30 75 30 75 00 00
2026-07-11T17:55:35.214446,9.656,can0  060  [32]  00 00 00 00 00 00 00 00 00 00 00 00 00 00 00 00 00 00 00 00 00 00 00 00 00 00 00 00 00 00 00 00
2026-07-11T17:55:35.214660,9.656,can0  060  [32]  00 00 00 00 95 2C 4D 08 D7 06 B8 10 00 00 10 0E FF 01 00 00 00 00 00 00 01 00 00 00 00 00 00 00
2026-07-11T17:55:35.310972,9.753,can0  204  [16]  E1 22 1C D3 24 99 E9 F1 28 23 30 75 30 75 00 00
2026-07-11T17:55:35.311540,9.753,can0  070  [20]  95 2C 4D 08 83 B1 62 03 88 90 00 00 37 00 00 00 1C 00 00 00
2026-07-11T17:55:35.311947,9.754,can0  204  [16]  E1 22 1C D3 24 99 E9 F1 28 23 30 75 30 75 00 00
2026-07-11T17:55:35.311998,9.754,can0  070  [20]  95 2C 4D 08 83 B1 62 03 88 90 00 00 37 00 00 00 1C 00 00 00
2026-07-11T17:55:35.312219,9.754,can0  041  [04]  EA 00 1A 00
2026-07-11T17:55:35.411174,9.853,can0  204  [16]  E1 22 1C D3 24 99 E9 F1 28 23 30 75 30 75 00 00
2026-07-11T17:55:35.413671,9.855,can0  206  [24]  CA 0C 72 09 BC 0C 99 C6 83 0A CA 0C D0 0C 00 00 00 00 00 00 00 00 00 00
2026-07-11T17:55:35.413949,9.856,can0  040  [04]  B3 00 02 00
2026-07-11T17:55:35.414213,9.856,can0  070  [20]  95 2C 4D 08 83 B1 62 03 88 90 00 00 37 00 00 00 1C 00 00 00
2026-07-11T17:55:35.414518,9.856,can0  204  [16]  E1 22 1C D3 24 99 E9 F1 28 23 30 75 30 75 00 00
2026-07-11T17:55:35.414714,9.856,can0  040  [04]  B3 00 02 00
2026-07-11T17:55:35.510679,9.952,can0  204  [16]  E1 22 1C D3 24 99 E9 F1 28 23 30 75 30 75 00 00
2026-07-11T17:55:35.510794,9.952,can0  204  [16]  E1 22 1C D3 24 99 E9 F1 28 23 30 75 30 75 00 00
2026-07-11T17:55:35.518132,9.960,can0  206  [24]  C0 0C 74 09 C6 0C 99 C6 82 0A CA 0C D0 0C 00 00 00 00 00 00 00 00 00 00
2026-07-11T17:55:35.611106,10.053,can0  204  [16]  E1 22 1C D3 24 99 E9 F1 28 23 30 75 30 75 00 00
2026-07-11T17:55:35.611734,10.053,can0  041  [04]  EA 00 1B 00
2026-07-11T17:55:35.611819,10.053,can0  204  [16]  E1 22 1C D3 24 99 E9 F1 28 23 30 75 30 75 00 00
2026-07-11T17:55:35.617422,10.059,can0  040  [04]  4D 01 05 00
2026-07-11T17:55:35.711326,10.153,can0  204  [16]  E1 22 1C D3 24 99 E9 F1 28 23 30 75 30 75 00 00
2026-07-11T17:55:35.711419,10.153,can0  040  [04]  4D 01 05 00
2026-07-11T17:55:35.713951,10.156,can0  206  [24]  C0 0C 73 09 CA 0C 99 C6 81 0A C6 0C D0 0C 00 00 00 00 00 00 00 00 00 00
2026-07-11T17:55:35.714248,10.156,can0  204  [16]  E1 22 1C D3 24 99 E9 F1 28 23 30 75 30 75 00 00
2026-07-11T17:55:35.719704,10.161,can0  060  [32]  00 00 00 00 00 00 00 00 00 00 00 00 00 00 00 00 00 00 00 00 00 00 00 00 00 00 00 00 00 00 00 00
2026-07-11T17:55:35.810588,10.252,can0  204  [16]  E1 22 1C D3 24 99 E9 F1 28 23 30 75 30 75 00 00
2026-07-11T17:55:35.810699,10.252,can0  204  [16]  E1 22 1C D3 24 99 E9 F1 28 23 30 75 30 75 00 00
2026-07-11T17:55:35.816188,10.258,can0  041  [04]  F2 00 1E 00
2026-07-11T17:55:35.910283,10.352,can0  204  [16]  E1 22 1C D3 24 99 E9 F1 28 23 30 75 30 75 00 00
2026-07-11T17:55:35.912814,10.354,can0  206  [24]  C0 0C 73 09 CA 0C 99 C6 81 0A C6 0C D0 0C 00 00 00 00 00 00 00 00 00 00
2026-07-11T17:55:35.913110,10.355,can0  070  [20]  95 2C 4D 08 83 B1 62 03 88 90 00 00 37 00 00 00 1C 00 00 00
2026-07-11T17:55:35.913363,10.355,can0  040  [04]  32 01 07 00
2026-07-11T17:55:35.913607,10.355,can0  204  [16]  E1 22 1C D3 24 99 E9 F1 28 23 30 75 30 75 00 00
2026-07-11T17:55:35.913796,10.355,can0  040  [04]  32 01 07 00
2026-07-11T17:55:36.010746,10.452,can0  204  [16]  E1 22 1C D3 24 99 E9 F1 28 23 30 75 30 75 00 00
2026-07-11T17:55:36.010842,10.452,can0  070  [20]  95 2C 4D 08 83 B1 62 03 88 90 00 00 37 00 00 00 1C 00 00 00
2026-07-11T17:55:36.010925,10.453,can0  204  [16]  E1 22 1C D3 24 99 E9 F1 28 23 30 75 30 75 00 00
2026-07-11T17:55:36.013362,10.455,can0  206  [24]  C6 0C 75 09 CA 0C 99 C6 82 0A C6 0C CA 0C 00 00 00 00 00 00 00 00 00 00
2026-07-11T17:55:36.111042,10.553,can0  204  [16]  E1 22 1C D3 24 99 E9 F1 28 23 30 75 30 75 00 00
2026-07-11T17:55:36.111338,10.553,can0  041  [04]  FA 00 19 00
2026-07-11T17:55:36.111598,10.553,can0  204  [16]  E1 22 1C D3 24 99 E9 F1 28 23 30 75 30 75 00 00
2026-07-11T17:55:36.210946,10.653,can0  100  [03]  0C 82 04
2026-07-11T17:55:36.211206,10.653,can0  120  [04]  00 00 00 00
2026-07-11T17:55:36.211495,10.653,can0  040  [04]  19 01 0A 00
2026-07-11T17:55:36.211801,10.653,can0  204  [16]  E1 22 1C D3 24 99 E9 F1 28 23 30 75 30 75 00 00
2026-07-11T17:55:36.214394,10.656,can0  206  [24]  C0 0C 75 09 CA 0C 99 C6 82 0A C6 0C D0 0C 00 00 00 00 00 00 00 00 00 00
2026-07-11T17:55:36.214696,10.656,can0  204  [16]  E1 22 1C D3 24 99 E9 F1 28 23 30 75 30 75 00 00
2026-07-11T17:55:36.214851,10.656,can0  060  [32]  00 00 00 00 95 2C 4D 08 D7 06 B8 10 00 00 10 0E FF 01 00 00 00 00 00 00 01 00 00 00 00 00 00 00
2026-07-11T17:55:36.215315,10.657,can0  040  [04]  19 01 0A 00
2026-07-11T17:55:36.310163,10.752,can0  070  [20]  95 2C 4D 08 83 B1 62 03 70 94 00 00 37 00 00 00 25 00 00 00
2026-07-11T17:55:36.315724,10.757,can0  204  [16]  E1 22 1C D3 24 99 E9 F1 28 23 30 75 30 75 00 00
2026-07-11T17:55:36.315790,10.757,can0  070  [20]  95 2C 4D 08 83 B1 62 03 70 94 00 00 37 00 00 00 26 00 00 00
2026-07-11T17:55:36.315834,10.757,can0  204  [16]  E1 22 1C D3 24 99 E9 F1 28 23 30 75 30 75 00 00
2026-07-11T17:55:36.413638,10.855,can0  206  [24]  C6 0C 74 09 CA 0C 99 C6 8C 0A C6 0C CA 0C 00 00 00 00 00 00 00 00 00 00
2026-07-11T17:55:36.413930,10.856,can0  204  [16]  E1 22 1C D3 24 99 E9 F1 28 23 30 75 30 75 00 00
2026-07-11T17:55:36.414170,10.856,can0  041  [04]  FC 00 18 00
2026-07-11T17:55:36.414808,10.856,can0  070  [20]  95 2C 4D 08 83 B1 62 03 70 94 00 00 37 00 00 00 26 00 00 00
2026-07-11T17:55:36.415161,10.857,can0  204  [16]  E1 22 1C D3 24 99 E9 F1 28 23 30 75 30 75 00 00
2026-07-11T17:55:36.415399,10.857,can0  040  [04]  19 01 0D 00
2026-07-11T17:55:36.510158,10.952,can0  204  [16]  E1 22 1C D3 24 99 E9 F1 28 23 30 75 30 75 00 00
2026-07-11T17:55:36.510383,10.952,can0  040  [04]  19 01 0D 00
2026-07-11T17:55:36.510649,10.952,can0  204  [16]  E1 22 1C D3 24 99 E9 F1 28 23 30 75 30 75 00 00
2026-07-11T17:55:36.519745,10.961,can0  206  [24]  C6 0C 74 09 CA 0C 99 C6 8D 0A C6 0C CA 0C 00 00 00 00 00 00 00 00 00 00
2026-07-11T17:55:36.613202,11.055,can0  110  [02]  32 1B
2026-07-11T17:55:36.613593,11.055,can0  204  [16]  E1 22 1C D3 24 99 E9 F1 28 23 30 75 30 75 00 00
2026-07-11T17:55:36.613889,11.056,can0  204  [16]  E1 22 1C D3 24 99 E9 F1 28 23 30 75 30 75 00 00
2026-07-11T17:55:36.614189,11.056,can0  041  [04]  F8 00 17 00
2026-07-11T17:55:36.711005,11.153,can0  204  [16]  E1 22 1C D3 24 99 E9 F1 28 23 30 75 30 75 00 00
2026-07-11T17:55:36.716044,11.158,can0  206  [24]  C0 0C 74 09 CA 0C 99 C6 8D 0A C6 0C D0 0C 00 00 00 00 00 00 00 00 00 00
2026-07-11T17:55:36.716142,11.158,can0  040  [04]  16 01 0E 00
2026-07-11T17:55:36.716451,11.158,can0  204  [16]  E1 22 1C D3 24 99 E9 F1 28 23 30 75 30 75 00 00
2026-07-11T17:55:36.716748,11.158,can0  060  [32]  00 00 00 00 00 00 00 00 00 00 00 00 00 00 00 00 00 00 00 00 00 00 00 00 00 00 00 00 00 00 00 00
2026-07-11T17:55:36.818224,11.260,can0  040  [04]  16 01 0E 00
2026-07-11T17:55:36.818585,11.260,can0  204  [16]  E1 22 1C D3 24 99 E9 F1 28 23 30 75 30 75 00 00
2026-07-11T17:55:36.818850,11.260,can0  204  [16]  E1 22 1C D3 24 99 E9 F1 28 23 30 75 30 75 00 00
2026-07-11T17:55:36.913040,11.355,can0  206  [24]  C0 0C 72 09 CA 0C 99 C6 8F 0A C6 0C D0 0C 00 00 00 00 00 00 00 00 00 00
2026-07-11T17:55:36.913363,11.355,can0  204  [16]  E1 22 1C D3 24 99 E9 F1 28 23 30 75 30 75 00 00
2026-07-11T17:55:36.913693,11.355,can0  070  [20]  95 2C 4D 08 83 B1 62 03 70 94 00 00 37 00 00 00 26 00 00 00
2026-07-11T17:55:36.913849,11.355,can0  041  [04]  F8 00 11 00
2026-07-11T17:55:36.914158,11.356,can0  204  [16]  E1 22 1C D3 24 99 E9 F1 28 23 30 75 30 75 00 00
2026-07-11T17:55:36.914370,11.356,can0  060  [32]  1B FE D5 02 B9 B6 4B 08 2B FC 60 03 63 00 25 00 04 00 80 00 00 00 00 00 01 00 00 00 00 00 00 00
2026-07-11T17:55:37.013373,11.455,can0  040  [04]  10 01 11 00
2026-07-11T17:55:37.013443,11.455,can0  204  [16]  E1 22 1C D3 24 99 E9 F1 28 23 30 75 30 75 00 00
2026-07-11T17:55:37.014157,11.456,can0  070  [20]  95 2C 4D 08 83 B1 62 03 70 94 00 00 37 00 00 00 26 00 00 00
2026-07-11T17:55:37.014214,11.456,can0  040  [04]  10 01 11 00
2026-07-11T17:55:37.017296,11.459,can0  204  [16]  E1 22 1C D3 24 99 E9 F1 28 23 30 75 30 75 00 00
2026-07-11T17:55:37.017383,11.459,can0  206  [24]  C5 0C 72 09 C6 0C 99 C6 8F 0A C6 0C D0 0C 00 00 00 00 00 00 00 00 00 00
2026-07-11T17:55:37.110734,11.552,can0  204  [16]  E1 22 1C D3 24 99 E9 F1 28 23 30 75 30 75 00 00
2026-07-11T17:55:37.114026,11.556,can0  204  [16]  E1 22 1C D3 24 99 E9 F1 28 23 30 75 30 75 00 00
2026-07-11T17:55:37.210230,11.652,can0  041  [04]  E9 00 07 00
2026-07-11T17:55:37.213257,11.655,can0  204  [16]  E1 22 1C D3 24 99 E9 F1 28 23 30 75 30 75 00 00
2026-07-11T17:55:37.213348,11.655,can0  206  [24]  CA 0C 71 09 C0 0C 99 C6 85 0A C6 0C D0 0C 00 00 00 00 00 00 00 00 00 00
2026-07-11T17:55:37.213540,11.655,can0  204  [16]  E1 22 1C D3 24 99 E9 F1 28 23 30 75 30 75 00 00
2026-07-11T17:55:37.220440,11.662,can0  040  [04]  0C 01 12 00
2026-07-11T17:55:37.311056,11.753,can0  204  [16]  E1 22 1C D3 24 99 E9 F1 28 23 30 75 30 75 00 00
2026-07-11T17:55:37.311389,11.753,can0  070  [20]  95 2C 4D 08 83 B1 62 03 58 98 00 00 37 00 00 00 1A 00 00 00
2026-07-11T17:55:37.311669,11.753,can0  040  [04]  0C 01 12 00
2026-07-11T17:55:37.311903,11.754,can0  070  [20]  95 2C 4D 08 83 B1 62 03 58 98 00 00 37 00 00 00 1A 00 00 00
2026-07-11T17:55:37.312214,11.754,can0  204  [16]  E1 22 1C D3 24 99 E9 F1 28 23 30 75 30 75 00 00
2026-07-11T17:55:37.413511,11.855,can0  206  [24]  CA 0C 71 09 C0 0C 99 C6 85 0A C6 0C D0 0C 00 00 00 00 00 00 00 00 00 00
2026-07-11T17:55:37.413593,11.855,can0  100  [03]  FC 81 04
2026-07-11T17:55:37.413830,11.855,can0  120  [04]  00 00 00 00
2026-07-11T17:55:37.414185,11.856,can0  204  [16]  E1 22 1C D3 24 99 E9 F1 28 23 30 75 30 75 00 00
2026-07-11T17:55:37.414737,11.856,can0  070  [20]  95 2C 4D 08 83 B1 62 03 58 98 00 00 37 00 00 00 1A 00 00 00
2026-07-11T17:55:37.420552,11.862,can0  204  [16]  E1 22 1C D3 24 99 E9 F1 28 23 30 75 30 75 00 00
2026-07-11T17:55:37.420635,11.862,can0  041  [04]  D8 00 04 00
2026-07-11T17:55:37.518202,11.960,can0  204  [16]  E1 22 1C D3 24 99 E9 F1 28 23 30 75 30 75 00 00
2026-07-11T17:55:37.521633,11.963,can0  040  [04]  00 01 0F 00
2026-07-11T17:55:37.521744,11.963,can0  206  [24]  C5 0C 71 09 C1 0C 99 C6 86 0A CA 0C D0 0C 00 00 00 00 00 00 00 00 00 00
2026-07-11T17:55:37.527474,11.969,can0  204  [16]  E1 22 1C D3 24 99 E9 F1 28 23 30 75 30 75 00 00
2026-07-11T17:55:37.625303,12.067,can0  040  [04]  00 01 0F 00
2026-07-11T17:55:37.625381,12.067,can0  204  [16]  E1 22 1C D3 24 99 E9 F1 28 23 30 75 30 75 00 00
2026-07-11T17:55:37.625426,12.067,can0  204  [16]  E1 22 1C D3 24 99 E9 F1 28 23 30 75 30 75 00 00
2026-07-11T17:55:37.716974,12.159,can0  204  [16]  E1 22 1C D3 24 99 E9 F1 28 23 30 75 30 75 00 00
2026-07-11T17:55:37.717071,12.159,can0  206  [24]  C5 0C 71 09 C1 0C 99 C6 83 0A CA 0C D0 0C 00 00 00 00 00 00 00 00 00 00
2026-07-11T17:55:37.717228,12.159,can0  041  [04]  04 01 05 00
2026-07-11T17:55:37.717460,12.159,can0  204  [16]  E1 22 1C D3 24 99 E9 F1 28 23 30 75 30 75 00 00
2026-07-11T17:55:37.812063,12.254,can0  040  [04]  F2 00 0D 00
2026-07-11T17:55:37.812412,12.254,can0  204  [16]  E1 22 1C D3 24 99 E9 F1 28 23 30 75 30 75 00 00
2026-07-11T17:55:37.812675,12.254,can0  040  [04]  F2 00 0D 00
2026-07-11T17:55:37.812976,12.255,can0  204  [16]  E1 22 1C D3 24 99 E9 F1 28 23 30 75 30 75 00 00
2026-07-11T17:55:37.913372,12.355,can0  206  [24]  E3 0C 71 09 BC 0C 99 C6 83 0A CA 0C B7 0C 00 00 00 00 00 00 00 00 00 00
2026-07-11T17:55:37.913470,12.355,can0  204  [16]  E1 22 1C D3 24 99 E9 F1 28 23 30 75 30 75 00 00
2026-07-11T17:55:37.913623,12.355,can0  060  [32]  00 00 00 00 95 2C 4D 08 D7 06 B8 10 00 00 10 0E FF 01 00 00 00 00 00 00 02 00 00 00 00 00 00 00
2026-07-11T17:55:37.913823,12.355,can0  060  [32]  73 ED D5 02 A6 B9 4D 08 75 1E 64 03 01 00 A5 07 FF 01 00 00 00 00 00 01 02 00 00 00 00 00 00 00
2026-07-11T17:55:37.914455,12.356,can0  070  [20]  95 2C 4D 08 83 B1 62 03 58 98 00 00 37 00 00 00 1A 00 00 00
2026-07-11T17:55:37.914695,12.356,can0  204  [16]  E1 22 1C D3 24 99 E9 F1 28 23 30 75 30 75 00 00
2026-07-11T17:55:38.012891,12.455,can0  041  [04]  F8 00 08 00
2026-07-11T17:55:38.012987,12.455,can0  204  [16]  E1 22 1C D3 24 99 E9 F1 28 23 30 75 30 75 00 00
2026-07-11T17:55:38.013040,12.455,can0  070  [20]  95 2C 4D 08 83 B1 62 03 58 98 00 00 37 00 00 00 1A 00 00 00
2026-07-11T17:55:38.015588,12.457,can0  206  [24]  DE 0C 72 09 C6 0C 99 C6 83 0A C6 0C B7 0C 00 00 00 00 00 00 00 00 00 00
2026-07-11T17:55:38.015931,12.458,can0  204  [16]  E1 22 1C D3 24 99 E9 F1 28 23 30 75 30 75 00 00
2026-07-11T17:55:38.019330,12.461,can0  040  [04]  FE 00 0C 00
2026-07-11T17:55:38.111160,12.553,can0  204  [16]  E1 22 1C D3 24 99 E9 F1 28 23 30 75 30 75 00 00
2026-07-11T17:55:38.111443,12.553,can0  040  [04]  FE 00 0C 00
2026-07-11T17:55:38.111780,12.553,can0  204  [16]  E1 22 1C D3 24 99 E9 F1 28 23 30 75 30 75 00 00
2026-07-11T17:55:38.190936,12.633,can0   002  [04]  0d 85 30 10 0
2026-07-11T17:55:38.210308,12.652,can0  110  [02]  31 1B
2026-07-11T17:55:38.213246,12.655,can0  206  [24]  DA 0C 71 09 CA 0C 99 C6 84 0A C6 0C B7 0C 00 00 00 00 00 00 00 00 00 00
2026-07-11T17:55:38.213305,12.655,can0  204  [16]  E1 22 1C D3 24 99 E9 F1 28 23 30 75 30 75 00 00
2026-07-11T17:55:38.213692,12.655,can0  204  [16]  E1 22 1C D3 24 99 E9 F1 28 23 30 75 30 75 00 00
2026-07-11T17:55:38.213897,12.656,can0  041  [04]  E8 00 0C 00
2026-07-11T17:55:38.214115,12.656,can0  002  [04]  D8 53 01 00
2026-07-11T17:55:38.320751,12.762,can0  070  [20]  97 2C 4D 08 81 B1 62 03 40 9C 00 00 37 00 00 00 1E 00 00 00
2026-07-11T17:55:38.324833,12.766,can0  204  [16]  E1 22 1C D3 24 99 E9 F1 28 23 30 75 30 75 00 00
2026-07-11T17:55:38.325117,12.767,can0  070  [20]  97 2C 4D 08 81 B1 62 03 40 9C 00 00 37 00 00 00 1D 00 00 00
2026-07-11T17:55:38.325421,12.767,can0  040  [04]  F9 00 0C 00
2026-07-11T17:55:38.325810,12.767,can0  204  [16]  E1 22 1C D3 24 99 E9 F1 28 23 30 75 30 75 00 00
2026-07-11T17:55:38.367157,12.809,can0   002  [04]  02 04 80 10 0
2026-07-11T17:55:38.432987,12.875,can0  206  [24]  DF 0C 71 09 CA 0C 99 C6 83 0A C6 0C B2 0C 00 00 00 00 00 00 00 00 00 00
2026-07-11T17:55:38.433307,12.875,can0  040  [04]  F9 00 0C 00
2026-07-11T17:55:38.433678,12.875,can0  204  [16]  E1 22 1C D3 24 99 E9 F1 28 23 30 75 30 75 00 00
2026-07-11T17:55:38.434197,12.876,can0  070  [20]  97 2C 4D 08 81 B1 62 03 40 9C 00 00 37 00 00 00 1D 00 00 00
2026-07-11T17:55:38.434449,12.876,can0  060  [32]  00 00 00 00 95 2C 4D 08 D7 06 B8 10 00 00 10 0E FF 01 00 00 00 00 00 00 02 00 00 00 00 00 00 00
2026-07-11T17:55:38.434713,12.876,can0  002  [04]  20 48 01 00
2026-07-11T17:55:38.434944,12.877,can0  060  [32]  D7 93 D6 02 3D AF 4D 08 79 90 60 03 46 01 FD 09 00 01 80 00 00 00 00 01 02 00 00 00 00 00 00 00
2026-07-11T17:55:38.435720,12.877,can0  204  [16]  E1 22 1C D3 24 99 E9 F1 28 23 30 75 30 75 00 00
2026-07-11T17:55:38.523721,12.965,can0   002  [04]  06 83 c0 10 0
2026-07-11T17:55:38.534353,12.976,can0  204  [16]  E1 22 1C D3 24 99 E9 F1 28 23 30 75 30 75 00 00
2026-07-11T17:55:38.534440,12.976,can0  041  [04]  EE 00 15 00
2026-07-11T17:55:38.537313,12.979,can0  206  [24]  E4 0C 71 09 C6 0C 99 C6 83 0A C6 0C AD 0C 00 00 00 00 00 00 00 00 00 00
2026-07-11T17:55:38.537370,12.979,can0  204  [16]  E1 22 1C D3 24 99 E9 F1 28 23 30 75 30 75 00 00
2026-07-11T17:55:38.627991,13.070,can0   002  [04]  0b 03 00 10 0
2026-07-11T17:55:38.637283,13.079,can0  100  [03]  E2 81 04
2026-07-11T17:55:38.637346,13.079,can0  120  [04]  00 00 00 00
2026-07-11T17:55:38.637564,13.079,can0  040  [04]  EA 00 0D 00
2026-07-11T17:55:38.637780,13.079,can0  002  [04]  68 3C 01 00
2026-07-11T17:55:38.638143,13.080,can0  204  [16]  E1 22 1C D3 24 99 E9 F1 28 23 30 75 30 75 00 00
2026-07-11T17:55:38.638424,13.080,can0  040  [04]  EA 00 0D 00
2026-07-11T17:55:38.644863,13.087,can0  204  [16]  E1 22 1C D3 24 99 E9 F1 28 23 30 75 30 75 00 00
2026-07-11T17:55:38.738307,13.180,can0  206  [24]  C6 0C 71 09 C6 0C 99 C6 82 0A C5 0C C6 0C 00 00 00 00 00 00 00 00 00 00
2026-07-11T17:55:38.738583,13.180,can0  002  [04]  B0 30 01 00
2026-07-11T17:55:38.745014,13.187,can0  204  [16]  E1 22 1C D3 24 99 E9 F1 28 23 30 75 30 75 00 00
2026-07-11T17:55:38.745083,13.187,can0  204  [16]  E1 22 1C D3 24 99 E9 F1 28 23 30 75 30 75 00 00
2026-07-11T17:55:38.779257,13.221,can0   002  [04]  06 83 c0 10 0
2026-07-11T17:55:38.836539,13.278,can0  041  [04]  ED 00 19 00
2026-07-11T17:55:38.836610,13.278,can0  204  [16]  E1 22 1C D3 24 99 E9 F1 28 23 30 75 30 75 00 00
2026-07-11T17:55:38.837191,13.279,can0  040  [04]  EA 00 0D 00
2026-07-11T17:55:38.837239,13.279,can0  002  [04]  68 3C 01 00
2026-07-11T17:55:38.837282,13.279,can0  204  [16]  E1 22 1C D3 24 99 E9 F1 28 23 30 75 30 75 00 00
2026-07-11T17:55:38.840361,13.282,can0  206  [24]  C6 0C 71 09 C1 0C 99 C6 82 0A CA 0C C6 0C 00 00 00 00 00 00 00 00 00 00
2026-07-11T17:55:38.933521,13.375,can0  040  [04]  EA 00 0D 00
2026-07-11T17:55:38.933868,13.376,can0  204  [16]  E1 22 1C D3 24 99 E9 F1 28 23 30 75 30 75 00 00
2026-07-11T17:55:38.934154,13.376,can0  070  [20]  97 2C 4D 08 81 B1 62 03 40 9C 00 00 37 00 00 00 1D 00 00 00
2026-07-11T17:55:38.934577,13.376,can0  204  [16]  E1 22 1C D3 24 99 E9 F1 28 23 30 75 30 75 00 00
2026-07-11T17:55:38.973699,13.415,can0   002  [04]  02 04 80 10 0
2026-07-11T17:55:39.030185,13.472,can0  070  [20]  97 2C 4D 08 81 B1 62 03 40 9C 00 00 37 00 00 00 1D 00 00 00
2026-07-11T17:55:39.030312,13.472,can0  204  [16]  E1 22 1C D3 24 99 E9 F1 28 23 30 75 30 75 00 00
2026-07-11T17:55:39.033000,13.475,can0  206  [24]  C1 0C 71 09 C1 0C 99 C6 81 0A D0 0C CA 0C 00 00 00 00 00 00 00 00 00 00
2026-07-11T17:55:39.033080,13.475,can0  002  [04]  20 48 01 00
2026-07-11T17:55:39.039457,13.481,can0  041  [04]  E7 00 1C 00
2026-07-11T17:55:39.039560,13.481,can0  204  [16]  E1 22 1C D3 24 99 E9 F1 28 23 30 75 30 75 00 00
2026-07-11T17:55:39.116426,13.558,can0   002  [04]  0d 85 30 10 0
2026-07-11T17:55:39.133561,13.575,can0  040  [04]  F5 00 11 00
2026-07-11T17:55:39.133635,13.575,can0  204  [16]  E1 22 1C D3 24 99 E9 F1 28 23 30 75 30 75 00 00
2026-07-11T17:55:39.133724,13.575,can0  204  [16]  E1 22 1C D3 24 99 E9 F1 28 23 30 75 30 75 00 00
2026-07-11T17:55:39.227550,13.669,can0  040  [04]  F5 00 11 00
2026-07-11T17:55:39.227678,13.669,can0  002  [04]  D8 53 01 00
2026-07-11T17:55:39.227780,13.669,can0  206  [24]  C0 0C 72 09 C1 0C 99 C6 81 0A CF 0C D0 0C 00 00 00 00 00 00 00 00 00 00
2026-07-11T17:55:39.227876,13.670,can0  204  [16]  E1 22 1C D3 24 99 E9 F1 28 23 30 75 30 75 00 00
2026-07-11T17:55:39.227971,13.670,can0  204  [16]  E1 22 1C D3 24 99 E9 F1 28 23 30 75 30 75 00 00
2026-07-11T17:55:39.265413,13.707,can0   002  [04]  09 05 f0 10 0
2026-07-11T17:55:39.327884,13.770,can0  060  [32]  30 7B D6 02 0E B5 4D 08 2E 1E 64 03 00 00 91 08 57 00 80 00 00 00 00 00 02 00 00 00 00 00 00 00
2026-07-11T17:55:39.328535,13.770,can0  060  [32]  00 00 00 00 97 2C 4D 08 D6 06 B8 10 00 00 10 0E FF 01 00 00 00 00 00 01 02 00 00 00 00 00 00 00
2026-07-11T17:55:39.329417,13.771,can0  204  [16]  E1 22 1C D3 24 99 E9 F1 28 23 30 75 30 75 00 00
2026-07-11T17:55:39.329482,13.771,can0  070  [20]  97 2C 4D 08 81 B1 62 03 28 A0 00 00 37 00 00 00 23 00 00 00
2026-07-11T17:55:39.329560,13.771,can0  041  [04]  EA 00 1B 00
2026-07-11T17:55:39.329691,13.771,can0  002  [04]  90 5F 01 00
2026-07-11T17:55:39.329911,13.772,can0  070  [20]  97 2C 4D 08 81 B1 62 03 28 A0 00 00 37 00 00 00 23 00 00 00
2026-07-11T17:55:39.332531,13.774,can0  206  [24]  C0 0C 72 09 C6 0C 99 C6 80 0A CF 0C D0 0C 00 00 00 00 00 00 00 00 00 00
2026-07-11T17:55:39.338691,13.780,can0  204  [16]  E1 22 1C D3 24 99 E9 F1 28 23 30 75 30 75 00 00
2026-07-11T17:55:39.410311,13.852,can0   002  [04]  04 86 b0 10 0
2026-07-11T17:55:39.430213,13.872,can0  040  [04]  FE 00 10 00
2026-07-11T17:55:39.431095,13.873,can0  070  [20]  97 2C 4D 08 81 B1 62 03 28 A0 00 00 37 00 00 00 23 00 00 00
2026-07-11T17:55:39.431505,13.873,can0  204  [16]  E1 22 1C D3 24 99 E9 F1 28 23 30 75 30 75 00 00
2026-07-11T17:55:39.431969,13.874,can0  040  [04]  FE 00 10 00
2026-07-11T17:55:39.432021,13.874,can0  204  [16]  E1 22 1C D3 24 99 E9 F1 28 23 30 75 30 75 00 00
2026-07-11T17:55:39.534577,13.976,can0  002  [04]  48 6B 01 00
2026-07-11T17:55:39.534959,13.977,can0  132  [00]
2026-07-11T17:55:39.535466,13.977,can0  204  [16]  E1 22 1C D3 24 99 E9 F1 28 23 30 75 30 75 00 00
2026-07-11T17:55:39.543717,13.985,can0  206  [24]  C0 0C 74 09 CA 0C 99 C6 81 0A CA 0C D0 0C 00 00 00 00 00 00 00 00 00 00
2026-07-11T17:55:39.578366,14.020,can0   002  [04]  09 05 f0 10 0
2026-07-11T17:55:39.638180,14.080,can0  204  [16]  E1 22 1C D3 24 99 E9 F1 28 23 30 75 30 75 00 00
2026-07-11T17:55:39.638597,14.080,can0  041  [04]  EE 00 1B 00
2026-07-11T17:55:39.642395,14.084,can0  204  [16]  E1 22 1C D3 24 99 E9 F1 28 23 30 75 30 75 00 00
2026-07-11T17:55:39.642472,14.084,can0  002  [04]  90 5F 01 00
2026-07-11T17:55:39.642515,14.084,can0  040  [04]  F9 00 11 00
2026-07-11T17:55:39.733019,14.175,can0  204  [16]  E1 22 1C D3 24 99 E9 F1 28 23 30 75 30 75 00 00
2026-07-11T17:55:39.735916,14.178,can0  206  [24]  C5 0C 74 09 C6 0C 99 C6 81 0A C6 0C D0 0C 00 00 00 00 00 00 00 00 00 00
2026-07-11T17:55:39.736174,14.178,can0  040  [04]  F9 00 11 00
2026-07-11T17:55:39.736554,14.178,can0  204  [16]  E1 22 1C D3 24 99 E9 F1 28 23 30 75 30 75 00 00
2026-07-11T17:55:39.828696,14.270,can0  204  [16]  E1 22 1C D3 24 99 E9 F1 28 23 30 75 30 75 00 00
2026-07-11T17:55:39.828763,14.270,can0  100  [03]  66 81 04
2026-07-11T17:55:39.828806,14.270,can0  110  [02]  30 1B
2026-07-11T17:55:39.828945,14.271,can0  120  [04]  00 00 00 00
2026-07-11T17:55:39.829178,14.271,can0  060  [32]  00 00 00 00 00 00 00 00 00 00 00 00 00 00 00 00 00 00 00 00 00 00 00 00 00 00 00 00 00 00 00 00
2026-07-11T17:55:39.829490,14.271,can0  204  [16]  E1 22 1C D3 24 99 E9 F1 28 23 30 75 30 75 00 00
2026-07-11T17:55:39.829717,14.271,can0  041  [04]  EB 00 17 00
2026-07-11T17:55:39.832533,14.274,can0  206  [24]  C6 0C 75 09 CA 0C 99 C6 82 0A C6 0C CA 0C 00 00 00 00 00 00 00 00 00 00
2026-07-11T17:55:39.938143,14.380,can0  204  [16]  E1 22 1C D3 24 99 E9 F1 28 23 30 75 30 75 00 00
2026-07-11T17:55:39.938242,14.380,can0  070  [20]  97 2C 4D 08 81 B1 62 03 28 A0 00 00 37 00 00 00 23 00 00 00
2026-07-11T17:55:39.938300,14.380,can0  040  [04]  E2 00 10 00
2026-07-11T17:55:39.938346,14.380,can0  204  [16]  E1 22 1C D3 24 99 E9 F1 28 23 30 75 30 75 00 00
2026-07-11T17:55:39.938391,14.380,can0  040  [04]  E2 00 10 00
2026-07-11T17:55:40.038012,14.480,can0  204  [16]  E1 22 1C D3 24 99 E9 F1 28 23 30 75 30 75 00 00
2026-07-11T17:55:40.038120,14.480,can0  070  [20]  97 2C 4D 08 81 B1 62 03 28 A0 00 00 37 00 00 00 23 00 00 00
2026-07-11T17:55:40.038170,14.480,can0  204  [16]  E1 22 1C D3 24 99 E9 F1 28 23 30 75 30 75 00 00
2026-07-11T17:55:40.038262,14.480,can0  206  [24]  C6 0C 74 09 CA 0C 99 C6 81 0A C1 0C CA 0C 00 00 00 00 00 00 00 00 00 00
2026-07-11T17:55:40.123130,14.565,can0   001  [05]  04 86 b0 10 08 0
2026-07-11T17:55:40.134202,14.576,can0  204  [16]  E1 22 1C D3 24 99 E9 F1 28 23 30 75 30 75 00 00
2026-07-11T17:55:40.138373,14.580,can0  041  [04]  F0 00 16 00
2026-07-11T17:55:40.138498,14.580,can0  204  [16]  E1 22 1C D3 24 99 E9 F1 28 23 30 75 30 75 00 00
2026-07-11T17:55:40.235402,14.677,can0  204  [16]  E1 22 1C D3 24 99 E9 F1 28 23 30 75 30 75 00 00
2026-07-11T17:55:40.235734,14.677,can0  040  [04]  E2 00 11 00
2026-07-11T17:55:40.239884,14.682,can0  206  [24]  C6 0C 74 09 CA 0C 99 C6 83 0A C1 0C CA 0C 00 00 00 00 00 00 00 00 00 00
2026-07-11T17:55:40.239944,14.682,can0  001  [05]  48 6B 01 00 80
2026-07-11T17:55:40.240088,14.682,can0  131  [00]
2026-07-11T17:55:40.240394,14.682,can0  204  [16]  E1 22 1C D3 24 99 E9 F1 54 24 30 75 30 75 00 00
2026-07-11T17:55:40.240646,14.682,can0  040  [04]  E2 00 11 00
2026-07-11T17:55:40.277461,14.719,can0   001  [05]  00 07 70 10 08 0
2026-07-11T17:55:40.347430,14.789,can0  070  [20]  97 2C 4D 08 81 B1 62 03 10 A4 00 00 37 00 00 00 32 00 00 00
2026-07-11T17:55:40.347552,14.789,can0  204  [16]  E1 22 1C D3 24 99 E9 F1 54 24 30 75 30 75 00 00
2026-07-11T17:55:40.347665,14.789,can0  060  [32]  00 00 00 00 97 2C 4D 08 D6 06 B8 10 00 00 10 0E FF 01 00 00 00 00 00 00 01 00 00 00 00 00 00 00
2026-07-11T17:55:40.348232,14.790,can0  070  [20]  97 2C 4D 08 81 B1 62 03 10 A4 00 00 37 00 00 00 32 00 00 00
2026-07-11T17:55:40.348510,14.790,can0  204  [16]  E1 22 1C D3 24 99 E9 F1 54 24 30 75 30 75 00 00
2026-07-11T17:55:40.348788,14.790,can0  001  [05]  00 77 01 00 80
2026-07-11T17:55:40.351988,14.794,can0  206  [24]  CA 0C 72 09 CB 0C 99 C6 83 0A C1 0C CA 0C 00 00 00 00 00 00 00 00 00 00
2026-07-11T17:55:40.399439,14.841,can0  204  [16]  E1 22 1C D3 24 99 E9 F1 80 25 30 75 30 75 00 00
2026-07-11T17:55:40.399737,14.841,can0  041  [04]  F8 00 16 00
2026-07-11T17:55:40.399998,14.842,can0  070  [20]  97 2C 4D 08 81 B1 62 03 10 A4 00 00 37 00 00 00 32 00 00 00
2026-07-11T17:55:40.400287,14.842,can0  204  [16]  E1 22 1C D3 24 99 E9 F1 80 25 30 75 30 75 00 00
2026-07-11T17:55:40.400578,14.842,can0  040  [04]  F4 00 0D 00
2026-07-11T17:55:40.440324,14.882,can0   001  [05]  0b 88 20 10 08 0
2026-07-11T17:55:40.501585,14.943,can0  204  [16]  E1 22 1C D3 24 99 E9 F1 80 25 30 75 30 75 00 00
2026-07-11T17:55:40.501844,14.943,can0  040  [04]  F4 00 0D 00
2026-07-11T17:55:40.502067,14.944,can0  001  [05]  B8 82 01 00 80
2026-07-11T17:55:40.505719,14.947,can0  206  [24]  C6 0C 72 09 C6 0C 99 C6 83 0A C6 0C CA 0C 00 00 00 00 00 00 00 00 00 00
2026-07-11T17:55:40.506031,14.948,can0  204  [16]  04 23 1C D3 24 99 E9 F1 AC 26 30 75 30 75 00 00
2026-07-11T17:55:40.591841,15.033,can0   001  [05]  07 08 e0 10 08 0
2026-07-11T17:55:40.603908,15.046,can0  204  [16]  28 23 1C D3 24 99 E9 F1 AC 26 30 75 30 75 00 00
2026-07-11T17:55:40.604204,15.046,can0  204  [16]  4B 23 1C D3 24 99 E9 F1 AC 26 30 75 30 75 00 00
2026-07-11T17:55:40.604434,15.046,can0  133  [00]
2026-07-11T17:55:40.604746,15.046,can0  041  [04]  F6 00 15 00
2026-07-11T17:55:40.605205,15.047,can0  001  [05]  70 8E 01 00 80
2026-07-11T17:55:40.704954,15.147,can0  204  [16]  91 23 1C D3 24 99 E9 F1 D8 27 30 75 30 75 00 00
2026-07-11T17:55:40.708425,15.150,can0  206  [24]  C1 0C 70 09 C6 0C 99 C6 83 0A C0 0C CA 0C 00 00 00 00 00 00 00 00 00 00
2026-07-11T17:55:40.708767,15.150,can0  040  [04]  07 01 0F 00
2026-07-11T17:55:40.709149,15.151,can0  204  [16]  B4 23 1C D3 24 99 E9 F1 D8 27 30 75 30 75 00 00
2026-07-11T17:55:40.748346,15.190,can0   001  [05]  02 89 a0 10 08 0
2026-07-11T17:55:40.814287,15.256,can0  040  [04]  07 01 0F 00
2026-07-11T17:55:40.815106,15.257,can0  204  [16]  FA 23 1C D3 24 99 E9 F1 D8 27 30 75 30 75 00 00
2026-07-11T17:55:40.815197,15.257,can0  001  [05]  28 9A 01 00 80
2026-07-11T17:55:40.824059,15.266,can0  204  [16]  1E 24 1C D3 24 99 E9 F1 04 29 30 75 30 75 00 00
2026-07-11T17:55:40.824152,15.266,can0  206  [24]  C1 0C 70 09 BC 0C 99 C6 83 0A C6 0C CA 0C 00 00 00 00 00 00 00 00 00 00
2026-07-11T17:55:40.922881,15.365,can0  204  [16]  64 24 1C D3 24 99 E9 F1 04 29 30 75 30 75 00 00
2026-07-11T17:55:40.922975,15.365,can0  070  [20]  97 2C 4D 08 81 B1 62 03 10 A4 00 00 37 00 00 00 32 00 00 00
2026-07-11T17:55:40.923065,15.365,can0  041  [04]  EE 00 15 00
2026-07-11T17:55:40.923353,15.365,can0  204  [16]  AA 24 1C D3 24 99 E9 F1 04 29 30 75 30 75 00 00
2026-07-11T17:55:40.923440,15.365,can0  130  [00]
2026-07-11T17:55:40.923709,15.365,can0  100  [03]  62 81 04
2026-07-11T17:55:41.023900,15.466,can0  120  [04]  00 00 00 00
2026-07-11T17:55:41.024499,15.466,can0  204  [16]  F1 24 1C D3 24 99 E9 F1 04 29 30 75 30 75 00 00
2026-07-11T17:55:41.024928,15.467,can0  040  [04]  0C 01 10 00
2026-07-11T17:55:41.025295,15.467,can0  070  [20]  97 2C 4D 08 81 B1 62 03 10 A4 00 00 37 00 00 00 32 00 00 00
2026-07-11T17:55:41.033826,15.475,can0  206  [24]  C1 0C 72 09 BB 0C 99 C6 83 0A C5 0C C6 0C 00 00 00 00 00 00 00 00 00 00
2026-07-11T17:55:41.033887,15.476,can0  204  [16]  37 25 1C D3 24 99 E9 F1 04 29 30 75 30 75 00 00
2026-07-11T17:55:41.033930,15.476,can0  040  [04]  0C 01 10 00
2026-07-11T17:55:41.126775,15.568,can0  204  [16]  5A 25 1C D3 24 99 E9 F1 04 29 30 75 30 75 00 00
2026-07-11T17:55:41.126847,15.568,can0  204  [16]  A0 25 1C D3 24 99 E9 F1 04 29 30 75 30 75 00 00
2026-07-11T17:55:41.224139,15.666,can0  041  [04]  EB 00 16 00
2026-07-11T17:55:41.224244,15.666,can0  204  [16]  E7 25 1C D3 24 99 E9 F1 04 29 30 75 30 75 00 00
2026-07-11T17:55:41.227504,15.669,can0  206  [24]  BB 0C 72 09 B7 0C 99 C6 83 0A C6 0C C6 0C 00 00 00 00 00 00 00 00 00 00
2026-07-11T17:55:41.227598,15.669,can0  204  [16]  0A 26 1C D3 24 99 E9 F1 04 29 30 75 30 75 00 00
2026-07-11T17:55:41.227786,15.669,can0  040  [04]  12 01 0E 00
2026-07-11T17:55:41.330576,15.772,can0  204  [16]  2D 26 1C D3 24 99 E9 F1 04 29 30 75 30 75 00 00
2026-07-11T17:55:41.330680,15.772,can0  070  [20]  97 2C 4D 08 81 B1 62 03 F8 A7 00 00 37 00 00 00 1A 00 00 00
2026-07-11T17:55:41.330736,15.772,can0  040  [04]  12 01 0E 00
2026-07-11T17:55:41.330778,15.772,can0  060  [32]  6E DE D5 02 08 6B 4D 08 56 DC 64 03 00 00 95 0C 3A 00 80 00 00 00 00 00 02 00 00 00 00 00 00 00
2026-07-11T17:55:41.330823,15.772,can0  060  [32]  00 00 00 00 97 2C 4D 08 D6 06 B8 10 00 00 10 0E FF 01 00 00 00 00 00 01 02 00 00 00 00 00 00 00
2026-07-11T17:55:41.333624,15.775,can0  204  [16]  73 26 1C D3 24 99 E9 F1 04 29 30 75 30 75 00 00
2026-07-11T17:55:41.333704,15.775,can0  070  [20]  97 2C 4D 08 81 B1 62 03 F8 A7 00 00 37 00 00 00 1A 00 00 00
2026-07-11T17:55:41.333754,15.775,can0  206  [24]  B6 0C 70 09 B7 0C 99 C6 82 0A C6 0C CA 0C 00 00 00 00 00 00 00 00 00 00
2026-07-11T17:55:41.433815,15.875,can0  110  [02]  31 1B
2026-07-11T17:55:41.434764,15.876,can0  204  [16]  96 26 1C D3 24 99 E9 F1 04 29 30 75 30 75 00 00
2026-07-11T17:55:41.434851,15.876,can0  070  [20]  97 2C 4D 08 81 B1 62 03 F8 A7 00 00 37 00 00 00 1A 00 00 00
2026-07-11T17:55:41.435224,15.877,can0  204  [16]  BA 26 1C D3 24 99 E9 F1 04 29 30 75 30 75 00 00
2026-07-11T17:55:41.435528,15.877,can0  041  [04]  EF 00 18 00
2026-07-11T17:55:41.523679,15.965,can0   001  [05]  09 05 f0 10 08 0
2026-07-11T17:55:41.534082,15.976,can0  204  [16]  DD 26 1C D3 24 99 E9 F1 04 29 30 75 30 75 00 00
2026-07-11T17:55:41.534404,15.976,can0  040  [04]  16 01 0E 00
2026-07-11T17:55:41.538830,15.980,can0  206  [24]  BB 0C 74 09 B7 0C 99 C6 81 0A CA 0C C6 0C 00 00 00 00 00 00 00 00 00 00
2026-07-11T17:55:41.539226,15.981,can0  204  [16]  23 27 1C D3 24 99 E9 F1 04 29 30 75 30 75 00 00
2026-07-11T17:55:41.539516,15.981,can0  040  [04]  16 01 0E 00
2026-07-11T17:55:41.639587,16.081,can0  204  [16]  23 27 1C D3 24 99 E9 F1 04 29 30 75 30 75 00 00
2026-07-11T17:55:41.639887,16.082,can0  001  [05]  90 5F 01 00 80
2026-07-11T17:55:41.640132,16.082,can0  204  [16]  46 27 1C D3 24 99 E9 F1 28 23 30 75 30 75 00 00
2026-07-11T17:55:41.735882,16.178,can0  206  [24]  BB 0C 73 09 B2 0C 99 C6 81 0A CF 0C C6 0C 00 00 00 00 00 00 00 00 00 00
2026-07-11T17:55:41.736268,16.178,can0  204  [16]  46 27 1C D3 24 99 E9 F1 28 23 30 75 30 75 00 00
2026-07-11T17:55:41.736552,16.178,can0  041  [04]  EF 00 18 00
2026-07-11T17:55:41.736927,16.179,can0  204  [16]  46 27 1C D3 24 99 E9 F1 28 23 30 75 30 75 00 00
2026-07-11T17:55:41.737276,16.179,can0  040  [04]  1C 01 0F 00
2026-07-11T17:55:41.829926,16.272,can0  204  [16]  46 27 1C D3 24 99 E9 F1 28 23 30 75 30 75 00 00
2026-07-11T17:55:41.830165,16.272,can0  040  [04]  1C 01 0F 00
2026-07-11T17:55:41.830593,16.272,can0  204  [16]  46 27 1C D3 24 99 E9 F1 28 23 30 75 30 75 00 00
2026-07-11T17:55:41.834497,16.276,can0  206  [24]  B6 0C 72 09 B2 0C 99 C6 80 0A CF 0C CA 0C 00 00 00 00 00 00 00 00 00 00
2026-07-11T17:55:41.926915,16.369,can0  204  [16]  46 27 1C D3 24 99 E9 F1 28 23 30 75 30 75 00 00
2026-07-11T17:55:41.927196,16.369,can0  060  [32]  59 84 D6 02 41 9B 4D 08 0B 5B 64 03 38 00 E9 03 60 00 01 00 00 00 00 00 02 00 00 00 00 00 00 00
2026-07-11T17:55:41.927412,16.369,can0  060  [32]  84 18 D6 02 85 B6 4D 08 53 1F 64 03 00 00 A8 03 66 01 80 00 00 00 00 01 02 00 00 00 00 00 00 00
2026-07-11T17:55:41.928336,16.370,can0  070  [20]  97 2C 4D 08 81 B1 62 03 F8 A7 00 00 37 00 00 00 1A 00 00 00
2026-07-11T17:55:41.928738,16.370,can0  204  [16]  46 27 1C D3 24 99 E9 F1 28 23 30 75 30 75 00 00
2026-07-11T17:55:42.017853,16.459,can0  041  [04]  F1 00 19 00
2026-07-11T17:55:42.018212,16.460,can0  204  [16]  46 27 1C D3 24 99 E9 F1 28 23 30 75 30 75 00 00
2026-07-11T17:55:42.018565,16.460,can0  070  [20]  97 2C 4D 08 81 B1 62 03 F8 A7 00 00 37 00 00 00 1A 00 00 00
2026-07-11T17:55:42.021706,16.463,can0  206  [24]  C1 0C 72 09 AC 0C 99 C6 80 0A CF 0C C6 0C 00 00 00 00 00 00 00 00 00 00
2026-07-11T17:55:42.021970,16.464,can0  040  [04]  11 01 0E 00
2026-07-11T17:55:42.022351,16.464,can0  204  [16]  46 27 1C D3 24 99 E9 F1 28 23 30 75 30 75 00 00
2026-07-11T17:55:42.119763,16.561,can0  204  [16]  46 27 1C D3 24 99 E9 F1 28 23 30 75 30 75 00 00
2026-07-11T17:55:42.120137,16.562,can0  040  [04]  11 01 0E 00
2026-07-11T17:55:42.124750,16.566,can0  204  [16]  46 27 1C D3 24 99 E9 F1 28 23 30 75 30 75 00 00
2026-07-11T17:55:42.218913,16.661,can0  100  [03]  54 81 04
2026-07-11T17:55:42.219181,16.661,can0  120  [04]  00 00 00 00
2026-07-11T17:55:42.222472,16.664,can0  206  [24]  C1 0C 72 09 AC 0C 99 C6 81 0A CB 0C C6 0C 00 00 00 00 00 00 00 00 00 00
2026-07-11T17:55:42.222566,16.664,can0  204  [16]  23 27 1C D3 24 99 E9 F1 28 23 30 75 30 75 00 00
2026-07-11T17:55:42.222850,16.664,can0  204  [16]  00 27 1C D3 24 99 E9 F1 28 23 30 75 30 75 00 00
2026-07-11T17:55:42.230870,16.673,can0  041  [04]  EE 00 1B 00
2026-07-11T17:55:42.320286,16.762,can0  070  [20]  98 2C 4D 08 81 B1 62 03 E0 AB 00 00 37 00 00 00 1E 00 00 00
2026-07-11T17:55:42.320678,16.762,can0  204  [16]  DD 26 1C D3 24 99 E9 F1 28 23 30 75 30 75 00 00
2026-07-11T17:55:42.321034,16.763,can0  040  [04]  0C 01 0D 00
2026-07-11T17:55:42.325499,16.767,can0  206  [24]  BB 0C 72 09 B2 0C 99 C6 81 0A CB 0C C6 0C 00 00 00 00 00 00 00 00 00 00
2026-07-11T17:55:42.325596,16.767,can0  204  [16]  96 26 1C D3 24 99 E9 F1 28 23 30 75 30 75 00 00
2026-07-11T17:55:42.325856,16.767,can0  070  [20]  98 2C 4D 08 81 B1 62 03 E0 AB 00 00 37 00 00 00 1E 00 00 00
2026-07-11T17:55:42.326133,16.768,can0  040  [04]  0C 01 0D 00
2026-07-11T17:55:42.420783,16.862,can0  204  [16]  50 26 1C D3 24 99 E9 F1 28 23 30 75 30 75 00 00
2026-07-11T17:55:42.421041,16.863,can0  070  [20]  98 2C 4D 08 81 B1 62 03 E0 AB 00 00 37 00 00 00 1E 00 00 00
2026-07-11T17:55:42.421322,16.863,can0  204  [16]  2D 26 1C D3 24 99 E9 F1 28 23 30 75 30 75 00 00
2026-07-11T17:55:42.526276,16.968,can0  204  [16]  E7 25 1C D3 24 99 E9 F1 28 23 30 75 30 75 00 00
2026-07-11T17:55:42.529802,16.971,can0  206  [24]  C1 0C 73 09 B1 0C 99 C6 81 0A C6 0C C6 0C 00 00 00 00 00 00 00 00 00 00
2026-07-11T17:55:42.530072,16.972,can0  041  [04]  EA 00 19 00
2026-07-11T17:55:42.530347,16.972,can0  204  [16]  C3 25 1C D3 24 99 E9 F1 28 23 30 75 30 75 00 00
2026-07-11T17:55:42.633611,17.075,can0  040  [04]  0C 01 0C 00
2026-07-11T17:55:42.633701,17.075,can0  204  [16]  A0 25 1C D3 24 99 E9 F1 28 23 30 75 30 75 00 00
2026-07-11T17:55:42.633752,17.075,can0  040  [04]  0C 01 0C 00
2026-07-11T17:55:42.633798,17.075,can0  204  [16]  7D 25 1C D3 24 99 E9 F1 28 23 30 75 30 75 00 00
2026-07-11T17:55:42.727810,17.169,can0  206  [24]  C1 0C 73 09 B1 0C 99 C6 80 0A C6 0C C6 0C 00 00 00 00 00 00 00 00 00 00
2026-07-11T17:55:42.728195,17.170,can0  204  [16]  5A 25 1C D3 24 99 E9 F1 28 23 30 75 30 75 00 00
2026-07-11T17:55:42.728410,17.170,can0  204  [16]  37 25 1C D3 24 99 E9 F1 28 23 30 75 30 75 00 00
2026-07-11T17:55:42.826690,17.268,can0  041  [04]  E8 00 1A 00
2026-07-11T17:55:42.826809,17.268,can0  204  [16]  14 25 1C D3 24 99 E9 F1 28 23 30 75 30 75 00 00
2026-07-11T17:55:42.829602,17.271,can0  040  [04]  0C 01 0E 00
2026-07-11T17:55:42.829684,17.271,can0  206  [24]  BC 0C 73 09 B1 0C 99 C6 84 0A C6 0C CA 0C 00 00 00 00 00 00 00 00 00 00
2026-07-11T17:55:42.837285,17.279,can0  204  [16]  F1 24 1C D3 24 99 E9 F1 28 23 30 75 30 75 00 00
2026-07-11T17:55:42.921632,17.363,can0   001  [05]  0d 85 30 10 08 0
2026-07-11T17:55:42.931219,17.373,can0  040  [04]  0C 01 0E 00
2026-07-11T17:55:42.931308,17.373,can0  204  [16]  CD 24 1C D3 24 99 E9 F1 28 23 30 75 30 75 00 00
2026-07-11T17:55:42.931397,17.373,can0  070  [20]  98 2C 4D 08 81 B1 62 03 E0 AB 00 00 37 00 00 00 1E 00 00 00
2026-07-11T17:55:42.931542,17.373,can0  204  [16]  AA 24 1C D3 24 99 E9 F1 28 23 30 75 30 75 00 00
2026-07-11T17:55:42.931845,17.373,can0  110  [02]  32 1B
2026-07-11T17:55:43.028327,17.470,can0  001  [05]  D8 53 01 00 80
2026-07-11T17:55:43.028679,17.470,can0  204  [16]  AA 24 1C D3 24 99 E9 F1 FC 21 30 75 30 75 00 00
2026-07-11T17:55:43.028896,17.471,can0  070  [20]  98 2C 4D 08 81 B1 62 03 E0 AB 00 00 37 00 00 00 1E 00 00 00
2026-07-11T17:55:43.031826,17.473,can0  206  [24]  BC 0C 72 09 B6 0C 99 C6 84 0A C5 0C CA 0C 00 00 00 00 00 00 00 00 00 00
2026-07-11T17:55:43.032313,17.474,can0  041  [04]  EE 00 1B 00
2026-07-11T17:55:43.032389,17.474,can0  204  [16]  87 24 1C D3 24 99 E9 F1 FC 21 30 75 30 75 00 00
2026-07-11T17:55:43.071003,17.513,can0   001  [05]  02 04 80 10 08 0
2026-07-11T17:55:43.132501,17.574,can0  040  [04]  12 01 0F 00
2026-07-11T17:55:43.133067,17.575,can0  204  [16]  64 24 1C D3 24 99 E9 F1 FC 21 30 75 30 75 00 00
2026-07-11T17:55:43.133275,17.575,can0  001  [05]  20 48 01 00 80
2026-07-11T17:55:43.133587,17.575,can0  040  [04]  12 01 0F 00
2026-07-11T17:55:43.133912,17.576,can0  204  [16]  41 24 1C D3 24 99 E9 F1 D0 20 30 75 30 75 00 00
2026-07-11T17:55:43.216573,17.658,can0   001  [05]  06 83 c0 10 08 0
2026-07-11T17:55:43.229018,17.671,can0  206  [24]  BC 0C 72 09 B6 0C 99 C6 84 0A C5 0C CA 0C 00 00 00 00 00 00 00 00 00 00
2026-07-11T17:55:43.229436,17.671,can0  204  [16]  1E 24 1C D3 24 99 E9 F1 D0 20 30 75 30 75 00 00
2026-07-11T17:55:43.229786,17.671,can0  204  [16]  FA 23 1C D3 24 99 E9 F1 D0 20 30 75 30 75 00 00
2026-07-11T17:55:43.318317,17.760,can0  001  [05]  68 3C 01 00 80
2026-07-11T17:55:43.318729,17.760,can0  070  [20]  98 2C 4D 08 81 B1 62 03 C8 AF 00 00 37 00 00 00 0D 00 00 00
2026-07-11T17:55:43.319081,17.761,can0  204  [16]  D7 23 1C D3 24 99 E9 F1 A4 1F 30 75 30 75 00 00
2026-07-11T17:55:43.319333,17.761,can0  041  [04]  EC 00 1A 00
2026-07-11T17:55:43.319670,17.761,can0  070  [20]  98 2C 4D 08 81 B1 62 03 C8 AF 00 00 37 00 00 00 0D 00 00 00
2026-07-11T17:55:43.323573,17.765,can0  206  [24]  BC 0C 71 09 B6 0C 99 C6 84 0A C5 0C CA 0C 00 00 00 00 00 00 00 00 00 00
2026-07-11T17:55:43.327724,17.769,can0  204  [16]  91 23 1C D3 24 99 E9 F1 A4 1F 30 75 30 75 00 00
2026-07-11T17:55:43.327897,17.770,can0  060  [32]  00 00 00 00 98 2C 4D 08 D6 06 B8 10 00 00 10 0E FF 01 00 00 00 00 00 00 01 00 00 00 00 00 00 00
2026-07-11T17:55:43.328548,17.770,can0  040  [04]  16 01 0D 00
2026-07-11T17:55:43.328794,17.770,can0  100  [03]  48 81 04
2026-07-11T17:55:43.329057,17.771,can0  120  [04]  00 00 00 00
2026-07-11T17:55:43.364794,17.806,can0   001  [05]  0b 03 00 10 08 0
2026-07-11T17:55:43.425625,17.867,can0  204  [16]  4B 23 1C D3 24 99 E9 F1 A4 1F 30 75 30 75 00 00
2026-07-11T17:55:43.425897,17.868,can0  070  [20]  98 2C 4D 08 81 B1 62 03 C8 AF 00 00 37 00 00 00 0D 00 00 00
2026-07-11T17:55:43.426150,17.868,can0  040  [04]  16 01 0D 00
2026-07-11T17:55:43.426420,17.868,can0  001  [05]  B0 30 01 00 80
2026-07-11T17:55:43.426810,17.868,can0  204  [16]  04 23 1C D3 24 99 E9 F1 78 1E 30 75 30 75 00 00
2026-07-11T17:55:43.522831,17.964,can0  206  [24]  BC 0C 72 09 B6 0C 99 C6 86 0A C5 0C CA 0C 00 00 00 00 00 00 00 00 00 00
2026-07-11T17:55:43.523113,17.965,can0  204  [16]  E1 22 1C D3 24 99 E9 F1 78 1E 30 75 30 75 00 00
2026-07-11T17:55:43.523430,17.965,can0  204  [16]  9B 22 1C D3 24 99 E9 F1 78 1E 30 75 30 75 00 00
2026-07-11T17:55:43.559374,18.001,can0   001  [05]  0f 82 40 10 08 0
2026-07-11T17:55:43.618748,18.060,can0  041  [04]  F6 00 1A 00
2026-07-11T17:55:43.619103,18.061,can0  204  [16]  78 22 1C D3 24 99 E9 F1 78 1E 30 75 30 75 00 00
2026-07-11T17:55:43.619386,18.061,can0  001  [05]  F8 24 01 00 80
2026-07-11T17:55:43.619641,18.061,can0  040  [04]  12 01 0D 00
2026-07-11T17:55:43.619974,18.062,can0  204  [16]  31 22 1C D3 24 99 E9 F1 4C 1D 30 75 30 75 00 00
2026-07-11T17:55:43.713833,18.155,can0  206  [24]  BC 0C 72 09 B1 0C 99 C6 82 0A CA 0C CA 0C 00 00 00 00 00 00 00 00 00 00
2026-07-11T17:55:43.714133,18.156,can0  040  [04]  12 01 0D 00
2026-07-11T17:55:43.714525,18.156,can0  204  [16]  EB 21 1C D3 24 99 E9 F1 4C 1D 30 75 30 75 00 00
2026-07-11T17:55:43.714854,18.156,can0  204  [16]  A5 21 1C D3 24 99 E9 F1 4C 1D 30 75 30 75 00 00
2026-07-11T17:55:43.810639,18.252,can0  204  [16]  5E 21 1C D3 24 99 E9 F1 4C 1D 30 75 30 75 00 00
2026-07-11T17:55:43.813965,18.256,can0  206  [24]  C1 0C 74 09 B1 0C 99 C6 82 0A C6 0C C6 0C 00 00 00 00 00 00 00 00 00 00
2026-07-11T17:55:43.814277,18.256,can0  041  [04]  F2 00 17 00
2026-07-11T17:55:43.814607,18.256,can0  060  [32]  00 00 00 00 00 00 00 00 00 00 00 00 00 00 00 00 00 00 00 00 00 00 00 00 00 00 00 00 00 00 00 00
2026-07-11T17:55:43.814931,18.257,can0  204  [16]  3B 21 1C D3 24 99 E9 F1 4C 1D 30 75 30 75 00 00
2026-07-11T17:55:43.910989,18.353,can0  070  [20]  98 2C 4D 08 81 B1 62 03 C8 AF 00 00 37 00 00 00 0D 00 00 00
2026-07-11T17:55:43.911276,18.353,can0  040  [04]  0C 01 0D 00
2026-07-11T17:55:43.911603,18.353,can0  204  [16]  D2 20 1C D3 24 99 E9 F1 4C 1D 30 75 30 75 00 00
2026-07-11T17:55:43.911842,18.353,can0  040  [04]  0C 01 0D 00
2026-07-11T17:55:43.912146,18.354,can0  204  [16]  AF 20 1C D3 24 99 E9 F1 4C 1D 30 75 30 75 00 00
2026-07-11T17:55:44.014118,18.456,can0  206  [24]  C6 0C 73 09 AD 0C 99 C6 82 0A C6 0C C6 0C 00 00 00 00 00 00 00 00 00 00
2026-07-11T17:55:44.014217,18.456,can0  070  [20]  98 2C 4D 08 81 B1 62 03 C8 AF 00 00 37 00 00 00 0D 00 00 00
2026-07-11T17:55:44.014524,18.456,can0  204  [16]  68 20 1C D3 24 99 E9 F1 4C 1D 30 75 30 75 00 00
2026-07-11T17:55:44.014858,18.456,can0  204  [16]  45 20 1C D3 24 99 E9 F1 4C 1D 30 75 30 75 00 00
2026-07-11T17:55:44.110718,18.552,can0  041  [04]  ED 00 17 00
2026-07-11T17:55:44.111132,18.553,can0  204  [16]  22 20 1C D3 24 99 E9 F1 4C 1D 30 75 30 75 00 00
2026-07-11T17:55:44.111518,18.553,can0  204  [16]  FF 1F 1C D3 24 99 E9 F1 4C 1D 30 75 30 75 00 00
2026-07-11T17:55:44.211553,18.653,can0  206  [24]  C1 0C 73 09 AC 0C 99 C6 80 0A CB 0C C6 0C 00 00 00 00 00 00 00 00 00 00
2026-07-11T17:55:44.213583,18.655,can0  040  [04]  0C 01 0C 00
2026-07-11T17:55:44.213969,18.656,can0  204  [16]  B9 1F 1C D3 24 99 E9 F1 4C 1D 30 75 30 75 00 00
2026-07-11T17:55:44.214256,18.656,can0  040  [04]  0C 01 0C 00
2026-07-11T17:55:44.214578,18.656,can0  204  [16]  B9 1F 1C D3 24 99 E9 F1 4C 1D 30 75 30 75 00 00
2026-07-11T17:55:44.308100,18.750,can0   001  [05]  09 05 f0 10 08 0
2026-07-11T17:55:44.317041,18.759,can0  070  [20]  98 2C 4D 08 81 B1 62 03 B0 B3 00 00 37 00 00 00 11 00 00 00
2026-07-11T17:55:44.317350,18.759,can0  070  [20]  98 2C 4D 08 81 B1 62 03 B0 B3 00 00 37 00 00 00 12 00 00 00
2026-07-11T17:55:44.321096,18.763,can0  204  [16]  72 1F 1C D3 24 99 E9 F1 4C 1D 30 75 30 75 00 00
2026-07-11T17:55:44.321186,18.763,can0  206  [24]  C1 0C 73 09 AC 0C 99 C6 7F 0A C5 0C C6 0C 00 00 00 00 00 00 00 00 00 00
2026-07-11T17:55:44.321601,18.763,can0  060  [32]  00 00 00 00 98 2C 4D 08 D6 06 B8 10 00 00 10 0E FF 01 00 00 00 00 00 00 01 00 00 00 00 00 00 00
2026-07-11T17:55:44.322037,18.764,can0  204  [16]  4F 1F 1C D3 24 99 E9 F1 4C 1D 30 75 30 75 00 00
2026-07-11T17:55:44.420471,18.862,can0  041  [04]  E4 00 11 00
2026-07-11T17:55:44.420733,18.862,can0  001  [05]  90 5F 01 00 80
2026-07-11T17:55:44.421059,18.863,can0  204  [16]  2C 1F 1C D3 24 99 E9 F1 28 23 30 75 30 75 00 00
2026-07-11T17:55:44.421360,18.863,can0  070  [20]  98 2C 4D 08 81 B1 62 03 B0 B3 00 00 37 00 00 00 12 00 00 00
2026-07-11T17:55:44.421579,18.863,can0  040  [04]  13 01 0A 00
2026-07-11T17:55:44.427636,18.869,can0  204  [16]  2C 1F 1C D3 24 99 E9 F1 28 23 30 75 30 75 00 00
2026-07-11T17:55:44.512258,18.954,can0  040  [04]  13 01 0A 00
2026-07-11T17:55:44.515495,18.957,can0  206  [24]  C6 0C 72 09 B2 0C 99 C6 80 0A C5 0C C6 0C 00 00 00 00 00 00 00 00 00 00
2026-07-11T17:55:44.515589,18.957,can0  204  [16]  2C 1F 1C D3 24 99 E9 F1 28 23 30 75 30 75 00 00
2026-07-11T17:55:44.516013,18.958,can0  100  [03]  38 81 04
2026-07-11T17:55:44.516099,18.958,can0  110  [02]  31 1B
2026-07-11T17:55:44.516282,18.958,can0  120  [04]  00 00 00 00
2026-07-11T17:55:44.522644,18.964,can0  204  [16]  4F 1F 1C D3 24 99 E9 F1 28 23 30 75 30 75 00 00
2026-07-11T17:55:44.610463,19.052,can0  204  [16]  4F 1F 1C D3 24 99 E9 F1 28 23 30 75 30 75 00 00
2026-07-11T17:55:44.610702,19.052,can0  041  [04]  DC 00 0C 00
2026-07-11T17:55:44.613479,19.055,can0  206  [24]  C6 0C 71 09 B2 0C 99 C6 7F 0A CA 0C C6 0C 00 00 00 00 00 00 00 00 00 00
2026-07-11T17:55:44.617566,19.059,can0  204  [16]  4F 1F 1C D3 24 99 E9 F1 28 23 30 75 30 75 00 00
2026-07-11T17:55:44.710857,19.152,can0  040  [04]  1B 01 0A 00
2026-07-11T17:55:44.711265,19.153,can0  204  [16]  4F 1F 1C D3 24 99 E9 F1 28 23 30 75 30 75 00 00
2026-07-11T17:55:44.711317,19.153,can0  040  [04]  1B 01 0A 00
2026-07-11T17:55:44.810157,19.252,can0  204  [16]  4F 1F 1C D3 24 99 E9 F1 28 23 30 75 30 75 00 00
2026-07-11T17:55:44.813201,19.255,can0  204  [16]  4F 1F 1C D3 24 99 E9 F1 28 23 30 75 30 75 00 00
2026-07-11T17:55:44.813259,19.255,can0  206  [24]  C1 0C 72 09 B1 0C 99 C6 80 0A CA 0C C6 0C 00 00 00 00 00 00 00 00 00 00
2026-07-11T17:55:44.820366,19.262,can0  060  [32]  00 00 00 00 00 00 00 00 00 00 00 00 00 00 00 00 00 00 00 00 00 00 00 00 00 00 00 00 00 00 00 00
2026-07-11T17:55:44.910956,19.353,can0  204  [16]  4F 1F 1C D3 24 99 E9 F1 28 23 30 75 30 75 00 00
2026-07-11T17:55:44.911240,19.353,can0  041  [04]  DD 00 0D 00
2026-07-11T17:55:44.911544,19.353,can0  204  [16]  72 1F 1C D3 24 99 E9 F1 28 23 30 75 30 75 00 00
2026-07-11T17:55:44.911824,19.353,can0  070  [20]  98 2C 4D 08 81 B1 62 03 B0 B3 00 00 37 00 00 00 12 00 00 00
2026-07-11T17:55:44.912088,19.354,can0  040  [04]  1B 01 09 00
2026-07-11T17:55:45.010414,19.452,can0  204  [16]  B9 1F 1C D3 24 99 E9 F1 28 23 30 75 30 75 00 00
2026-07-11T17:55:45.013386,19.455,can0  206  [24]  BC 0C 73 09 B6 0C 99 C6 81 0A C5 0C CA 0C 00 00 00 00 00 00 00 00 00 00
2026-07-11T17:55:45.013706,19.455,can0  204  [16]  DC 1F 1C D3 24 99 E9 F1 28 23 30 75 30 75 00 00
2026-07-11T17:55:45.014270,19.456,can0  070  [20]  98 2C 4D 08 81 B1 62 03 B0 B3 00 00 37 00 00 00 12 00 00 00
2026-07-11T17:55:45.014474,19.456,can0  040  [04]  1B 01 09 00
2026-07-11T17:55:45.111763,19.553,can0  204  [16]  22 20 1C D3 24 99 E9 F1 28 23 30 75 30 75 00 00
2026-07-11T17:55:45.112076,19.554,can0  204  [16]  45 20 1C D3 24 99 E9 F1 28 23 30 75 30 75 00 00
2026-07-11T17:55:45.118775,19.560,can0  206  [24]  BC 0C 73 09 AC 0C 99 C6 81 0A CF 0C CA 0C 00 00 00 00 00 00 00 00 00 00
2026-07-11T17:55:45.213761,19.655,can0  041  [04]  DA 00 0E 00
2026-07-11T17:55:45.214084,19.656,can0  204  [16]  8C 20 1C D3 24 99 E9 F1 28 23 30 75 30 75 00 00
2026-07-11T17:55:45.214371,19.656,can0  204  [16]  AF 20 1C D3 24 99 E9 F1 28 23 30 75 30 75 00 00
2026-07-11T17:55:45.214583,19.656,can0  040  [04]  40 01 08 00
2026-07-11T17:55:45.317988,19.760,can0  204  [16]  D2 20 1C D3 24 99 E9 F1 28 23 30 75 30 75 00 00
2026-07-11T17:55:45.318361,19.760,can0  070  [20]  98 2C 4D 08 7F B1 62 03 98 B7 00 00 37 00 00 00 23 00 00 00
2026-07-11T17:55:45.318803,19.760,can0  040  [04]  40 01 08 00
2026-07-11T17:55:45.319190,19.761,can0  070  [20]  98 2C 4D 08 7F B1 62 03 98 B7 00 00 37 00 00 00 24 00 00 00
2026-07-11T17:55:45.319613,19.761,can0  204  [16]  F5 20 1C D3 24 99 E9 F1 28 23 30 75 30 75 00 00
2026-07-11T17:55:45.322516,19.764,can0  206  [24]  BC 0C 73 09 A8 0C 99 C6 82 0A CF 0C CA 0C 00 00 00 00 00 00 00 00 00 00
2026-07-11T17:55:45.323006,19.765,can0  060  [32]  00 00 00 00 98 2C 4D 08 D4 06 B8 10 00 00 10 0E FF 01 00 00 00 00 00 00 01 00 00 00 00 00 00 00
2026-07-11T17:55:45.417780,19.859,can0  204  [16]  3B 21 1C D3 24 99 E9 F1 28 23 30 75 30 75 00 00
2026-07-11T17:55:45.417907,19.860,can0  070  [20]  98 2C 4D 08 7F B1 62 03 98 B7 00 00 37 00 00 00 24 00 00 00
2026-07-11T17:55:45.418088,19.860,can0  204  [16]  3B 21 1C D3 24 99 E9 F1 28 23 30 75 30 75 00 00
2026-07-11T17:55:45.418390,19.860,can0  041  [04]  E2 00 12 00
2026-07-11T17:55:45.523377,19.965,can0  204  [16]  5E 21 1C D3 24 99 E9 F1 28 23 30 75 30 75 00 00
2026-07-11T17:55:45.523473,19.965,can0  206  [24]  BC 0C 74 09 A8 0C 99 C6 84 0A CF 0C CA 0C 00 00 00 00 00 00 00 00 00 00
2026-07-11T17:55:45.523563,19.965,can0  040  [04]  3A 01 06 00
2026-07-11T17:55:45.523774,19.965,can0  204  [16]  82 21 1C D3 24 99 E9 F1 28 23 30 75 30 75 00 00
2026-07-11T17:55:45.524155,19.966,can0  040  [04]  3A 01 06 00
2026-07-11T17:55:45.619143,20.061,can0  204  [16]  A5 21 1C D3 24 99 E9 F1 28 23 30 75 30 75 00 00
2026-07-11T17:55:45.619612,20.061,can0  204  [16]  C8 21 1C D3 24 99 E9 F1 28 23 30 75 30 75 00 00
2026-07-11T17:55:45.623998,20.066,can0  206  [24]  BC 0C 73 09 AC 0C 99 C6 83 0A CB 0C CA 0C 00 00 00 00 00 00 00 00 00 00
2026-07-11T17:55:45.719000,20.161,can0  204  [16]  C8 21 1C D3 24 99 E9 F1 28 23 30 75 30 75 00 00
2026-07-11T17:55:45.719303,20.161,can0  041  [04]  E2 00 14 00
2026-07-11T17:55:45.719630,20.161,can0  204  [16]  EB 21 1C D3 24 99 E9 F1 28 23 30 75 30 75 00 00
2026-07-11T17:55:45.719887,20.162,can0  100  [03]  2A 81 04
2026-07-11T17:55:45.720160,20.162,can0  120  [04]  00 00 00 00
2026-07-11T17:55:45.726431,20.168,can0  040  [04]  B3 00 00 00
2026-07-11T17:55:45.813218,20.255,can0  204  [16]  0E 22 1C D3 24 99 E9 F1 28 23 30 75 30 75 00 00
2026-07-11T17:55:45.813514,20.255,can0  040  [04]  B3 00 00 00
2026-07-11T17:55:45.816524,20.258,can0  206  [24]  BC 0C 72 09 AC 0C 99 C6 83 0A CF 0C CA 0C 00 00 00 00 00 00 00 00 00 00
2026-07-11T17:55:45.818406,20.260,can0  204  [16]  0E 22 1C D3 24 99 E9 F1 28 23 30 75 30 75 00 00
2026-07-11T17:55:45.818525,20.260,can0  060  [32]  00 00 00 00 00 00 00 00 00 00 00 00 00 00 00 00 00 00 00 00 00 00 00 00 00 00 00 00 00 00 00 00
2026-07-11T17:55:45.911116,20.353,can0  204  [16]  31 22 1C D3 24 99 E9 F1 28 23 30 75 30 75 00 00
2026-07-11T17:55:45.911185,20.353,can0  070  [20]  98 2C 4D 08 7F B1 62 03 98 B7 00 00 37 00 00 00 24 00 00 00
2026-07-11T17:55:45.920612,20.362,can0  204  [16]  31 22 1C D3 24 99 E9 F1 28 23 30 75 30 75 00 00
2026-07-11T17:55:46.010677,20.452,can0  041  [04]  EC 00 14 00
2026-07-11T17:55:46.013701,20.455,can0  204  [16]  55 22 1C D3 24 99 E9 F1 28 23 30 75 30 75 00 00
2026-07-11T17:55:46.013759,20.455,can0  206  [24]  BC 0C 72 09 BB 0C 99 C6 82 0A C0 0C CA 0C 00 00 00 00 00 00 00 00 00 00
2026-07-11T17:55:46.014263,20.456,can0  070  [20]  98 2C 4D 08 7F B1 62 03 98 B7 00 00 37 00 00 00 24 00 00 00
2026-07-11T17:55:46.014487,20.456,can0  040  [04]  3A 01 00 00
2026-07-11T17:55:46.014853,20.456,can0  204  [16]  55 22 1C D3 24 99 E9 F1 28 23 30 75 30 75 00 00
2026-07-11T17:55:46.122477,20.564,can0  204  [16]  78 22 1C D3 24 99 E9 F1 28 23 30 75 30 75 00 00
2026-07-11T17:55:46.122553,20.564,can0  040  [04]  3A 01 00 00
2026-07-11T17:55:46.122595,20.564,can0  204  [16]  78 22 1C D3 24 99 E9 F1 28 23 30 75 30 75 00 00
2026-07-11T17:55:46.122638,20.564,can0  206  [24]  C1 0C 72 09 BB 0C 99 C6 82 0A C0 0C C6 0C 00 00 00 00 00 00 00 00 00 00
2026-07-11T17:55:46.122699,20.564,can0  110  [02]  31 1B
2026-07-11T17:55:46.211730,20.653,can0  204  [16]  9B 22 1C D3 24 99 E9 F1 28 23 30 75 30 75 00 00
2026-07-11T17:55:46.211797,20.653,can0  060  [32]  1D 00 D6 02 18 83 4D 08 E2 5D 64 03 74 00 87 08 DF 00 FF 00 00 00 00 00 01 00 00 00 00 00 00 00
2026-07-11T17:55:46.212724,20.654,can0  204  [16]  9B 22 1C D3 24 99 E9 F1 28 23 30 75 30 75 00 00
2026-07-11T17:55:46.212777,20.654,can0  041  [04]  F1 00 14 00
2026-07-11T17:55:46.310467,20.752,can0  204  [16]  9B 22 1C D3 24 99 E9 F1 28 23 30 75 30 75 00 00
2026-07-11T17:55:46.313946,20.756,can0  070  [20]  98 2C 4D 08 7F B1 62 03 80 BB 00 00 37 00 00 00 07 00 00 00
2026-07-11T17:55:46.314003,20.756,can0  040  [04]  0C 01 02 00
2026-07-11T17:55:46.314044,20.756,can0  070  [20]  98 2C 4D 08 7F B1 62 03 80 BB 00 00 37 00 00 00 08 00 00 00
2026-07-11T17:55:46.314088,20.756,can0  206  [24]  C1 0C 72 09 B7 0C 99 C6 7F 0A C5 0C CA 0C 00 00 00 00 00 00 00 00 00 00
2026-07-11T17:55:46.314397,20.756,can0  204  [16]  BE 22 1C D3 24 99 E9 F1 28 23 30 75 30 75 00 00
2026-07-11T17:55:46.314626,20.756,can0  040  [04]  0C 01 02 00
2026-07-11T17:55:46.411028,20.853,can0  204  [16]  BE 22 1C D3 24 99 E9 F1 28 23 30 75 30 75 00 00
2026-07-11T17:55:46.417507,20.859,can0  070  [20]  98 2C 4D 08 7F B1 62 03 80 BB 00 00 37 00 00 00 08 00 00 00
2026-07-11T17:55:46.417599,20.859,can0  204  [16]  BE 22 1C D3 24 99 E9 F1 28 23 30 75 30 75 00 00
2026-07-11T17:55:46.510451,20.952,can0  204  [16]  E1 22 1C D3 24 99 E9 F1 28 23 30 75 30 75 00 00
2026-07-11T17:55:46.513648,20.955,can0  206  [24]  BB 0C 72 09 BC 0C 99 C6 80 0A C6 0C D0 0C 00 00 00 00 00 00 00 00 00 00
2026-07-11T17:55:46.513729,20.955,can0  041  [04]  F5 00 11 00
2026-07-11T17:55:46.519700,20.961,can0  204  [16]  E1 22 1C D3 24 99 E9 F1 28 23 30 75 30 75 00 00
2026-07-11T17:55:46.616705,21.058,can0  040  [04]  B3 00 00 00
2026-07-11T17:55:46.616771,21.058,can0  204  [16]  E1 22 1C D3 24 99 E9 F1 28 23 30 75 30 75 00 00
2026-07-11T17:55:46.616819,21.058,can0  040  [04]  B3 00 00 00
2026-07-11T17:55:46.616863,21.058,can0  204  [16]  E1 22 1C D3 24 99 E9 F1 28 23 30 75 30 75 00 00
2026-07-11T17:55:46.616906,21.059,can0  206  [24]  BB 0C 73 09 C1 0C 99 C6 81 0A C5 0C D0 0C 00 00 00 00 00 00 00 00 00 00
2026-07-11T17:55:46.722874,21.165,can0  204  [16]  E1 22 1C D3 24 99 E9 F1 28 23 30 75 30 75 00 00
2026-07-11T17:55:46.722975,21.165,can0  204  [16]  E1 22 1C D3 24 99 E9 F1 28 23 30 75 30 75 00 00
2026-07-11T17:55:46.810465,21.252,can0  041  [04]  DE 00 13 00
2026-07-11T17:55:46.810721,21.252,can0  060  [32]  00 00 00 00 98 2C 4D 08 D4 06 B8 10 00 00 10 0E FF 01 00 00 00 00 00 00 03 00 00 00 00 00 00 00
2026-07-11T17:55:46.810972,21.253,can0  060  [32]  73 ED D5 02 A5 B9 4D 08 5E 1E 64 03 01 00 A5 07 FF 01 00 00 00 00 00 01 03 00 00 00 00 00 00 00
2026-07-11T17:55:46.811183,21.253,can0  060  [32]  74 ED D5 02 E1 69 4D 08 13 24 66 03 00 00 BD 04 FF 01 00 00 00 00 00 02 03 00 00 00 00 00 00 00
2026-07-11T17:55:46.811959,21.254,can0  204  [16]  E1 22 1C D3 24 99 E9 F1 28 23 30 75 30 75 00 00
2026-07-11T17:55:46.814782,21.256,can0  206  [24]  C0 0C 73 09 C1 0C 99 C6 84 0A C5 0C D0 0C 00 00 00 00 00 00 00 00 00 00
2026-07-11T17:55:46.817693,21.259,can0  040  [04]  87 00 02 00
2026-07-11T17:55:46.817768,21.259,can0  204  [16]  E1 22 1C D3 24 99 E9 F1 28 23 30 75 30 75 00 00
2026-07-11T17:55:46.910599,21.352,can0  040  [04]  87 00 02 00
2026-07-11T17:55:46.910920,21.353,can0  204  [16]  E1 22 1C D3 24 99 E9 F1 28 23 30 75 30 75 00 00
2026-07-11T17:55:46.911186,21.353,can0  070  [20]  98 2C 4D 08 7F B1 62 03 80 BB 00 00 37 00 00 00 08 00 00 00
2026-07-11T17:55:46.911543,21.353,can0  204  [16]  E1 22 1C D3 24 99 E9 F1 28 23 30 75 30 75 00 00
2026-07-11T17:55:46.911892,21.354,can0  100  [03]  1A 81 04
2026-07-11T17:55:46.912138,21.354,can0  120  [04]  00 00 00 00
2026-07-11T17:55:47.014184,21.456,can0  206  [24]  C0 0C 73 09 C6 0C 99 C6 83 0A C6 0C D0 0C 00 00 00 00 00 00 00 00 00 00
2026-07-11T17:55:47.014247,21.456,can0  204  [16]  E1 22 1C D3 24 99 E9 F1 28 23 30 75 30 75 00 00
2026-07-11T17:55:47.014293,21.456,can0  070  [20]  98 2C 4D 08 7F B1 62 03 80 BB 00 00 37 00 00 00 08 00 00 00
2026-07-11T17:55:47.014338,21.456,can0  041  [04]  DB 00 12 00
2026-07-11T17:55:47.016798,21.458,can0  204  [16]  E1 22 1C D3 24 99 E9 F1 28 23 30 75 30 75 00 00
2026-07-11T17:55:47.110831,21.552,can0  204  [16]  E1 22 1C D3 24 99 E9 F1 28 23 30 75 30 75 00 00
2026-07-11T17:55:47.111122,21.553,can0  040  [04]  0C 01 05 00
2026-07-11T17:55:47.111361,21.553,can0  040  [04]  0C 01 05 00
2026-07-11T17:55:47.111639,21.553,can0  204  [16]  E1 22 1C D3 24 99 E9 F1 28 23 30 75 30 75 00 00
2026-07-11T17:55:47.116236,21.558,can0  206  [24]  C6 0C 73 09 CA 0C 99 C6 84 0A C1 0C CA 0C 00 00 00 00 00 00 00 00 00 00
2026-07-11T17:55:47.210830,21.652,can0  204  [16]  E1 22 1C D3 24 99 E9 F1 28 23 30 75 30 75 00 00
2026-07-11T17:55:47.211131,21.653,can0  204  [16]  E1 22 1C D3 24 99 E9 F1 28 23 30 75 30 75 00 00
2026-07-11T17:55:47.310758,21.752,can0  070  [20]  98 2C 4D 08 7E B1 62 03 68 BF 00 00 37 00 00 00 0B 00 00 00
2026-07-11T17:55:47.311039,21.753,can0  060  [32]  00 00 00 00 00 00 00 00 00 00 00 00 00 00 00 00 00 00 00 00 00 00 00 00 00 00 00 00 00 00 00 00
2026-07-11T17:55:47.311333,21.753,can0  204  [16]  E1 22 1C D3 24 99 E9 F1 28 23 30 75 30 75 00 00
2026-07-11T17:55:47.311573,21.753,can0  041  [04]  E0 00 0C 00
2026-07-11T17:55:47.311967,21.754,can0  070  [20]  98 2C 4D 08 7E B1 62 03 68 BF 00 00 37 00 00 00 0B 00 00 00
2026-07-11T17:55:47.314683,21.756,can0  206  [24]  CA 0C 73 09 C6 0C 99 C6 83 0A C6 0C CA 0C 00 00 00 00 00 00 00 00 00 00
2026-07-11T17:55:47.321258,21.763,can0  204  [16]  E1 22 1C D3 24 99 E9 F1 28 23 30 75 30 75 00 00
2026-07-11T17:55:47.321354,21.763,can0  040  [04]  0C 01 09 00
2026-07-11T17:55:47.413936,21.856,can0  204  [16]  E1 22 1C D3 24 99 E9 F1 28 23 30 75 30 75 00 00
2026-07-11T17:55:47.414223,21.856,can0  060  [32]  00 00 00 00 98 2C 4D 08 D2 06 B8 10 00 00 10 0E FF 01 00 00 00 00 00 00 01 00 00 00 00 00 00 00
2026-07-11T17:55:47.415332,21.857,can0  040  [04]  0C 01 09 00
2026-07-11T17:55:47.415598,21.857,can0  070  [20]  98 2C 4D 08 7E B1 62 03 68 BF 00 00 37 00 00 00 0B 00 00 00
2026-07-11T17:55:47.415855,21.857,can0  204  [16]  E1 22 1C D3 24 99 E9 F1 28 23 30 75 30 75 00 00
2026-07-11T17:55:47.526735,21.968,can0  206  [24]  CA 0C 72 09 C6 0C 99 C6 84 0A CF 0C CA 0C 00 00 00 00 00 00 00 00 00 00
2026-07-11T17:55:47.526812,21.968,can0  204  [16]  E1 22 1C D3 24 99 E9 F1 28 23 30 75 30 75 00 00
2026-07-11T17:55:47.526856,21.968,can0  204  [16]  E1 22 1C D3 24 99 E9 F1 28 23 30 75 30 75 00 00
2026-07-11T17:55:47.526902,21.969,can0  041  [04]  D1 00 0C 00
2026-07-11T17:55:47.617769,22.059,can0  204  [16]  E1 22 1C D3 24 99 E9 F1 28 23 30 75 30 75 00 00
2026-07-11T17:55:47.617852,22.059,can0  040  [04]  00 01 0A 00
2026-07-11T17:55:47.617928,22.060,can0  206  [24]  CA 0C 72 09 C6 0C 99 C6 84 0A CF 0C CA 0C 00 00 00 00 00 00 00 00 00 00
2026-07-11T17:55:47.617979,22.060,can0  204  [16]  E1 22 1C D3 24 99 E9 F1 28 23 30 75 30 75 00 00
2026-07-11T17:55:47.711705,22.153,can0  040  [04]  00 01 0A 00
2026-07-11T17:55:47.711772,22.153,can0  204  [16]  E1 22 1C D3 24 99 E9 F1 28 23 30 75 30 75 00 00
2026-07-11T17:55:47.712052,22.154,can0  204  [16]  E1 22 1C D3 24 99 E9 F1 28 23 30 75 30 75 00 00
2026-07-11T17:55:47.712364,22.154,can0  110  [02]  31 1B
2026-07-11T17:55:47.810698,22.252,can0  204  [16]  E1 22 1C D3 24 99 E9 F1 28 23 30 75 30 75 00 00
2026-07-11T17:55:47.813448,22.255,can0  206  [24]  CA 0C 72 09 C1 0C 99 C6 84 0A CF 0C CA 0C 00 00 00 00 00 00 00 00 00 00
2026-07-11T17:55:47.813815,22.255,can0  041  [04]  C4 00 0C 00
2026-07-11T17:55:47.814109,22.256,can0  204  [16]  E1 22 1C D3 24 99 E9 F1 28 23 30 75 30 75 00 00
2026-07-11T17:55:47.911126,22.353,can0  060  [32]  00 00 00 00 00 00 00 00 00 00 00 00 00 00 00 00 00 00 00 00 00 00 00 00 00 00 00 00 00 00 00 00
2026-07-11T17:55:47.911745,22.353,can0  040  [04]  F9 00 0C 00
2026-07-11T17:55:47.911796,22.353,can0  204  [16]  E1 22 1C D3 24 99 E9 F1 28 23 30 75 30 75 00 00
2026-07-11T17:55:47.912049,22.354,can0  070  [20]  98 2C 4D 08 7E B1 62 03 68 BF 00 00 37 00 00 00 0B 00 00 00
2026-07-11T17:55:47.912334,22.354,can0  040  [04]  F9 00 0C 00
2026-07-11T17:55:47.912727,22.354,can0  204  [16]  E1 22 1C D3 24 99 E9 F1 28 23 30 75 30 75 00 00
2026-07-11T17:55:48.013504,22.455,can0  206  [24]  CA 0C 71 09 C6 0C 99 C6 84 0A CA 0C CA 0C 00 00 00 00 00 00 00 00 00 00
2026-07-11T17:55:48.013571,22.455,can0  070  [20]  98 2C 4D 08 7E B1 62 03 68 BF 00 00 37 00 00 00 0B 00 00 00
2026-07-11T17:55:48.013870,22.456,can0  204  [16]  E1 22 1C D3 24 99 E9 F1 28 23 30 75 30 75 00 00
2026-07-11T17:55:48.014826,22.456,can0  204  [16]  E1 22 1C D3 24 99 E9 F1 28 23 30 75 30 75 00 00
2026-07-11T17:55:48.110113,22.552,can0  041  [04]  C2 00 0D 00
2026-07-11T17:55:48.110467,22.552,can0  204  [16]  E1 22 1C D3 24 99 E9 F1 28 23 30 75 30 75 00 00
2026-07-11T17:55:48.113414,22.555,can0  206  [24]  C5 0C 71 09 C6 0C 99 C6 85 0A CA 0C D0 0C 00 00 00 00 00 00 00 00 00 00
2026-07-11T17:55:48.121257,22.563,can0  204  [16]  E1 22 1C D3 24 99 E9 F1 28 23 30 75 30 75 00 00
2026-07-11T17:55:48.121328,22.563,can0  100  [03]  07 81 04
2026-07-11T17:55:48.121372,22.563,can0  120  [04]  00 00 00 00
2026-07-11T17:55:48.121800,22.563,can0  040  [04]  ED 00 0B 00
2026-07-11T17:55:48.211777,22.653,can0  204  [16]  E1 22 1C D3 24 99 E9 F1 28 23 30 75 30 75 00 00
2026-07-11T17:55:48.212110,22.654,can0  040  [04]  ED 00 0B 00
2026-07-11T17:55:48.212445,22.654,can0  204  [16]  E1 22 1C D3 24 99 E9 F1 28 23 30 75 30 75 00 00
2026-07-11T17:55:48.314260,22.756,can0  070  [20]  98 2C 4D 08 7E B1 62 03 50 C3 00 00 37 00 00 00 02 00 00 00
2026-07-11T17:55:48.314327,22.756,can0  204  [16]  E1 22 1C D3 24 99 E9 F1 28 23 30 75 30 75 00 00
2026-07-11T17:55:48.314377,22.756,can0  206  [24]  C0 0C 71 09 CA 0C 99 C6 84 0A C1 0C D0 0C 00 00 00 00 00 00 00 00 00 00
2026-07-11T17:55:48.314493,22.756,can0  070  [20]  98 2C 4D 08 7E B1 62 03 50 C3 00 00 37 00 00 00 02 00 00 00
2026-07-11T17:55:48.322995,22.765,can0  204  [16]  E1 22 1C D3 24 99 E9 F1 28 23 30 75 30 75 00 00
2026-07-11T17:55:48.323066,22.765,can0  041  [04]  C8 00 0D 00
2026-07-11T17:55:48.411967,22.854,can0  060  [32]  00 00 00 00 98 2C 4D 08 D2 06 B8 10 00 00 10 0E FF 01 00 00 00 00 00 00 01 00 00 00 00 00 00 00
2026-07-11T17:55:48.412522,22.854,can0  204  [16]  E1 22 1C D3 24 99 E9 F1 28 23 30 75 30 75 00 00
2026-07-11T17:55:48.412625,22.854,can0  070  [20]  98 2C 4D 08 7E B1 62 03 50 C3 00 00 37 00 00 00 02 00 00 00
2026-07-11T17:55:48.412862,22.855,can0  040  [04]  DF 00 0C 00
2026-07-11T17:55:48.416731,22.858,can0  204  [16]  E1 22 1C D3 24 99 E9 F1 28 23 30 75 30 75 00 00
2026-07-11T17:55:48.510523,22.952,can0  040  [04]  DF 00 0C 00
2026-07-11T17:55:48.513992,22.956,can0  206  [24]  C0 0C 71 09 CF 0C 99 C6 82 0A BC 0C D0 0C 00 00 00 00 00 00 00 00 00 00
2026-07-11T17:55:48.514369,22.956,can0  204  [16]  E1 22 1C D3 24 99 E9 F1 28 23 30 75 30 75 00 00
2026-07-11T17:55:48.514730,22.956,can0  204  [16]  E1 22 1C D3 24 99 E9 F1 28 23 30 75 30 75 00 00
2026-07-11T17:55:48.610467,23.052,can0  204  [16]  E1 22 1C D3 24 99 E9 F1 28 23 30 75 30 75 00 00
2026-07-11T17:55:48.610758,23.052,can0  041  [04]  C8 00 0D 00
2026-07-11T17:55:48.614278,23.056,can0  206  [24]  C0 0C 71 09 CF 0C 99 C6 82 0A C1 0C D0 0C 00 00 00 00 00 00 00 00 00 00
2026-07-11T17:55:48.614567,23.056,can0  204  [16]  E1 22 1C D3 24 99 E9 F1 28 23 30 75 30 75 00 00
2026-07-11T17:55:48.710419,23.152,can0  040  [04]  D9 00 0E 00
2026-07-11T17:55:48.710772,23.152,can0  204  [16]  E1 22 1C D3 24 99 E9 F1 28 23 30 75 30 75 00 00
2026-07-11T17:55:48.711031,23.153,can0  040  [04]  D9 00 0E 00
2026-07-11T17:55:48.711411,23.153,can0  204  [16]  E1 22 1C D3 24 99 E9 F1 28 23 30 75 30 75 00 00
2026-07-11T17:55:48.813395,23.255,can0  206  [24]  C0 0C 71 09 CF 0C 99 C6 82 0A C1 0C D0 0C 00 00 00 00 00 00 00 00 00 00
2026-07-11T17:55:48.813779,23.255,can0  204  [16]  E1 22 1C D3 24 99 E9 F1 28 23 30 75 30 75 00 00
2026-07-11T17:55:48.814039,23.256,can0  204  [16]  E1 22 1C D3 24 99 E9 F1 28 23 30 75 30 75 00 00
2026-07-11T17:55:48.910705,23.352,can0  041  [04]  CC 00 0D 00
2026-07-11T17:55:48.910954,23.353,can0  204  [16]  E1 22 1C D3 24 99 E9 F1 28 23 30 75 30 75 00 00
2026-07-11T17:55:48.911206,23.353,can0  070  [20]  98 2C 4D 08 7E B1 62 03 50 C3 00 00 37 00 00 00 02 00 00 00
2026-07-11T17:55:48.911508,23.353,can0  040  [04]  D3 00 0F 00
2026-07-11T17:55:48.911883,23.354,can0  204  [16]  E1 22 1C D3 24 99 E9 F1 28 23 30 75 30 75 00 00
2026-07-11T17:55:49.013550,23.455,can0  206  [24]  C0 0C 71 09 CA 0C 99 C6 83 0A C6 0C D0 0C 00 00 00 00 00 00 00 00 00 00
2026-07-11T17:55:49.013890,23.456,can0  204  [16]  E1 22 1C D3 24 99 E9 F1 28 23 30 75 30 75 00 00
2026-07-11T17:55:49.014133,23.456,can0  070  [20]  98 2C 4D 08 7E B1 62 03 50 C3 00 00 37 00 00 00 02 00 00 00
2026-07-11T17:55:49.014384,23.456,can0  040  [04]  D3 00 0F 00
2026-07-11T17:55:49.014748,23.456,can0  204  [16]  E1 22 1C D3 24 99 E9 F1 28 23 30 75 30 75 00 00
2026-07-11T17:55:49.110285,23.552,can0  204  [16]  E1 22 1C D3 24 99 E9 F1 28 23 30 75 30 75 00 00
2026-07-11T17:55:49.113285,23.555,can0  206  [24]  C0 0C 71 09 CA 0C 99 C6 81 0A C6 0C D0 0C 00 00 00 00 00 00 00 00 00 00
2026-07-11T17:55:49.113648,23.555,can0  041  [04]  CF 00 11 00
2026-07-11T17:55:49.118436,23.560,can0  204  [16]  E1 22 1C D3 24 99 E9 F1 28 23 30 75 30 75 00 00
2026-07-11T17:55:49.210528,23.652,can0  060  [32]  68 34 D6 02 3D 9B 4D 08 D5 80 64 03 60 00 FB 0B FF 01 00 00 00 00 00 00 02 00 00 00 00 00 00 00
2026-07-11T17:55:49.210693,23.652,can0  060  [32]  30 7B D6 02 0E B5 4D 08 2E 1E 64 03 00 00 E1 06 57 00 80 00 00 00 00 01 02 00 00 00 00 00 00 00
2026-07-11T17:55:49.220012,23.662,can0  040  [04]  CF 00 0F 00
2026-07-11T17:55:49.220086,23.662,can0  204  [16]  E1 22 1C D3 24 99 E9 F1 28 23 30 75 30 75 00 00
2026-07-11T17:55:49.220131,23.662,can0  204  [16]  E1 22 1C D3 24 99 E9 F1 28 23 30 75 30 75 00 00
2026-07-11T17:55:49.315874,23.758,can0  070  [20]  98 2C 4D 08 7C B1 62 03 38 C7 00 00 37 00 00 00 1C 00 00 00
2026-07-11T17:55:49.316116,23.758,can0  040  [04]  CF 00 0F 00
2026-07-11T17:55:49.319882,23.762,can0  206  [24]  C0 0C 70 09 CA 0C 99 C6 82 0A C6 0C D0 0C 00 00 00 00 00 00 00 00 00 00
2026-07-11T17:55:49.320198,23.762,can0  070  [20]  98 2C 4D 08 7C B1 62 03 38 C7 00 00 37 00 00 00 1C 00 00 00
2026-07-11T17:55:49.320480,23.762,can0  204  [16]  E1 22 1C D3 24 99 E9 F1 28 23 30 75 30 75 00 00
2026-07-11T17:55:49.320834,23.762,can0  100  [03]  F4 80 04
2026-07-11T17:55:49.321042,23.763,can0  110  [02]  33 1B
2026-07-11T17:55:49.321226,23.763,can0  120  [04]  00 00 00 00
2026-07-11T17:55:49.321450,23.763,can0  204  [16]  E1 22 1C D3 24 99 E9 F1 28 23 30 75 30 75 00 00
2026-07-11T17:55:49.418996,23.861,can0  132  [00]
2026-07-11T17:55:49.419621,23.861,can0  070  [20]  98 2C 4D 08 7C B1 62 03 38 C7 00 00 37 00 00 00 1C 00 00 00
2026-07-11T17:55:49.419753,23.861,can0  204  [16]  E1 22 1C D3 24 99 E9 F1 28 23 30 75 30 75 00 00
2026-07-11T17:55:49.419853,23.861,can0  041  [04]  D1 00 10 00
2026-07-11T17:55:49.419949,23.862,can0  204  [16]  E1 22 1C D3 24 99 E9 F1 28 23 30 75 30 75 00 00
2026-07-11T17:55:49.422957,23.865,can0  206  [24]  C5 0C 71 09 C1 0C 99 C6 82 0A CA 0C D0 0C 00 00 00 00 00 00 00 00 00 00
2026-07-11T17:55:49.520136,23.962,can0  040  [04]  C8 00 10 00
2026-07-11T17:55:49.520611,23.962,can0  204  [16]  E1 22 1C D3 24 99 E9 F1 28 23 30 75 30 75 00 00
2026-07-11T17:55:49.520729,23.962,can0  040  [04]  C8 00 10 00
2026-07-11T17:55:49.522785,23.964,can0  204  [16]  E1 22 1C D3 24 99 E9 F1 28 23 30 75 30 75 00 00
2026-07-11T17:55:49.618129,24.060,can0  204  [16]  E1 22 1C D3 24 99 E9 F1 28 23 30 75 30 75 00 00
2026-07-11T17:55:49.621603,24.063,can0  206  [24]  C5 0C 71 09 C1 0C 99 C6 81 0A C6 0C D0 0C 00 00 00 00 00 00 00 00 00 00
2026-07-11T17:55:49.621907,24.064,can0  204  [16]  E1 22 1C D3 24 99 E9 F1 28 23 30 75 30 75 00 00
2026-07-11T17:55:49.719795,24.161,can0  041  [04]  D5 00 11 00
2026-07-11T17:55:49.720077,24.162,can0  204  [16]  E1 22 1C D3 24 99 E9 F1 28 23 30 75 30 75 00 00
2026-07-11T17:55:49.720374,24.162,can0  040  [04]  C3 00 0F 00
2026-07-11T17:55:49.720789,24.162,can0  204  [16]  E1 22 1C D3 24 99 E9 F1 28 23 30 75 30 75 00 00
2026-07-11T17:55:49.822152,24.264,can0  206  [24]  C5 0C 70 09 C1 0C 99 C6 80 0A C6 0C D0 0C 00 00 00 00 00 00 00 00 00 00
2026-07-11T17:55:49.822454,24.264,can0  040  [04]  C3 00 0F 00
